2022-07-22 11:22:15,650 log1 - DEBUG - Connecting to Modbus...
2022-07-22 11:22:15,651 pymodbus.client.sync - DEBUG - Connection to Modbus server established. Socket ('192.168.1.36', 56135)
2022-07-22 11:22:15,651 root - DEBUG - True
2022-07-22 11:22:15,651 log1 - DEBUG - Modbus Connection Status: True
2022-07-22 11:22:15,652 root - DEBUG - Reading Registers
2022-07-22 11:22:15,652 log1 - DEBUG - Reading Registers
2022-07-22 11:22:15,653 pymodbus.transaction - DEBUG - Current transaction state - IDLE
2022-07-22 11:22:15,653 pymodbus.transaction - DEBUG - Running transaction 1
2022-07-22 11:22:15,653 pymodbus.transaction - DEBUG - SEND: 0x0 0x1 0x0 0x0 0x0 0x6 0x2 0x3 0x0 0x0 0x0 0x2
2022-07-22 11:22:15,654 pymodbus.client.sync - DEBUG - New Transaction state 'SENDING'
2022-07-22 11:22:15,654 pymodbus.transaction - DEBUG - Changing transaction state from 'SENDING' to 'WAITING FOR REPLY'
2022-07-22 11:22:15,690 pymodbus.transaction - DEBUG - Changing transaction state from 'WAITING FOR REPLY' to 'PROCESSING REPLY'
2022-07-22 11:22:15,690 pymodbus.transaction - DEBUG - RECV: 0x0 0x1 0x0 0x0 0x0 0x7 0x2 0x3 0x4 0x0 0x1 0x0 0x1
2022-07-22 11:22:15,690 pymodbus.framer.socket_framer - DEBUG - Processing: 0x0 0x1 0x0 0x0 0x0 0x7 0x2 0x3 0x4 0x0 0x1 0x0 0x1
2022-07-22 11:22:15,690 pymodbus.factory - DEBUG - Factory Response[ReadHoldingRegistersResponse: 3]
2022-07-22 11:22:15,690 pymodbus.transaction - DEBUG - Adding transaction 1
2022-07-22 11:22:15,690 pymodbus.transaction - DEBUG - Getting transaction 1
2022-07-22 11:22:15,690 pymodbus.transaction - DEBUG - Changing transaction state from 'PROCESSING REPLY' to 'TRANSACTION_COMPLETE'
2022-07-22 11:22:15,690 pymodbus.transaction - DEBUG - Current transaction state - TRANSACTION_COMPLETE
2022-07-22 11:22:15,690 pymodbus.transaction - DEBUG - Running transaction 2
2022-07-22 11:22:15,690 pymodbus.transaction - DEBUG - SEND: 0x0 0x2 0x0 0x0 0x0 0x6 0x2 0x3 0x0 0x2 0x0 0x2
2022-07-22 11:22:15,690 pymodbus.client.sync - DEBUG - New Transaction state 'SENDING'
2022-07-22 11:22:15,690 pymodbus.transaction - DEBUG - Changing transaction state from 'SENDING' to 'WAITING FOR REPLY'
2022-07-22 11:22:15,721 pymodbus.transaction - DEBUG - Changing transaction state from 'WAITING FOR REPLY' to 'PROCESSING REPLY'
2022-07-22 11:22:15,721 pymodbus.transaction - DEBUG - RECV: 0x0 0x2 0x0 0x0 0x0 0x7 0x2 0x3 0x4 0x0 0x0 0x0 0x50
2022-07-22 11:22:15,722 pymodbus.framer.socket_framer - DEBUG - Processing: 0x0 0x2 0x0 0x0 0x0 0x7 0x2 0x3 0x4 0x0 0x0 0x0 0x50
2022-07-22 11:22:15,722 pymodbus.factory - DEBUG - Factory Response[ReadHoldingRegistersResponse: 3]
2022-07-22 11:22:15,722 pymodbus.transaction - DEBUG - Adding transaction 2
2022-07-22 11:22:15,722 pymodbus.transaction - DEBUG - Getting transaction 2
2022-07-22 11:22:15,722 pymodbus.transaction - DEBUG - Changing transaction state from 'PROCESSING REPLY' to 'TRANSACTION_COMPLETE'
2022-07-22 11:22:15,723 pymodbus.transaction - DEBUG - Current transaction state - TRANSACTION_COMPLETE
2022-07-22 11:22:15,723 pymodbus.transaction - DEBUG - Running transaction 3
2022-07-22 11:22:15,723 pymodbus.transaction - DEBUG - SEND: 0x0 0x3 0x0 0x0 0x0 0x6 0x2 0x3 0x0 0x4 0x0 0x2
2022-07-22 11:22:15,723 pymodbus.client.sync - DEBUG - New Transaction state 'SENDING'
2022-07-22 11:22:15,723 pymodbus.transaction - DEBUG - Changing transaction state from 'SENDING' to 'WAITING FOR REPLY'
2022-07-22 11:22:15,752 pymodbus.transaction - DEBUG - Changing transaction state from 'WAITING FOR REPLY' to 'PROCESSING REPLY'
2022-07-22 11:22:15,753 pymodbus.transaction - DEBUG - RECV: 0x0 0x3 0x0 0x0 0x0 0x7 0x2 0x3 0x4 0x0 0x0 0x0 0x17
2022-07-22 11:22:15,753 pymodbus.framer.socket_framer - DEBUG - Processing: 0x0 0x3 0x0 0x0 0x0 0x7 0x2 0x3 0x4 0x0 0x0 0x0 0x17
2022-07-22 11:22:15,753 pymodbus.factory - DEBUG - Factory Response[ReadHoldingRegistersResponse: 3]
2022-07-22 11:22:15,753 pymodbus.transaction - DEBUG - Adding transaction 3
2022-07-22 11:22:15,753 pymodbus.transaction - DEBUG - Getting transaction 3
2022-07-22 11:22:15,753 pymodbus.transaction - DEBUG - Changing transaction state from 'PROCESSING REPLY' to 'TRANSACTION_COMPLETE'
2022-07-22 11:22:15,754 pymodbus.transaction - DEBUG - Current transaction state - TRANSACTION_COMPLETE
2022-07-22 11:22:15,754 pymodbus.transaction - DEBUG - Running transaction 4
2022-07-22 11:22:15,754 pymodbus.transaction - DEBUG - SEND: 0x0 0x4 0x0 0x0 0x0 0x6 0x2 0x3 0x0 0x6 0x0 0x2
2022-07-22 11:22:15,754 pymodbus.client.sync - DEBUG - New Transaction state 'SENDING'
2022-07-22 11:22:15,754 pymodbus.transaction - DEBUG - Changing transaction state from 'SENDING' to 'WAITING FOR REPLY'
2022-07-22 11:22:15,784 pymodbus.transaction - DEBUG - Changing transaction state from 'WAITING FOR REPLY' to 'PROCESSING REPLY'
2022-07-22 11:22:15,784 pymodbus.transaction - DEBUG - RECV: 0x0 0x4 0x0 0x0 0x0 0x7 0x2 0x3 0x4 0x0 0x0 0x0 0x4
2022-07-22 11:22:15,785 pymodbus.framer.socket_framer - DEBUG - Processing: 0x0 0x4 0x0 0x0 0x0 0x7 0x2 0x3 0x4 0x0 0x0 0x0 0x4
2022-07-22 11:22:15,785 pymodbus.factory - DEBUG - Factory Response[ReadHoldingRegistersResponse: 3]
2022-07-22 11:22:15,785 pymodbus.transaction - DEBUG - Adding transaction 4
2022-07-22 11:22:15,785 pymodbus.transaction - DEBUG - Getting transaction 4
2022-07-22 11:22:15,785 pymodbus.transaction - DEBUG - Changing transaction state from 'PROCESSING REPLY' to 'TRANSACTION_COMPLETE'
2022-07-22 11:22:15,785 pymodbus.transaction - DEBUG - Current transaction state - TRANSACTION_COMPLETE
2022-07-22 11:22:15,785 pymodbus.transaction - DEBUG - Running transaction 5
2022-07-22 11:22:15,786 pymodbus.transaction - DEBUG - SEND: 0x0 0x5 0x0 0x0 0x0 0x6 0x2 0x3 0x0 0xc 0x0 0x2
2022-07-22 11:22:15,786 pymodbus.client.sync - DEBUG - New Transaction state 'SENDING'
2022-07-22 11:22:15,786 pymodbus.transaction - DEBUG - Changing transaction state from 'SENDING' to 'WAITING FOR REPLY'
2022-07-22 11:22:15,815 pymodbus.transaction - DEBUG - Changing transaction state from 'WAITING FOR REPLY' to 'PROCESSING REPLY'
2022-07-22 11:22:15,815 pymodbus.transaction - DEBUG - RECV: 0x0 0x5 0x0 0x0 0x0 0x7 0x2 0x3 0x4 0x0 0x0 0x0 0x0
2022-07-22 11:22:15,815 pymodbus.framer.socket_framer - DEBUG - Processing: 0x0 0x5 0x0 0x0 0x0 0x7 0x2 0x3 0x4 0x0 0x0 0x0 0x0
2022-07-22 11:22:15,817 pymodbus.factory - DEBUG - Factory Response[ReadHoldingRegistersResponse: 3]
2022-07-22 11:22:15,817 pymodbus.transaction - DEBUG - Adding transaction 5
2022-07-22 11:22:15,817 pymodbus.transaction - DEBUG - Getting transaction 5
2022-07-22 11:22:15,817 pymodbus.transaction - DEBUG - Changing transaction state from 'PROCESSING REPLY' to 'TRANSACTION_COMPLETE'
2022-07-22 11:22:15,817 pymodbus.transaction - DEBUG - Current transaction state - TRANSACTION_COMPLETE
2022-07-22 11:22:15,817 pymodbus.transaction - DEBUG - Running transaction 6
2022-07-22 11:22:15,817 pymodbus.transaction - DEBUG - SEND: 0x0 0x6 0x0 0x0 0x0 0x6 0x2 0x3 0x0 0xe 0x0 0x2
2022-07-22 11:22:15,817 pymodbus.client.sync - DEBUG - New Transaction state 'SENDING'
2022-07-22 11:22:15,818 pymodbus.transaction - DEBUG - Changing transaction state from 'SENDING' to 'WAITING FOR REPLY'
2022-07-22 11:22:15,846 pymodbus.transaction - DEBUG - Changing transaction state from 'WAITING FOR REPLY' to 'PROCESSING REPLY'
2022-07-22 11:22:15,846 pymodbus.transaction - DEBUG - RECV: 0x0 0x6 0x0 0x0 0x0 0x7 0x2 0x3 0x4 0x0 0x0 0x0 0x0
2022-07-22 11:22:15,847 pymodbus.framer.socket_framer - DEBUG - Processing: 0x0 0x6 0x0 0x0 0x0 0x7 0x2 0x3 0x4 0x0 0x0 0x0 0x0
2022-07-22 11:22:15,847 pymodbus.factory - DEBUG - Factory Response[ReadHoldingRegistersResponse: 3]
2022-07-22 11:22:15,847 pymodbus.transaction - DEBUG - Adding transaction 6
2022-07-22 11:22:15,847 pymodbus.transaction - DEBUG - Getting transaction 6
2022-07-22 11:22:15,847 pymodbus.transaction - DEBUG - Changing transaction state from 'PROCESSING REPLY' to 'TRANSACTION_COMPLETE'
2022-07-22 11:22:15,847 pymodbus.transaction - DEBUG - Current transaction state - TRANSACTION_COMPLETE
2022-07-22 11:22:15,847 pymodbus.transaction - DEBUG - Running transaction 7
2022-07-22 11:22:15,847 pymodbus.transaction - DEBUG - SEND: 0x0 0x7 0x0 0x0 0x0 0x6 0x2 0x3 0x0 0x10 0x0 0x2
2022-07-22 11:22:15,848 pymodbus.client.sync - DEBUG - New Transaction state 'SENDING'
2022-07-22 11:22:15,848 pymodbus.transaction - DEBUG - Changing transaction state from 'SENDING' to 'WAITING FOR REPLY'
2022-07-22 11:22:15,877 pymodbus.transaction - DEBUG - Changing transaction state from 'WAITING FOR REPLY' to 'PROCESSING REPLY'
2022-07-22 11:22:15,878 pymodbus.transaction - DEBUG - RECV: 0x0 0x7 0x0 0x0 0x0 0x7 0x2 0x3 0x4 0x0 0x0 0x0 0x0
2022-07-22 11:22:15,878 pymodbus.framer.socket_framer - DEBUG - Processing: 0x0 0x7 0x0 0x0 0x0 0x7 0x2 0x3 0x4 0x0 0x0 0x0 0x0
2022-07-22 11:22:15,878 pymodbus.factory - DEBUG - Factory Response[ReadHoldingRegistersResponse: 3]
2022-07-22 11:22:15,878 pymodbus.transaction - DEBUG - Adding transaction 7
2022-07-22 11:22:15,878 pymodbus.transaction - DEBUG - Getting transaction 7
2022-07-22 11:22:15,878 pymodbus.transaction - DEBUG - Changing transaction state from 'PROCESSING REPLY' to 'TRANSACTION_COMPLETE'
2022-07-22 11:22:15,878 pymodbus.transaction - DEBUG - Current transaction state - TRANSACTION_COMPLETE
2022-07-22 11:22:15,878 pymodbus.transaction - DEBUG - Running transaction 8
2022-07-22 11:22:15,879 pymodbus.transaction - DEBUG - SEND: 0x0 0x8 0x0 0x0 0x0 0x6 0x2 0x3 0x0 0x12 0x0 0x2
2022-07-22 11:22:15,879 pymodbus.client.sync - DEBUG - New Transaction state 'SENDING'
2022-07-22 11:22:15,879 pymodbus.transaction - DEBUG - Changing transaction state from 'SENDING' to 'WAITING FOR REPLY'
2022-07-22 11:22:15,909 pymodbus.transaction - DEBUG - Changing transaction state from 'WAITING FOR REPLY' to 'PROCESSING REPLY'
2022-07-22 11:22:15,909 pymodbus.transaction - DEBUG - RECV: 0x0 0x8 0x0 0x0 0x0 0x7 0x2 0x3 0x4 0x0 0x0 0x0 0x0
2022-07-22 11:22:15,910 pymodbus.framer.socket_framer - DEBUG - Processing: 0x0 0x8 0x0 0x0 0x0 0x7 0x2 0x3 0x4 0x0 0x0 0x0 0x0
2022-07-22 11:22:15,910 pymodbus.factory - DEBUG - Factory Response[ReadHoldingRegistersResponse: 3]
2022-07-22 11:22:15,910 pymodbus.transaction - DEBUG - Adding transaction 8
2022-07-22 11:22:15,910 pymodbus.transaction - DEBUG - Getting transaction 8
2022-07-22 11:22:15,910 pymodbus.transaction - DEBUG - Changing transaction state from 'PROCESSING REPLY' to 'TRANSACTION_COMPLETE'
2022-07-22 11:22:15,910 pymodbus.transaction - DEBUG - Current transaction state - TRANSACTION_COMPLETE
2022-07-22 11:22:15,910 pymodbus.transaction - DEBUG - Running transaction 9
2022-07-22 11:22:15,910 pymodbus.transaction - DEBUG - SEND: 0x0 0x9 0x0 0x0 0x0 0x6 0x2 0x3 0x0 0x14 0x0 0x2
2022-07-22 11:22:15,911 pymodbus.client.sync - DEBUG - New Transaction state 'SENDING'
2022-07-22 11:22:15,911 pymodbus.transaction - DEBUG - Changing transaction state from 'SENDING' to 'WAITING FOR REPLY'
2022-07-22 11:22:15,941 pymodbus.transaction - DEBUG - Changing transaction state from 'WAITING FOR REPLY' to 'PROCESSING REPLY'
2022-07-22 11:22:15,941 pymodbus.transaction - DEBUG - RECV: 0x0 0x9 0x0 0x0 0x0 0x7 0x2 0x3 0x4 0x0 0x0 0x0 0x0
2022-07-22 11:22:15,941 pymodbus.framer.socket_framer - DEBUG - Processing: 0x0 0x9 0x0 0x0 0x0 0x7 0x2 0x3 0x4 0x0 0x0 0x0 0x0
2022-07-22 11:22:15,941 pymodbus.factory - DEBUG - Factory Response[ReadHoldingRegistersResponse: 3]
2022-07-22 11:22:15,941 pymodbus.transaction - DEBUG - Adding transaction 9
2022-07-22 11:22:15,941 pymodbus.transaction - DEBUG - Getting transaction 9
2022-07-22 11:22:15,941 pymodbus.transaction - DEBUG - Changing transaction state from 'PROCESSING REPLY' to 'TRANSACTION_COMPLETE'
2022-07-22 11:22:15,941 pymodbus.transaction - DEBUG - Current transaction state - TRANSACTION_COMPLETE
2022-07-22 11:22:15,941 pymodbus.transaction - DEBUG - Running transaction 10
2022-07-22 11:22:15,941 pymodbus.transaction - DEBUG - SEND: 0x0 0xa 0x0 0x0 0x0 0x6 0x2 0x3 0x0 0x16 0x0 0x2
2022-07-22 11:22:15,942 pymodbus.client.sync - DEBUG - New Transaction state 'SENDING'
2022-07-22 11:22:15,942 pymodbus.transaction - DEBUG - Changing transaction state from 'SENDING' to 'WAITING FOR REPLY'
2022-07-22 11:22:15,971 pymodbus.transaction - DEBUG - Changing transaction state from 'WAITING FOR REPLY' to 'PROCESSING REPLY'
2022-07-22 11:22:15,971 pymodbus.transaction - DEBUG - RECV: 0x0 0xa 0x0 0x0 0x0 0x7 0x2 0x3 0x4 0x0 0x0 0x0 0x0
2022-07-22 11:22:15,972 pymodbus.framer.socket_framer - DEBUG - Processing: 0x0 0xa 0x0 0x0 0x0 0x7 0x2 0x3 0x4 0x0 0x0 0x0 0x0
2022-07-22 11:22:15,972 pymodbus.factory - DEBUG - Factory Response[ReadHoldingRegistersResponse: 3]
2022-07-22 11:22:15,972 pymodbus.transaction - DEBUG - Adding transaction 10
2022-07-22 11:22:15,972 pymodbus.transaction - DEBUG - Getting transaction 10
2022-07-22 11:22:15,972 pymodbus.transaction - DEBUG - Changing transaction state from 'PROCESSING REPLY' to 'TRANSACTION_COMPLETE'
2022-07-22 11:22:15,972 pymodbus.transaction - DEBUG - Current transaction state - TRANSACTION_COMPLETE
2022-07-22 11:22:15,972 pymodbus.transaction - DEBUG - Running transaction 11
2022-07-22 11:22:15,972 pymodbus.transaction - DEBUG - SEND: 0x0 0xb 0x0 0x0 0x0 0x6 0x2 0x3 0x0 0x18 0x0 0x2
2022-07-22 11:22:15,972 pymodbus.client.sync - DEBUG - New Transaction state 'SENDING'
2022-07-22 11:22:15,972 pymodbus.transaction - DEBUG - Changing transaction state from 'SENDING' to 'WAITING FOR REPLY'
2022-07-22 11:22:16,002 pymodbus.transaction - DEBUG - Changing transaction state from 'WAITING FOR REPLY' to 'PROCESSING REPLY'
2022-07-22 11:22:16,002 pymodbus.transaction - DEBUG - RECV: 0x0 0xb 0x0 0x0 0x0 0x7 0x2 0x3 0x4 0x0 0x0 0x0 0x0
2022-07-22 11:22:16,003 pymodbus.framer.socket_framer - DEBUG - Processing: 0x0 0xb 0x0 0x0 0x0 0x7 0x2 0x3 0x4 0x0 0x0 0x0 0x0
2022-07-22 11:22:16,003 pymodbus.factory - DEBUG - Factory Response[ReadHoldingRegistersResponse: 3]
2022-07-22 11:22:16,003 pymodbus.transaction - DEBUG - Adding transaction 11
2022-07-22 11:22:16,003 pymodbus.transaction - DEBUG - Getting transaction 11
2022-07-22 11:22:16,003 pymodbus.transaction - DEBUG - Changing transaction state from 'PROCESSING REPLY' to 'TRANSACTION_COMPLETE'
2022-07-22 11:22:16,003 pymodbus.transaction - DEBUG - Current transaction state - TRANSACTION_COMPLETE
2022-07-22 11:22:16,003 pymodbus.transaction - DEBUG - Running transaction 12
2022-07-22 11:22:16,003 pymodbus.transaction - DEBUG - SEND: 0x0 0xc 0x0 0x0 0x0 0x6 0x2 0x3 0x0 0x1a 0x0 0x2
2022-07-22 11:22:16,003 pymodbus.client.sync - DEBUG - New Transaction state 'SENDING'
2022-07-22 11:22:16,004 pymodbus.transaction - DEBUG - Changing transaction state from 'SENDING' to 'WAITING FOR REPLY'
2022-07-22 11:22:16,034 pymodbus.transaction - DEBUG - Changing transaction state from 'WAITING FOR REPLY' to 'PROCESSING REPLY'
2022-07-22 11:22:16,035 pymodbus.transaction - DEBUG - RECV: 0x0 0xc 0x0 0x0 0x0 0x7 0x2 0x3 0x4 0x0 0x0 0x0 0x0
2022-07-22 11:22:16,035 pymodbus.framer.socket_framer - DEBUG - Processing: 0x0 0xc 0x0 0x0 0x0 0x7 0x2 0x3 0x4 0x0 0x0 0x0 0x0
2022-07-22 11:22:16,035 pymodbus.factory - DEBUG - Factory Response[ReadHoldingRegistersResponse: 3]
2022-07-22 11:22:16,035 pymodbus.transaction - DEBUG - Adding transaction 12
2022-07-22 11:22:16,035 pymodbus.transaction - DEBUG - Getting transaction 12
2022-07-22 11:22:16,035 pymodbus.transaction - DEBUG - Changing transaction state from 'PROCESSING REPLY' to 'TRANSACTION_COMPLETE'
2022-07-22 11:22:16,035 pymodbus.transaction - DEBUG - Current transaction state - TRANSACTION_COMPLETE
2022-07-22 11:22:16,036 pymodbus.transaction - DEBUG - Running transaction 13
2022-07-22 11:22:16,036 pymodbus.transaction - DEBUG - SEND: 0x0 0xd 0x0 0x0 0x0 0x6 0x2 0x3 0x0 0x1c 0x0 0x2
2022-07-22 11:22:16,036 pymodbus.client.sync - DEBUG - New Transaction state 'SENDING'
2022-07-22 11:22:16,036 pymodbus.transaction - DEBUG - Changing transaction state from 'SENDING' to 'WAITING FOR REPLY'
2022-07-22 11:22:16,065 pymodbus.transaction - DEBUG - Changing transaction state from 'WAITING FOR REPLY' to 'PROCESSING REPLY'
2022-07-22 11:22:16,065 pymodbus.transaction - DEBUG - RECV: 0x0 0xd 0x0 0x0 0x0 0x7 0x2 0x3 0x4 0x0 0x0 0x0 0x0
2022-07-22 11:22:16,065 pymodbus.framer.socket_framer - DEBUG - Processing: 0x0 0xd 0x0 0x0 0x0 0x7 0x2 0x3 0x4 0x0 0x0 0x0 0x0
2022-07-22 11:22:16,065 pymodbus.factory - DEBUG - Factory Response[ReadHoldingRegistersResponse: 3]
2022-07-22 11:22:16,065 pymodbus.transaction - DEBUG - Adding transaction 13
2022-07-22 11:22:16,066 pymodbus.transaction - DEBUG - Getting transaction 13
2022-07-22 11:22:16,066 pymodbus.transaction - DEBUG - Changing transaction state from 'PROCESSING REPLY' to 'TRANSACTION_COMPLETE'
2022-07-22 11:22:16,066 pymodbus.transaction - DEBUG - Current transaction state - TRANSACTION_COMPLETE
2022-07-22 11:22:16,066 pymodbus.transaction - DEBUG - Running transaction 14
2022-07-22 11:22:16,066 pymodbus.transaction - DEBUG - SEND: 0x0 0xe 0x0 0x0 0x0 0x6 0x2 0x3 0x0 0x1e 0x0 0x2
2022-07-22 11:22:16,066 pymodbus.client.sync - DEBUG - New Transaction state 'SENDING'
2022-07-22 11:22:16,066 pymodbus.transaction - DEBUG - Changing transaction state from 'SENDING' to 'WAITING FOR REPLY'
2022-07-22 11:22:16,097 pymodbus.transaction - DEBUG - Changing transaction state from 'WAITING FOR REPLY' to 'PROCESSING REPLY'
2022-07-22 11:22:16,097 pymodbus.transaction - DEBUG - RECV: 0x0 0xe 0x0 0x0 0x0 0x7 0x2 0x3 0x4 0x0 0x0 0x0 0x0
2022-07-22 11:22:16,097 pymodbus.framer.socket_framer - DEBUG - Processing: 0x0 0xe 0x0 0x0 0x0 0x7 0x2 0x3 0x4 0x0 0x0 0x0 0x0
2022-07-22 11:22:16,097 pymodbus.factory - DEBUG - Factory Response[ReadHoldingRegistersResponse: 3]
2022-07-22 11:22:16,097 pymodbus.transaction - DEBUG - Adding transaction 14
2022-07-22 11:22:16,097 pymodbus.transaction - DEBUG - Getting transaction 14
2022-07-22 11:22:16,097 pymodbus.transaction - DEBUG - Changing transaction state from 'PROCESSING REPLY' to 'TRANSACTION_COMPLETE'
2022-07-22 11:22:16,097 pymodbus.transaction - DEBUG - Current transaction state - TRANSACTION_COMPLETE
2022-07-22 11:22:16,097 pymodbus.transaction - DEBUG - Running transaction 15
2022-07-22 11:22:16,097 pymodbus.transaction - DEBUG - SEND: 0x0 0xf 0x0 0x0 0x0 0x6 0x2 0x3 0x0 0x20 0x0 0x2
2022-07-22 11:22:16,097 pymodbus.client.sync - DEBUG - New Transaction state 'SENDING'
2022-07-22 11:22:16,098 pymodbus.transaction - DEBUG - Changing transaction state from 'SENDING' to 'WAITING FOR REPLY'
2022-07-22 11:22:16,129 pymodbus.transaction - DEBUG - Changing transaction state from 'WAITING FOR REPLY' to 'PROCESSING REPLY'
2022-07-22 11:22:16,129 pymodbus.transaction - DEBUG - RECV: 0x0 0xf 0x0 0x0 0x0 0x7 0x2 0x3 0x4 0x0 0x0 0x0 0x0
2022-07-22 11:22:16,129 pymodbus.framer.socket_framer - DEBUG - Processing: 0x0 0xf 0x0 0x0 0x0 0x7 0x2 0x3 0x4 0x0 0x0 0x0 0x0
2022-07-22 11:22:16,129 pymodbus.factory - DEBUG - Factory Response[ReadHoldingRegistersResponse: 3]
2022-07-22 11:22:16,129 pymodbus.transaction - DEBUG - Adding transaction 15
2022-07-22 11:22:16,130 pymodbus.transaction - DEBUG - Getting transaction 15
2022-07-22 11:22:16,130 pymodbus.transaction - DEBUG - Changing transaction state from 'PROCESSING REPLY' to 'TRANSACTION_COMPLETE'
2022-07-22 11:22:16,130 pymodbus.transaction - DEBUG - Current transaction state - TRANSACTION_COMPLETE
2022-07-22 11:22:16,130 pymodbus.transaction - DEBUG - Running transaction 16
2022-07-22 11:22:16,130 pymodbus.transaction - DEBUG - SEND: 0x0 0x10 0x0 0x0 0x0 0x6 0x2 0x3 0x0 0x22 0x0 0x2
2022-07-22 11:22:16,130 pymodbus.client.sync - DEBUG - New Transaction state 'SENDING'
2022-07-22 11:22:16,130 pymodbus.transaction - DEBUG - Changing transaction state from 'SENDING' to 'WAITING FOR REPLY'
2022-07-22 11:22:16,159 pymodbus.transaction - DEBUG - Changing transaction state from 'WAITING FOR REPLY' to 'PROCESSING REPLY'
2022-07-22 11:22:16,159 pymodbus.transaction - DEBUG - RECV: 0x0 0x10 0x0 0x0 0x0 0x7 0x2 0x3 0x4 0x0 0x0 0x0 0x0
2022-07-22 11:22:16,160 pymodbus.framer.socket_framer - DEBUG - Processing: 0x0 0x10 0x0 0x0 0x0 0x7 0x2 0x3 0x4 0x0 0x0 0x0 0x0
2022-07-22 11:22:16,160 pymodbus.factory - DEBUG - Factory Response[ReadHoldingRegistersResponse: 3]
2022-07-22 11:22:16,160 pymodbus.transaction - DEBUG - Adding transaction 16
2022-07-22 11:22:16,160 pymodbus.transaction - DEBUG - Getting transaction 16
2022-07-22 11:22:16,160 pymodbus.transaction - DEBUG - Changing transaction state from 'PROCESSING REPLY' to 'TRANSACTION_COMPLETE'
2022-07-22 11:22:16,160 pymodbus.transaction - DEBUG - Current transaction state - TRANSACTION_COMPLETE
2022-07-22 11:22:16,160 pymodbus.transaction - DEBUG - Running transaction 17
2022-07-22 11:22:16,161 pymodbus.transaction - DEBUG - SEND: 0x0 0x11 0x0 0x0 0x0 0x6 0x2 0x3 0x0 0x24 0x0 0x2
2022-07-22 11:22:16,161 pymodbus.client.sync - DEBUG - New Transaction state 'SENDING'
2022-07-22 11:22:16,161 pymodbus.transaction - DEBUG - Changing transaction state from 'SENDING' to 'WAITING FOR REPLY'
2022-07-22 11:22:16,190 pymodbus.transaction - DEBUG - Changing transaction state from 'WAITING FOR REPLY' to 'PROCESSING REPLY'
2022-07-22 11:22:16,190 pymodbus.transaction - DEBUG - RECV: 0x0 0x11 0x0 0x0 0x0 0x7 0x2 0x3 0x4 0x0 0x0 0x0 0x0
2022-07-22 11:22:16,190 pymodbus.framer.socket_framer - DEBUG - Processing: 0x0 0x11 0x0 0x0 0x0 0x7 0x2 0x3 0x4 0x0 0x0 0x0 0x0
2022-07-22 11:22:16,190 pymodbus.factory - DEBUG - Factory Response[ReadHoldingRegistersResponse: 3]
2022-07-22 11:22:16,191 pymodbus.transaction - DEBUG - Adding transaction 17
2022-07-22 11:22:16,191 pymodbus.transaction - DEBUG - Getting transaction 17
2022-07-22 11:22:16,191 pymodbus.transaction - DEBUG - Changing transaction state from 'PROCESSING REPLY' to 'TRANSACTION_COMPLETE'
2022-07-22 11:22:16,191 pymodbus.transaction - DEBUG - Current transaction state - TRANSACTION_COMPLETE
2022-07-22 11:22:16,191 pymodbus.transaction - DEBUG - Running transaction 18
2022-07-22 11:22:16,191 pymodbus.transaction - DEBUG - SEND: 0x0 0x12 0x0 0x0 0x0 0x6 0x2 0x3 0x0 0x26 0x0 0x2
2022-07-22 11:22:16,191 pymodbus.client.sync - DEBUG - New Transaction state 'SENDING'
2022-07-22 11:22:16,191 pymodbus.transaction - DEBUG - Changing transaction state from 'SENDING' to 'WAITING FOR REPLY'
2022-07-22 11:22:16,222 pymodbus.transaction - DEBUG - Changing transaction state from 'WAITING FOR REPLY' to 'PROCESSING REPLY'
2022-07-22 11:22:16,222 pymodbus.transaction - DEBUG - RECV: 0x0 0x12 0x0 0x0 0x0 0x7 0x2 0x3 0x4 0x0 0x0 0x0 0x0
2022-07-22 11:22:16,222 pymodbus.framer.socket_framer - DEBUG - Processing: 0x0 0x12 0x0 0x0 0x0 0x7 0x2 0x3 0x4 0x0 0x0 0x0 0x0
2022-07-22 11:22:16,222 pymodbus.factory - DEBUG - Factory Response[ReadHoldingRegistersResponse: 3]
2022-07-22 11:22:16,222 pymodbus.transaction - DEBUG - Adding transaction 18
2022-07-22 11:22:16,222 pymodbus.transaction - DEBUG - Getting transaction 18
2022-07-22 11:22:16,222 pymodbus.transaction - DEBUG - Changing transaction state from 'PROCESSING REPLY' to 'TRANSACTION_COMPLETE'
2022-07-22 11:22:16,222 pymodbus.transaction - DEBUG - Current transaction state - TRANSACTION_COMPLETE
2022-07-22 11:22:16,223 pymodbus.transaction - DEBUG - Running transaction 19
2022-07-22 11:22:16,223 pymodbus.transaction - DEBUG - SEND: 0x0 0x13 0x0 0x0 0x0 0x6 0x2 0x3 0x0 0x28 0x0 0x2
2022-07-22 11:22:16,223 pymodbus.client.sync - DEBUG - New Transaction state 'SENDING'
2022-07-22 11:22:16,223 pymodbus.transaction - DEBUG - Changing transaction state from 'SENDING' to 'WAITING FOR REPLY'
2022-07-22 11:22:16,254 pymodbus.transaction - DEBUG - Changing transaction state from 'WAITING FOR REPLY' to 'PROCESSING REPLY'
2022-07-22 11:22:16,254 pymodbus.transaction - DEBUG - RECV: 0x0 0x13 0x0 0x0 0x0 0x7 0x2 0x3 0x4 0x0 0x0 0x0 0x0
2022-07-22 11:22:16,254 pymodbus.framer.socket_framer - DEBUG - Processing: 0x0 0x13 0x0 0x0 0x0 0x7 0x2 0x3 0x4 0x0 0x0 0x0 0x0
2022-07-22 11:22:16,254 pymodbus.factory - DEBUG - Factory Response[ReadHoldingRegistersResponse: 3]
2022-07-22 11:22:16,254 pymodbus.transaction - DEBUG - Adding transaction 19
2022-07-22 11:22:16,254 pymodbus.transaction - DEBUG - Getting transaction 19
2022-07-22 11:22:16,254 pymodbus.transaction - DEBUG - Changing transaction state from 'PROCESSING REPLY' to 'TRANSACTION_COMPLETE'
2022-07-22 11:22:16,254 pymodbus.transaction - DEBUG - Current transaction state - TRANSACTION_COMPLETE
2022-07-22 11:22:16,254 pymodbus.transaction - DEBUG - Running transaction 20
2022-07-22 11:22:16,255 pymodbus.transaction - DEBUG - SEND: 0x0 0x14 0x0 0x0 0x0 0x6 0x2 0x3 0x0 0x2a 0x0 0x2
2022-07-22 11:22:16,255 pymodbus.client.sync - DEBUG - New Transaction state 'SENDING'
2022-07-22 11:22:16,255 pymodbus.transaction - DEBUG - Changing transaction state from 'SENDING' to 'WAITING FOR REPLY'
2022-07-22 11:22:16,285 pymodbus.transaction - DEBUG - Changing transaction state from 'WAITING FOR REPLY' to 'PROCESSING REPLY'
2022-07-22 11:22:16,285 pymodbus.transaction - DEBUG - RECV: 0x0 0x14 0x0 0x0 0x0 0x7 0x2 0x3 0x4 0x0 0x0 0x0 0x0
2022-07-22 11:22:16,285 pymodbus.framer.socket_framer - DEBUG - Processing: 0x0 0x14 0x0 0x0 0x0 0x7 0x2 0x3 0x4 0x0 0x0 0x0 0x0
2022-07-22 11:22:16,285 pymodbus.factory - DEBUG - Factory Response[ReadHoldingRegistersResponse: 3]
2022-07-22 11:22:16,285 pymodbus.transaction - DEBUG - Adding transaction 20
2022-07-22 11:22:16,286 pymodbus.transaction - DEBUG - Getting transaction 20
2022-07-22 11:22:16,286 pymodbus.transaction - DEBUG - Changing transaction state from 'PROCESSING REPLY' to 'TRANSACTION_COMPLETE'
2022-07-22 11:22:16,286 pymodbus.transaction - DEBUG - Current transaction state - TRANSACTION_COMPLETE
2022-07-22 11:22:16,286 pymodbus.transaction - DEBUG - Running transaction 21
2022-07-22 11:22:16,286 pymodbus.transaction - DEBUG - SEND: 0x0 0x15 0x0 0x0 0x0 0x6 0x2 0x3 0x0 0x2c 0x0 0x2
2022-07-22 11:22:16,286 pymodbus.client.sync - DEBUG - New Transaction state 'SENDING'
2022-07-22 11:22:16,286 pymodbus.transaction - DEBUG - Changing transaction state from 'SENDING' to 'WAITING FOR REPLY'
2022-07-22 11:22:16,316 pymodbus.transaction - DEBUG - Changing transaction state from 'WAITING FOR REPLY' to 'PROCESSING REPLY'
2022-07-22 11:22:16,317 pymodbus.transaction - DEBUG - RECV: 0x0 0x15 0x0 0x0 0x0 0x7 0x2 0x3 0x4 0x0 0x0 0x0 0x0
2022-07-22 11:22:16,317 pymodbus.framer.socket_framer - DEBUG - Processing: 0x0 0x15 0x0 0x0 0x0 0x7 0x2 0x3 0x4 0x0 0x0 0x0 0x0
2022-07-22 11:22:16,317 pymodbus.factory - DEBUG - Factory Response[ReadHoldingRegistersResponse: 3]
2022-07-22 11:22:16,317 pymodbus.transaction - DEBUG - Adding transaction 21
2022-07-22 11:22:16,317 pymodbus.transaction - DEBUG - Getting transaction 21
2022-07-22 11:22:16,317 pymodbus.transaction - DEBUG - Changing transaction state from 'PROCESSING REPLY' to 'TRANSACTION_COMPLETE'
2022-07-22 11:22:16,317 pymodbus.transaction - DEBUG - Current transaction state - TRANSACTION_COMPLETE
2022-07-22 11:22:16,317 pymodbus.transaction - DEBUG - Running transaction 22
2022-07-22 11:22:16,317 pymodbus.transaction - DEBUG - SEND: 0x0 0x16 0x0 0x0 0x0 0x6 0x2 0x3 0x0 0x2e 0x0 0x2
2022-07-22 11:22:16,318 pymodbus.client.sync - DEBUG - New Transaction state 'SENDING'
2022-07-22 11:22:16,318 pymodbus.transaction - DEBUG - Changing transaction state from 'SENDING' to 'WAITING FOR REPLY'
2022-07-22 11:22:16,347 pymodbus.transaction - DEBUG - Changing transaction state from 'WAITING FOR REPLY' to 'PROCESSING REPLY'
2022-07-22 11:22:16,347 pymodbus.transaction - DEBUG - RECV: 0x0 0x16 0x0 0x0 0x0 0x7 0x2 0x3 0x4 0x0 0x0 0x0 0x0
2022-07-22 11:22:16,347 pymodbus.framer.socket_framer - DEBUG - Processing: 0x0 0x16 0x0 0x0 0x0 0x7 0x2 0x3 0x4 0x0 0x0 0x0 0x0
2022-07-22 11:22:16,347 pymodbus.factory - DEBUG - Factory Response[ReadHoldingRegistersResponse: 3]
2022-07-22 11:22:16,347 pymodbus.transaction - DEBUG - Adding transaction 22
2022-07-22 11:22:16,347 pymodbus.transaction - DEBUG - Getting transaction 22
2022-07-22 11:22:16,348 pymodbus.transaction - DEBUG - Changing transaction state from 'PROCESSING REPLY' to 'TRANSACTION_COMPLETE'
2022-07-22 11:22:16,348 pymodbus.transaction - DEBUG - Current transaction state - TRANSACTION_COMPLETE
2022-07-22 11:22:16,348 pymodbus.transaction - DEBUG - Running transaction 23
2022-07-22 11:22:16,348 pymodbus.transaction - DEBUG - SEND: 0x0 0x17 0x0 0x0 0x0 0x6 0x2 0x3 0x0 0x30 0x0 0x2
2022-07-22 11:22:16,348 pymodbus.client.sync - DEBUG - New Transaction state 'SENDING'
2022-07-22 11:22:16,348 pymodbus.transaction - DEBUG - Changing transaction state from 'SENDING' to 'WAITING FOR REPLY'
2022-07-22 11:22:16,377 pymodbus.transaction - DEBUG - Changing transaction state from 'WAITING FOR REPLY' to 'PROCESSING REPLY'
2022-07-22 11:22:16,377 pymodbus.transaction - DEBUG - RECV: 0x0 0x17 0x0 0x0 0x0 0x7 0x2 0x3 0x4 0x0 0x0 0x0 0x0
2022-07-22 11:22:16,377 pymodbus.framer.socket_framer - DEBUG - Processing: 0x0 0x17 0x0 0x0 0x0 0x7 0x2 0x3 0x4 0x0 0x0 0x0 0x0
2022-07-22 11:22:16,377 pymodbus.factory - DEBUG - Factory Response[ReadHoldingRegistersResponse: 3]
2022-07-22 11:22:16,377 pymodbus.transaction - DEBUG - Adding transaction 23
2022-07-22 11:22:16,377 pymodbus.transaction - DEBUG - Getting transaction 23
2022-07-22 11:22:16,377 pymodbus.transaction - DEBUG - Changing transaction state from 'PROCESSING REPLY' to 'TRANSACTION_COMPLETE'
2022-07-22 11:22:16,378 pymodbus.transaction - DEBUG - Current transaction state - TRANSACTION_COMPLETE
2022-07-22 11:22:16,378 pymodbus.transaction - DEBUG - Running transaction 24
2022-07-22 11:22:16,378 pymodbus.transaction - DEBUG - SEND: 0x0 0x18 0x0 0x0 0x0 0x6 0x2 0x3 0x0 0x32 0x0 0x2
2022-07-22 11:22:16,378 pymodbus.client.sync - DEBUG - New Transaction state 'SENDING'
2022-07-22 11:22:16,378 pymodbus.transaction - DEBUG - Changing transaction state from 'SENDING' to 'WAITING FOR REPLY'
2022-07-22 11:22:16,407 pymodbus.transaction - DEBUG - Changing transaction state from 'WAITING FOR REPLY' to 'PROCESSING REPLY'
2022-07-22 11:22:16,407 pymodbus.transaction - DEBUG - RECV: 0x0 0x18 0x0 0x0 0x0 0x7 0x2 0x3 0x4 0x0 0x0 0x0 0x0
2022-07-22 11:22:16,407 pymodbus.framer.socket_framer - DEBUG - Processing: 0x0 0x18 0x0 0x0 0x0 0x7 0x2 0x3 0x4 0x0 0x0 0x0 0x0
2022-07-22 11:22:16,407 pymodbus.factory - DEBUG - Factory Response[ReadHoldingRegistersResponse: 3]
2022-07-22 11:22:16,407 pymodbus.transaction - DEBUG - Adding transaction 24
2022-07-22 11:22:16,407 pymodbus.transaction - DEBUG - Getting transaction 24
2022-07-22 11:22:16,407 pymodbus.transaction - DEBUG - Changing transaction state from 'PROCESSING REPLY' to 'TRANSACTION_COMPLETE'
2022-07-22 11:22:16,409 pymodbus.transaction - DEBUG - Current transaction state - TRANSACTION_COMPLETE
2022-07-22 11:22:16,409 pymodbus.transaction - DEBUG - Running transaction 25
2022-07-22 11:22:16,409 pymodbus.transaction - DEBUG - SEND: 0x0 0x19 0x0 0x0 0x0 0x6 0x2 0x3 0x0 0x34 0x0 0x2
2022-07-22 11:22:16,409 pymodbus.client.sync - DEBUG - New Transaction state 'SENDING'
2022-07-22 11:22:16,409 pymodbus.transaction - DEBUG - Changing transaction state from 'SENDING' to 'WAITING FOR REPLY'
2022-07-22 11:22:16,439 pymodbus.transaction - DEBUG - Changing transaction state from 'WAITING FOR REPLY' to 'PROCESSING REPLY'
2022-07-22 11:22:16,439 pymodbus.transaction - DEBUG - RECV: 0x0 0x19 0x0 0x0 0x0 0x7 0x2 0x3 0x4 0x0 0x0 0x0 0x0
2022-07-22 11:22:16,439 pymodbus.framer.socket_framer - DEBUG - Processing: 0x0 0x19 0x0 0x0 0x0 0x7 0x2 0x3 0x4 0x0 0x0 0x0 0x0
2022-07-22 11:22:16,439 pymodbus.factory - DEBUG - Factory Response[ReadHoldingRegistersResponse: 3]
2022-07-22 11:22:16,439 pymodbus.transaction - DEBUG - Adding transaction 25
2022-07-22 11:22:16,439 pymodbus.transaction - DEBUG - Getting transaction 25
2022-07-22 11:22:16,439 pymodbus.transaction - DEBUG - Changing transaction state from 'PROCESSING REPLY' to 'TRANSACTION_COMPLETE'
2022-07-22 11:22:16,439 pymodbus.transaction - DEBUG - Current transaction state - TRANSACTION_COMPLETE
2022-07-22 11:22:16,439 pymodbus.transaction - DEBUG - Running transaction 26
2022-07-22 11:22:16,439 pymodbus.transaction - DEBUG - SEND: 0x0 0x1a 0x0 0x0 0x0 0x6 0x2 0x3 0x0 0x36 0x0 0x2
2022-07-22 11:22:16,441 pymodbus.client.sync - DEBUG - New Transaction state 'SENDING'
2022-07-22 11:22:16,441 pymodbus.transaction - DEBUG - Changing transaction state from 'SENDING' to 'WAITING FOR REPLY'
2022-07-22 11:22:16,471 pymodbus.transaction - DEBUG - Changing transaction state from 'WAITING FOR REPLY' to 'PROCESSING REPLY'
2022-07-22 11:22:16,471 pymodbus.transaction - DEBUG - RECV: 0x0 0x1a 0x0 0x0 0x0 0x7 0x2 0x3 0x4 0x0 0x0 0x0 0x0
2022-07-22 11:22:16,472 pymodbus.framer.socket_framer - DEBUG - Processing: 0x0 0x1a 0x0 0x0 0x0 0x7 0x2 0x3 0x4 0x0 0x0 0x0 0x0
2022-07-22 11:22:16,472 pymodbus.factory - DEBUG - Factory Response[ReadHoldingRegistersResponse: 3]
2022-07-22 11:22:16,472 pymodbus.transaction - DEBUG - Adding transaction 26
2022-07-22 11:22:16,472 pymodbus.transaction - DEBUG - Getting transaction 26
2022-07-22 11:22:16,472 pymodbus.transaction - DEBUG - Changing transaction state from 'PROCESSING REPLY' to 'TRANSACTION_COMPLETE'
2022-07-22 11:22:16,472 pymodbus.transaction - DEBUG - Current transaction state - TRANSACTION_COMPLETE
2022-07-22 11:22:16,472 pymodbus.transaction - DEBUG - Running transaction 27
2022-07-22 11:22:16,472 pymodbus.transaction - DEBUG - SEND: 0x0 0x1b 0x0 0x0 0x0 0x6 0x2 0x3 0x0 0x38 0x0 0x2
2022-07-22 11:22:16,472 pymodbus.client.sync - DEBUG - New Transaction state 'SENDING'
2022-07-22 11:22:16,472 pymodbus.transaction - DEBUG - Changing transaction state from 'SENDING' to 'WAITING FOR REPLY'
2022-07-22 11:22:16,502 pymodbus.transaction - DEBUG - Changing transaction state from 'WAITING FOR REPLY' to 'PROCESSING REPLY'
2022-07-22 11:22:16,502 pymodbus.transaction - DEBUG - RECV: 0x0 0x1b 0x0 0x0 0x0 0x7 0x2 0x3 0x4 0x0 0x0 0x0 0x0
2022-07-22 11:22:16,502 pymodbus.framer.socket_framer - DEBUG - Processing: 0x0 0x1b 0x0 0x0 0x0 0x7 0x2 0x3 0x4 0x0 0x0 0x0 0x0
2022-07-22 11:22:16,502 pymodbus.factory - DEBUG - Factory Response[ReadHoldingRegistersResponse: 3]
2022-07-22 11:22:16,502 pymodbus.transaction - DEBUG - Adding transaction 27
2022-07-22 11:22:16,502 pymodbus.transaction - DEBUG - Getting transaction 27
2022-07-22 11:22:16,502 pymodbus.transaction - DEBUG - Changing transaction state from 'PROCESSING REPLY' to 'TRANSACTION_COMPLETE'
2022-07-22 11:22:16,502 pymodbus.transaction - DEBUG - Current transaction state - TRANSACTION_COMPLETE
2022-07-22 11:22:16,502 pymodbus.transaction - DEBUG - Running transaction 28
2022-07-22 11:22:16,502 pymodbus.transaction - DEBUG - SEND: 0x0 0x1c 0x0 0x0 0x0 0x6 0x2 0x3 0x0 0x3a 0x0 0x2
2022-07-22 11:22:16,502 pymodbus.client.sync - DEBUG - New Transaction state 'SENDING'
2022-07-22 11:22:16,502 pymodbus.transaction - DEBUG - Changing transaction state from 'SENDING' to 'WAITING FOR REPLY'
2022-07-22 11:22:16,533 pymodbus.transaction - DEBUG - Changing transaction state from 'WAITING FOR REPLY' to 'PROCESSING REPLY'
2022-07-22 11:22:16,533 pymodbus.transaction - DEBUG - RECV: 0x0 0x1c 0x0 0x0 0x0 0x7 0x2 0x3 0x4 0x0 0x0 0x0 0x0
2022-07-22 11:22:16,533 pymodbus.framer.socket_framer - DEBUG - Processing: 0x0 0x1c 0x0 0x0 0x0 0x7 0x2 0x3 0x4 0x0 0x0 0x0 0x0
2022-07-22 11:22:16,534 pymodbus.factory - DEBUG - Factory Response[ReadHoldingRegistersResponse: 3]
2022-07-22 11:22:16,534 pymodbus.transaction - DEBUG - Adding transaction 28
2022-07-22 11:22:16,534 pymodbus.transaction - DEBUG - Getting transaction 28
2022-07-22 11:22:16,534 pymodbus.transaction - DEBUG - Changing transaction state from 'PROCESSING REPLY' to 'TRANSACTION_COMPLETE'
2022-07-22 11:22:16,534 pymodbus.transaction - DEBUG - Current transaction state - TRANSACTION_COMPLETE
2022-07-22 11:22:16,534 pymodbus.transaction - DEBUG - Running transaction 29
2022-07-22 11:22:16,534 pymodbus.transaction - DEBUG - SEND: 0x0 0x1d 0x0 0x0 0x0 0x6 0x2 0x3 0x0 0x3c 0x0 0x2
2022-07-22 11:22:16,534 pymodbus.client.sync - DEBUG - New Transaction state 'SENDING'
2022-07-22 11:22:16,534 pymodbus.transaction - DEBUG - Changing transaction state from 'SENDING' to 'WAITING FOR REPLY'
2022-07-22 11:22:16,564 pymodbus.transaction - DEBUG - Changing transaction state from 'WAITING FOR REPLY' to 'PROCESSING REPLY'
2022-07-22 11:22:16,564 pymodbus.transaction - DEBUG - RECV: 0x0 0x1d 0x0 0x0 0x0 0x7 0x2 0x3 0x4 0x0 0x0 0x0 0x0
2022-07-22 11:22:16,565 pymodbus.framer.socket_framer - DEBUG - Processing: 0x0 0x1d 0x0 0x0 0x0 0x7 0x2 0x3 0x4 0x0 0x0 0x0 0x0
2022-07-22 11:22:16,565 pymodbus.factory - DEBUG - Factory Response[ReadHoldingRegistersResponse: 3]
2022-07-22 11:22:16,565 pymodbus.transaction - DEBUG - Adding transaction 29
2022-07-22 11:22:16,565 pymodbus.transaction - DEBUG - Getting transaction 29
2022-07-22 11:22:16,565 pymodbus.transaction - DEBUG - Changing transaction state from 'PROCESSING REPLY' to 'TRANSACTION_COMPLETE'
2022-07-22 11:22:16,565 pymodbus.transaction - DEBUG - Current transaction state - TRANSACTION_COMPLETE
2022-07-22 11:22:16,565 pymodbus.transaction - DEBUG - Running transaction 30
2022-07-22 11:22:16,565 pymodbus.transaction - DEBUG - SEND: 0x0 0x1e 0x0 0x0 0x0 0x6 0x2 0x3 0x0 0x40 0x0 0x2
2022-07-22 11:22:16,565 pymodbus.client.sync - DEBUG - New Transaction state 'SENDING'
2022-07-22 11:22:16,566 pymodbus.transaction - DEBUG - Changing transaction state from 'SENDING' to 'WAITING FOR REPLY'
2022-07-22 11:22:16,594 pymodbus.transaction - DEBUG - Changing transaction state from 'WAITING FOR REPLY' to 'PROCESSING REPLY'
2022-07-22 11:22:16,594 pymodbus.transaction - DEBUG - RECV: 0x0 0x1e 0x0 0x0 0x0 0x7 0x2 0x3 0x4 0x0 0x0 0x0 0x0
2022-07-22 11:22:16,594 pymodbus.framer.socket_framer - DEBUG - Processing: 0x0 0x1e 0x0 0x0 0x0 0x7 0x2 0x3 0x4 0x0 0x0 0x0 0x0
2022-07-22 11:22:16,595 pymodbus.factory - DEBUG - Factory Response[ReadHoldingRegistersResponse: 3]
2022-07-22 11:22:16,595 pymodbus.transaction - DEBUG - Adding transaction 30
2022-07-22 11:22:16,595 pymodbus.transaction - DEBUG - Getting transaction 30
2022-07-22 11:22:16,595 pymodbus.transaction - DEBUG - Changing transaction state from 'PROCESSING REPLY' to 'TRANSACTION_COMPLETE'
2022-07-22 11:22:16,595 pymodbus.transaction - DEBUG - Current transaction state - TRANSACTION_COMPLETE
2022-07-22 11:22:16,596 pymodbus.transaction - DEBUG - Running transaction 31
2022-07-22 11:22:16,596 pymodbus.transaction - DEBUG - SEND: 0x0 0x1f 0x0 0x0 0x0 0x6 0x2 0x3 0x0 0x3e 0x0 0x2
2022-07-22 11:22:16,596 pymodbus.client.sync - DEBUG - New Transaction state 'SENDING'
2022-07-22 11:22:16,596 pymodbus.transaction - DEBUG - Changing transaction state from 'SENDING' to 'WAITING FOR REPLY'
2022-07-22 11:22:16,627 pymodbus.transaction - DEBUG - Changing transaction state from 'WAITING FOR REPLY' to 'PROCESSING REPLY'
2022-07-22 11:22:16,627 pymodbus.transaction - DEBUG - RECV: 0x0 0x1f 0x0 0x0 0x0 0x7 0x2 0x3 0x4 0x0 0x0 0x0 0x0
2022-07-22 11:22:16,627 pymodbus.framer.socket_framer - DEBUG - Processing: 0x0 0x1f 0x0 0x0 0x0 0x7 0x2 0x3 0x4 0x0 0x0 0x0 0x0
2022-07-22 11:22:16,627 pymodbus.factory - DEBUG - Factory Response[ReadHoldingRegistersResponse: 3]
2022-07-22 11:22:16,627 pymodbus.transaction - DEBUG - Adding transaction 31
2022-07-22 11:22:16,627 pymodbus.transaction - DEBUG - Getting transaction 31
2022-07-22 11:22:16,627 pymodbus.transaction - DEBUG - Changing transaction state from 'PROCESSING REPLY' to 'TRANSACTION_COMPLETE'
2022-07-22 11:22:16,627 log1 - DEBUG - Reading Register Complete
2022-07-22 11:22:16,629 log1 - DEBUG - Posting Data to DB
2022-07-22 11:22:16,637 urllib3.connectionpool - DEBUG - Starting new HTTP connection (1): 192.168.1.36:4000
2022-07-22 11:22:16,658 urllib3.connectionpool - DEBUG - http://192.168.1.36:4000 "POST /data HTTP/1.1" 200 847
2022-07-22 11:22:16,658 root - DEBUG - {"timestamp":"1970-01-20T04:41:00.135Z","primary_positive_pump":23,"primary_negative_pump":4,"system_mode":0,"system_alarm_status":0,"balancing_valve":0,"positive_valve":0,"negative_valve":0,"state_of_charge":0,"bcu_mode_status":0,"bcu_voltage":0,"bcu_current":0,"bcu_power":0,"bcu_state_of_charge":0,"bcu_hydrogen_sensor":0,"bcu_leakage_sensor":0,"smoke_sensor":0,"bcu_ocv":0,"bcu_positive_tank_temp":0,"bcu_negative_tank_temp":0,"positive_tank_high_level_float":0,"negative_tank_high_level_float":0,"positive_tank_low_level_float":0,"negative_tank_low_level_float":0,"primary_stack_voltage":0,"primary_stack_current":0,"primary_stack_positive_pressure_sensor":0,"primary_stack_negative_pressure_sensor":0,"positive_stack_pressure_delta":0,"b1_primary_stack_pressure_delta":0,"sensor_temp":0,"humidity":0,"_id":"62da17e8ad3a3eac12b5d0c7","__v":0}
2022-07-22 11:22:16,659 log1 - DEBUG - {'timestamp': 1658460135, 'dc_main_contactor': 1.0, 'stk1_contactor': 80.0, 'primary_positive_pump': 23.0, 'primary_negative_pump': 4.0, 'system_mode': 0, 'system_alarm_status': 0, 'balancing_valve': 0.0, 'positive_valve': 0.0, 'negative_valve': 0.0, 'state_of_charge': 0.0, 'bcu_mode_status': 0.0, 'bcu_voltage': 0.0, 'bcu_current': 0.0, 'bcu_power': 0.0, 'bcu_state_of_charge': 0.0, 'bcu_hydrogen_sensor': 0.0, 'bcu_leakage_sensor': 0.0, 'smoke_sensor': 0.0, 'bcu_ocv': 0.0, 'bcu_positive_tank_temp': 0.0, 'bcu_negative_tank_temp': 0.0, 'positive_tank_high_level_float': 0.0, 'negative_tank_high_level_float': 0.0, 'positive_tank_low_level_float': 0.0, 'negative_tank_low_level_float': 0.0, 'primary_stack_voltage': 0.0, 'primary_stack_current': 0.0, 'primary_stack_positive_pressure_sensor': 0.0, 'primary_stack_negative_pressure_sensor': 0.0, 'positive_stack_pressure_delta': 0.0, 'b1_primary_stack_pressure_delta': 0.0, 'sensor_temp': 0.0, 'humidity': 0.0, 'bms_timestamp': 0, 'plc_alarm_status_1': 0}
2022-07-22 11:22:16,662 log1 - DEBUG - POST Complete
