2022-07-25 17:47:19,616 log1 - DEBUG - Connecting to Modbus...
2022-07-25 17:47:19,618 pymodbus.client.sync - DEBUG - Connection to Modbus server established. Socket ('192.168.1.36', 50306)
2022-07-25 17:47:19,618 root - DEBUG - True
2022-07-25 17:47:19,618 log1 - DEBUG - Modbus Connection Status: True
2022-07-25 17:47:19,619 root - DEBUG - Reading Registers
2022-07-25 17:47:19,619 log1 - DEBUG - Reading Registers
2022-07-25 17:47:19,619 pymodbus.transaction - DEBUG - Current transaction state - IDLE
2022-07-25 17:47:19,619 pymodbus.transaction - DEBUG - Running transaction 1
2022-07-25 17:47:19,619 pymodbus.transaction - DEBUG - SEND: 0x0 0x1 0x0 0x0 0x0 0x6 0x2 0x3 0x0 0x0 0x0 0x2
2022-07-25 17:47:19,619 pymodbus.client.sync - DEBUG - New Transaction state 'SENDING'
2022-07-25 17:47:19,620 pymodbus.transaction - DEBUG - Changing transaction state from 'SENDING' to 'WAITING FOR REPLY'
2022-07-25 17:47:19,647 pymodbus.transaction - DEBUG - Changing transaction state from 'WAITING FOR REPLY' to 'PROCESSING REPLY'
2022-07-25 17:47:19,648 pymodbus.transaction - DEBUG - RECV: 0x0 0x1 0x0 0x0 0x0 0x7 0x2 0x3 0x4 0x0 0x0 0xff 0xfe
2022-07-25 17:47:19,648 pymodbus.framer.socket_framer - DEBUG - Processing: 0x0 0x1 0x0 0x0 0x0 0x7 0x2 0x3 0x4 0x0 0x0 0xff 0xfe
2022-07-25 17:47:19,648 pymodbus.factory - DEBUG - Factory Response[ReadHoldingRegistersResponse: 3]
2022-07-25 17:47:19,648 pymodbus.transaction - DEBUG - Adding transaction 1
2022-07-25 17:47:19,648 pymodbus.transaction - DEBUG - Getting transaction 1
2022-07-25 17:47:19,648 pymodbus.transaction - DEBUG - Changing transaction state from 'PROCESSING REPLY' to 'TRANSACTION_COMPLETE'
2022-07-25 17:47:19,648 pymodbus.transaction - DEBUG - Current transaction state - TRANSACTION_COMPLETE
2022-07-25 17:47:19,649 pymodbus.transaction - DEBUG - Running transaction 2
2022-07-25 17:47:19,649 pymodbus.transaction - DEBUG - SEND: 0x0 0x2 0x0 0x0 0x0 0x6 0x2 0x3 0x0 0x2 0x0 0x2
2022-07-25 17:47:19,649 pymodbus.client.sync - DEBUG - New Transaction state 'SENDING'
2022-07-25 17:47:19,649 pymodbus.transaction - DEBUG - Changing transaction state from 'SENDING' to 'WAITING FOR REPLY'
2022-07-25 17:47:19,677 pymodbus.transaction - DEBUG - Changing transaction state from 'WAITING FOR REPLY' to 'PROCESSING REPLY'
2022-07-25 17:47:19,677 pymodbus.transaction - DEBUG - RECV: 0x0 0x2 0x0 0x0 0x0 0x7 0x2 0x3 0x4 0x0 0x0 0x0 0x50
2022-07-25 17:47:19,677 pymodbus.framer.socket_framer - DEBUG - Processing: 0x0 0x2 0x0 0x0 0x0 0x7 0x2 0x3 0x4 0x0 0x0 0x0 0x50
2022-07-25 17:47:19,678 pymodbus.factory - DEBUG - Factory Response[ReadHoldingRegistersResponse: 3]
2022-07-25 17:47:19,678 pymodbus.transaction - DEBUG - Adding transaction 2
2022-07-25 17:47:19,678 pymodbus.transaction - DEBUG - Getting transaction 2
2022-07-25 17:47:19,678 pymodbus.transaction - DEBUG - Changing transaction state from 'PROCESSING REPLY' to 'TRANSACTION_COMPLETE'
2022-07-25 17:47:19,678 pymodbus.transaction - DEBUG - Current transaction state - TRANSACTION_COMPLETE
2022-07-25 17:47:19,678 pymodbus.transaction - DEBUG - Running transaction 3
2022-07-25 17:47:19,678 pymodbus.transaction - DEBUG - SEND: 0x0 0x3 0x0 0x0 0x0 0x6 0x2 0x3 0x0 0x4 0x0 0x2
2022-07-25 17:47:19,678 pymodbus.client.sync - DEBUG - New Transaction state 'SENDING'
2022-07-25 17:47:19,679 pymodbus.transaction - DEBUG - Changing transaction state from 'SENDING' to 'WAITING FOR REPLY'
2022-07-25 17:47:19,709 pymodbus.transaction - DEBUG - Changing transaction state from 'WAITING FOR REPLY' to 'PROCESSING REPLY'
2022-07-25 17:47:19,709 pymodbus.transaction - DEBUG - RECV: 0x0 0x3 0x0 0x0 0x0 0x7 0x2 0x3 0x4 0x0 0x0 0x0 0x17
2022-07-25 17:47:19,709 pymodbus.framer.socket_framer - DEBUG - Processing: 0x0 0x3 0x0 0x0 0x0 0x7 0x2 0x3 0x4 0x0 0x0 0x0 0x17
2022-07-25 17:47:19,709 pymodbus.factory - DEBUG - Factory Response[ReadHoldingRegistersResponse: 3]
2022-07-25 17:47:19,709 pymodbus.transaction - DEBUG - Adding transaction 3
2022-07-25 17:47:19,709 pymodbus.transaction - DEBUG - Getting transaction 3
2022-07-25 17:47:19,709 pymodbus.transaction - DEBUG - Changing transaction state from 'PROCESSING REPLY' to 'TRANSACTION_COMPLETE'
2022-07-25 17:47:19,709 pymodbus.transaction - DEBUG - Current transaction state - TRANSACTION_COMPLETE
2022-07-25 17:47:19,709 pymodbus.transaction - DEBUG - Running transaction 4
2022-07-25 17:47:19,709 pymodbus.transaction - DEBUG - SEND: 0x0 0x4 0x0 0x0 0x0 0x6 0x2 0x3 0x0 0x6 0x0 0x2
2022-07-25 17:47:19,709 pymodbus.client.sync - DEBUG - New Transaction state 'SENDING'
2022-07-25 17:47:19,709 pymodbus.transaction - DEBUG - Changing transaction state from 'SENDING' to 'WAITING FOR REPLY'
2022-07-25 17:47:19,741 pymodbus.transaction - DEBUG - Changing transaction state from 'WAITING FOR REPLY' to 'PROCESSING REPLY'
2022-07-25 17:47:19,741 pymodbus.transaction - DEBUG - RECV: 0x0 0x4 0x0 0x0 0x0 0x7 0x2 0x3 0x4 0x0 0x0 0x0 0x4
2022-07-25 17:47:19,741 pymodbus.framer.socket_framer - DEBUG - Processing: 0x0 0x4 0x0 0x0 0x0 0x7 0x2 0x3 0x4 0x0 0x0 0x0 0x4
2022-07-25 17:47:19,741 pymodbus.factory - DEBUG - Factory Response[ReadHoldingRegistersResponse: 3]
2022-07-25 17:47:19,741 pymodbus.transaction - DEBUG - Adding transaction 4
2022-07-25 17:47:19,741 pymodbus.transaction - DEBUG - Getting transaction 4
2022-07-25 17:47:19,741 pymodbus.transaction - DEBUG - Changing transaction state from 'PROCESSING REPLY' to 'TRANSACTION_COMPLETE'
2022-07-25 17:47:19,741 pymodbus.transaction - DEBUG - Current transaction state - TRANSACTION_COMPLETE
2022-07-25 17:47:19,741 pymodbus.transaction - DEBUG - Running transaction 5
2022-07-25 17:47:19,741 pymodbus.transaction - DEBUG - SEND: 0x0 0x5 0x0 0x0 0x0 0x6 0x2 0x3 0x0 0xc 0x0 0x2
2022-07-25 17:47:19,741 pymodbus.client.sync - DEBUG - New Transaction state 'SENDING'
2022-07-25 17:47:19,742 pymodbus.transaction - DEBUG - Changing transaction state from 'SENDING' to 'WAITING FOR REPLY'
2022-07-25 17:47:19,771 pymodbus.transaction - DEBUG - Changing transaction state from 'WAITING FOR REPLY' to 'PROCESSING REPLY'
2022-07-25 17:47:19,771 pymodbus.transaction - DEBUG - RECV: 0x0 0x5 0x0 0x0 0x0 0x7 0x2 0x3 0x4 0x0 0x0 0x0 0x0
2022-07-25 17:47:19,771 pymodbus.framer.socket_framer - DEBUG - Processing: 0x0 0x5 0x0 0x0 0x0 0x7 0x2 0x3 0x4 0x0 0x0 0x0 0x0
2022-07-25 17:47:19,772 pymodbus.factory - DEBUG - Factory Response[ReadHoldingRegistersResponse: 3]
2022-07-25 17:47:19,772 pymodbus.transaction - DEBUG - Adding transaction 5
2022-07-25 17:47:19,772 pymodbus.transaction - DEBUG - Getting transaction 5
2022-07-25 17:47:19,772 pymodbus.transaction - DEBUG - Changing transaction state from 'PROCESSING REPLY' to 'TRANSACTION_COMPLETE'
2022-07-25 17:47:19,772 pymodbus.transaction - DEBUG - Current transaction state - TRANSACTION_COMPLETE
2022-07-25 17:47:19,772 pymodbus.transaction - DEBUG - Running transaction 6
2022-07-25 17:47:19,772 pymodbus.transaction - DEBUG - SEND: 0x0 0x6 0x0 0x0 0x0 0x6 0x2 0x3 0x0 0xe 0x0 0x2
2022-07-25 17:47:19,772 pymodbus.client.sync - DEBUG - New Transaction state 'SENDING'
2022-07-25 17:47:19,772 pymodbus.transaction - DEBUG - Changing transaction state from 'SENDING' to 'WAITING FOR REPLY'
2022-07-25 17:47:19,803 pymodbus.transaction - DEBUG - Changing transaction state from 'WAITING FOR REPLY' to 'PROCESSING REPLY'
2022-07-25 17:47:19,804 pymodbus.transaction - DEBUG - RECV: 0x0 0x6 0x0 0x0 0x0 0x7 0x2 0x3 0x4 0x0 0x0 0x0 0x0
2022-07-25 17:47:19,804 pymodbus.framer.socket_framer - DEBUG - Processing: 0x0 0x6 0x0 0x0 0x0 0x7 0x2 0x3 0x4 0x0 0x0 0x0 0x0
2022-07-25 17:47:19,804 pymodbus.factory - DEBUG - Factory Response[ReadHoldingRegistersResponse: 3]
2022-07-25 17:47:19,804 pymodbus.transaction - DEBUG - Adding transaction 6
2022-07-25 17:47:19,804 pymodbus.transaction - DEBUG - Getting transaction 6
2022-07-25 17:47:19,804 pymodbus.transaction - DEBUG - Changing transaction state from 'PROCESSING REPLY' to 'TRANSACTION_COMPLETE'
2022-07-25 17:47:19,804 pymodbus.transaction - DEBUG - Current transaction state - TRANSACTION_COMPLETE
2022-07-25 17:47:19,804 pymodbus.transaction - DEBUG - Running transaction 7
2022-07-25 17:47:19,805 pymodbus.transaction - DEBUG - SEND: 0x0 0x7 0x0 0x0 0x0 0x6 0x2 0x3 0x0 0x10 0x0 0x2
2022-07-25 17:47:19,805 pymodbus.client.sync - DEBUG - New Transaction state 'SENDING'
2022-07-25 17:47:19,805 pymodbus.transaction - DEBUG - Changing transaction state from 'SENDING' to 'WAITING FOR REPLY'
2022-07-25 17:47:19,834 pymodbus.transaction - DEBUG - Changing transaction state from 'WAITING FOR REPLY' to 'PROCESSING REPLY'
2022-07-25 17:47:19,835 pymodbus.transaction - DEBUG - RECV: 0x0 0x7 0x0 0x0 0x0 0x7 0x2 0x3 0x4 0x0 0x0 0x0 0x0
2022-07-25 17:47:19,835 pymodbus.framer.socket_framer - DEBUG - Processing: 0x0 0x7 0x0 0x0 0x0 0x7 0x2 0x3 0x4 0x0 0x0 0x0 0x0
2022-07-25 17:47:19,835 pymodbus.factory - DEBUG - Factory Response[ReadHoldingRegistersResponse: 3]
2022-07-25 17:47:19,835 pymodbus.transaction - DEBUG - Adding transaction 7
2022-07-25 17:47:19,835 pymodbus.transaction - DEBUG - Getting transaction 7
2022-07-25 17:47:19,835 pymodbus.transaction - DEBUG - Changing transaction state from 'PROCESSING REPLY' to 'TRANSACTION_COMPLETE'
2022-07-25 17:47:19,836 pymodbus.transaction - DEBUG - Current transaction state - TRANSACTION_COMPLETE
2022-07-25 17:47:19,836 pymodbus.transaction - DEBUG - Running transaction 8
2022-07-25 17:47:19,836 pymodbus.transaction - DEBUG - SEND: 0x0 0x8 0x0 0x0 0x0 0x6 0x2 0x3 0x0 0x12 0x0 0x2
2022-07-25 17:47:19,836 pymodbus.client.sync - DEBUG - New Transaction state 'SENDING'
2022-07-25 17:47:19,836 pymodbus.transaction - DEBUG - Changing transaction state from 'SENDING' to 'WAITING FOR REPLY'
2022-07-25 17:47:19,870 pymodbus.transaction - DEBUG - Changing transaction state from 'WAITING FOR REPLY' to 'PROCESSING REPLY'
2022-07-25 17:47:19,870 pymodbus.transaction - DEBUG - RECV: 0x0 0x8 0x0 0x0 0x0 0x7 0x2 0x3 0x4 0x0 0x0 0xff 0xfe
2022-07-25 17:47:19,871 pymodbus.framer.socket_framer - DEBUG - Processing: 0x0 0x8 0x0 0x0 0x0 0x7 0x2 0x3 0x4 0x0 0x0 0xff 0xfe
2022-07-25 17:47:19,871 pymodbus.factory - DEBUG - Factory Response[ReadHoldingRegistersResponse: 3]
2022-07-25 17:47:19,871 pymodbus.transaction - DEBUG - Adding transaction 8
2022-07-25 17:47:19,871 pymodbus.transaction - DEBUG - Getting transaction 8
2022-07-25 17:47:19,871 pymodbus.transaction - DEBUG - Changing transaction state from 'PROCESSING REPLY' to 'TRANSACTION_COMPLETE'
2022-07-25 17:47:19,871 pymodbus.transaction - DEBUG - Current transaction state - TRANSACTION_COMPLETE
2022-07-25 17:47:19,871 pymodbus.transaction - DEBUG - Running transaction 9
2022-07-25 17:47:19,871 pymodbus.transaction - DEBUG - SEND: 0x0 0x9 0x0 0x0 0x0 0x6 0x2 0x3 0x0 0x14 0x0 0x2
2022-07-25 17:47:19,871 pymodbus.client.sync - DEBUG - New Transaction state 'SENDING'
2022-07-25 17:47:19,871 pymodbus.transaction - DEBUG - Changing transaction state from 'SENDING' to 'WAITING FOR REPLY'
2022-07-25 17:47:19,911 pymodbus.transaction - DEBUG - Changing transaction state from 'WAITING FOR REPLY' to 'PROCESSING REPLY'
2022-07-25 17:47:19,911 pymodbus.transaction - DEBUG - RECV: 0x0 0x9 0x0 0x0 0x0 0x7 0x2 0x3 0x4 0x0 0x0 0x0 0x0
2022-07-25 17:47:19,912 pymodbus.framer.socket_framer - DEBUG - Processing: 0x0 0x9 0x0 0x0 0x0 0x7 0x2 0x3 0x4 0x0 0x0 0x0 0x0
2022-07-25 17:47:19,912 pymodbus.factory - DEBUG - Factory Response[ReadHoldingRegistersResponse: 3]
2022-07-25 17:47:19,912 pymodbus.transaction - DEBUG - Adding transaction 9
2022-07-25 17:47:19,912 pymodbus.transaction - DEBUG - Getting transaction 9
2022-07-25 17:47:19,912 pymodbus.transaction - DEBUG - Changing transaction state from 'PROCESSING REPLY' to 'TRANSACTION_COMPLETE'
2022-07-25 17:47:19,912 pymodbus.transaction - DEBUG - Current transaction state - TRANSACTION_COMPLETE
2022-07-25 17:47:19,912 pymodbus.transaction - DEBUG - Running transaction 10
2022-07-25 17:47:19,912 pymodbus.transaction - DEBUG - SEND: 0x0 0xa 0x0 0x0 0x0 0x6 0x2 0x3 0x0 0x16 0x0 0x2
2022-07-25 17:47:19,912 pymodbus.client.sync - DEBUG - New Transaction state 'SENDING'
2022-07-25 17:47:19,912 pymodbus.transaction - DEBUG - Changing transaction state from 'SENDING' to 'WAITING FOR REPLY'
2022-07-25 17:47:19,943 pymodbus.transaction - DEBUG - Changing transaction state from 'WAITING FOR REPLY' to 'PROCESSING REPLY'
2022-07-25 17:47:19,943 pymodbus.transaction - DEBUG - RECV: 0x0 0xa 0x0 0x0 0x0 0x7 0x2 0x3 0x4 0x0 0x0 0x0 0x0
2022-07-25 17:47:19,943 pymodbus.framer.socket_framer - DEBUG - Processing: 0x0 0xa 0x0 0x0 0x0 0x7 0x2 0x3 0x4 0x0 0x0 0x0 0x0
2022-07-25 17:47:19,943 pymodbus.factory - DEBUG - Factory Response[ReadHoldingRegistersResponse: 3]
2022-07-25 17:47:19,944 pymodbus.transaction - DEBUG - Adding transaction 10
2022-07-25 17:47:19,944 pymodbus.transaction - DEBUG - Getting transaction 10
2022-07-25 17:47:19,944 pymodbus.transaction - DEBUG - Changing transaction state from 'PROCESSING REPLY' to 'TRANSACTION_COMPLETE'
2022-07-25 17:47:19,944 pymodbus.transaction - DEBUG - Current transaction state - TRANSACTION_COMPLETE
2022-07-25 17:47:19,944 pymodbus.transaction - DEBUG - Running transaction 11
2022-07-25 17:47:19,944 pymodbus.transaction - DEBUG - SEND: 0x0 0xb 0x0 0x0 0x0 0x6 0x2 0x3 0x0 0x18 0x0 0x2
2022-07-25 17:47:19,944 pymodbus.client.sync - DEBUG - New Transaction state 'SENDING'
2022-07-25 17:47:19,944 pymodbus.transaction - DEBUG - Changing transaction state from 'SENDING' to 'WAITING FOR REPLY'
2022-07-25 17:47:19,974 pymodbus.transaction - DEBUG - Changing transaction state from 'WAITING FOR REPLY' to 'PROCESSING REPLY'
2022-07-25 17:47:19,974 pymodbus.transaction - DEBUG - RECV: 0x0 0xb 0x0 0x0 0x0 0x7 0x2 0x3 0x4 0x0 0x0 0x0 0x0
2022-07-25 17:47:19,974 pymodbus.framer.socket_framer - DEBUG - Processing: 0x0 0xb 0x0 0x0 0x0 0x7 0x2 0x3 0x4 0x0 0x0 0x0 0x0
2022-07-25 17:47:19,974 pymodbus.factory - DEBUG - Factory Response[ReadHoldingRegistersResponse: 3]
2022-07-25 17:47:19,975 pymodbus.transaction - DEBUG - Adding transaction 11
2022-07-25 17:47:19,975 pymodbus.transaction - DEBUG - Getting transaction 11
2022-07-25 17:47:19,975 pymodbus.transaction - DEBUG - Changing transaction state from 'PROCESSING REPLY' to 'TRANSACTION_COMPLETE'
2022-07-25 17:47:19,975 pymodbus.transaction - DEBUG - Current transaction state - TRANSACTION_COMPLETE
2022-07-25 17:47:19,975 pymodbus.transaction - DEBUG - Running transaction 12
2022-07-25 17:47:19,975 pymodbus.transaction - DEBUG - SEND: 0x0 0xc 0x0 0x0 0x0 0x6 0x2 0x3 0x0 0x1a 0x0 0x2
2022-07-25 17:47:19,975 pymodbus.client.sync - DEBUG - New Transaction state 'SENDING'
2022-07-25 17:47:19,975 pymodbus.transaction - DEBUG - Changing transaction state from 'SENDING' to 'WAITING FOR REPLY'
2022-07-25 17:47:20,006 pymodbus.transaction - DEBUG - Changing transaction state from 'WAITING FOR REPLY' to 'PROCESSING REPLY'
2022-07-25 17:47:20,006 pymodbus.transaction - DEBUG - RECV: 0x0 0xc 0x0 0x0 0x0 0x7 0x2 0x3 0x4 0x0 0x0 0x0 0x0
2022-07-25 17:47:20,006 pymodbus.framer.socket_framer - DEBUG - Processing: 0x0 0xc 0x0 0x0 0x0 0x7 0x2 0x3 0x4 0x0 0x0 0x0 0x0
2022-07-25 17:47:20,006 pymodbus.factory - DEBUG - Factory Response[ReadHoldingRegistersResponse: 3]
2022-07-25 17:47:20,006 pymodbus.transaction - DEBUG - Adding transaction 12
2022-07-25 17:47:20,007 pymodbus.transaction - DEBUG - Getting transaction 12
2022-07-25 17:47:20,007 pymodbus.transaction - DEBUG - Changing transaction state from 'PROCESSING REPLY' to 'TRANSACTION_COMPLETE'
2022-07-25 17:47:20,007 pymodbus.transaction - DEBUG - Current transaction state - TRANSACTION_COMPLETE
2022-07-25 17:47:20,007 pymodbus.transaction - DEBUG - Running transaction 13
2022-07-25 17:47:20,007 pymodbus.transaction - DEBUG - SEND: 0x0 0xd 0x0 0x0 0x0 0x6 0x2 0x3 0x0 0x1c 0x0 0x2
2022-07-25 17:47:20,007 pymodbus.client.sync - DEBUG - New Transaction state 'SENDING'
2022-07-25 17:47:20,007 pymodbus.transaction - DEBUG - Changing transaction state from 'SENDING' to 'WAITING FOR REPLY'
2022-07-25 17:47:20,038 pymodbus.transaction - DEBUG - Changing transaction state from 'WAITING FOR REPLY' to 'PROCESSING REPLY'
2022-07-25 17:47:20,038 pymodbus.transaction - DEBUG - RECV: 0x0 0xd 0x0 0x0 0x0 0x7 0x2 0x3 0x4 0x0 0x0 0x0 0x0
2022-07-25 17:47:20,038 pymodbus.framer.socket_framer - DEBUG - Processing: 0x0 0xd 0x0 0x0 0x0 0x7 0x2 0x3 0x4 0x0 0x0 0x0 0x0
2022-07-25 17:47:20,038 pymodbus.factory - DEBUG - Factory Response[ReadHoldingRegistersResponse: 3]
2022-07-25 17:47:20,039 pymodbus.transaction - DEBUG - Adding transaction 13
2022-07-25 17:47:20,039 pymodbus.transaction - DEBUG - Getting transaction 13
2022-07-25 17:47:20,039 pymodbus.transaction - DEBUG - Changing transaction state from 'PROCESSING REPLY' to 'TRANSACTION_COMPLETE'
2022-07-25 17:47:20,039 pymodbus.transaction - DEBUG - Current transaction state - TRANSACTION_COMPLETE
2022-07-25 17:47:20,039 pymodbus.transaction - DEBUG - Running transaction 14
2022-07-25 17:47:20,039 pymodbus.transaction - DEBUG - SEND: 0x0 0xe 0x0 0x0 0x0 0x6 0x2 0x3 0x0 0x1e 0x0 0x2
2022-07-25 17:47:20,039 pymodbus.client.sync - DEBUG - New Transaction state 'SENDING'
2022-07-25 17:47:20,039 pymodbus.transaction - DEBUG - Changing transaction state from 'SENDING' to 'WAITING FOR REPLY'
2022-07-25 17:47:20,071 pymodbus.transaction - DEBUG - Changing transaction state from 'WAITING FOR REPLY' to 'PROCESSING REPLY'
2022-07-25 17:47:20,071 pymodbus.transaction - DEBUG - RECV: 0x0 0xe 0x0 0x0 0x0 0x7 0x2 0x3 0x4 0x0 0x0 0x0 0x0
2022-07-25 17:47:20,071 pymodbus.framer.socket_framer - DEBUG - Processing: 0x0 0xe 0x0 0x0 0x0 0x7 0x2 0x3 0x4 0x0 0x0 0x0 0x0
2022-07-25 17:47:20,071 pymodbus.factory - DEBUG - Factory Response[ReadHoldingRegistersResponse: 3]
2022-07-25 17:47:20,071 pymodbus.transaction - DEBUG - Adding transaction 14
2022-07-25 17:47:20,071 pymodbus.transaction - DEBUG - Getting transaction 14
2022-07-25 17:47:20,071 pymodbus.transaction - DEBUG - Changing transaction state from 'PROCESSING REPLY' to 'TRANSACTION_COMPLETE'
2022-07-25 17:47:20,071 pymodbus.transaction - DEBUG - Current transaction state - TRANSACTION_COMPLETE
2022-07-25 17:47:20,071 pymodbus.transaction - DEBUG - Running transaction 15
2022-07-25 17:47:20,071 pymodbus.transaction - DEBUG - SEND: 0x0 0xf 0x0 0x0 0x0 0x6 0x2 0x3 0x0 0x20 0x0 0x2
2022-07-25 17:47:20,071 pymodbus.client.sync - DEBUG - New Transaction state 'SENDING'
2022-07-25 17:47:20,071 pymodbus.transaction - DEBUG - Changing transaction state from 'SENDING' to 'WAITING FOR REPLY'
2022-07-25 17:47:20,101 pymodbus.transaction - DEBUG - Changing transaction state from 'WAITING FOR REPLY' to 'PROCESSING REPLY'
2022-07-25 17:47:20,101 pymodbus.transaction - DEBUG - RECV: 0x0 0xf 0x0 0x0 0x0 0x7 0x2 0x3 0x4 0x0 0x0 0x0 0x0
2022-07-25 17:47:20,102 pymodbus.framer.socket_framer - DEBUG - Processing: 0x0 0xf 0x0 0x0 0x0 0x7 0x2 0x3 0x4 0x0 0x0 0x0 0x0
2022-07-25 17:47:20,102 pymodbus.factory - DEBUG - Factory Response[ReadHoldingRegistersResponse: 3]
2022-07-25 17:47:20,102 pymodbus.transaction - DEBUG - Adding transaction 15
2022-07-25 17:47:20,102 pymodbus.transaction - DEBUG - Getting transaction 15
2022-07-25 17:47:20,102 pymodbus.transaction - DEBUG - Changing transaction state from 'PROCESSING REPLY' to 'TRANSACTION_COMPLETE'
2022-07-25 17:47:20,102 pymodbus.transaction - DEBUG - Current transaction state - TRANSACTION_COMPLETE
2022-07-25 17:47:20,102 pymodbus.transaction - DEBUG - Running transaction 16
2022-07-25 17:47:20,102 pymodbus.transaction - DEBUG - SEND: 0x0 0x10 0x0 0x0 0x0 0x6 0x2 0x3 0x0 0x22 0x0 0x2
2022-07-25 17:47:20,102 pymodbus.client.sync - DEBUG - New Transaction state 'SENDING'
2022-07-25 17:47:20,102 pymodbus.transaction - DEBUG - Changing transaction state from 'SENDING' to 'WAITING FOR REPLY'
2022-07-25 17:47:20,132 pymodbus.transaction - DEBUG - Changing transaction state from 'WAITING FOR REPLY' to 'PROCESSING REPLY'
2022-07-25 17:47:20,132 pymodbus.transaction - DEBUG - RECV: 0x0 0x10 0x0 0x0 0x0 0x7 0x2 0x3 0x4 0x0 0x0 0x0 0x0
2022-07-25 17:47:20,133 pymodbus.framer.socket_framer - DEBUG - Processing: 0x0 0x10 0x0 0x0 0x0 0x7 0x2 0x3 0x4 0x0 0x0 0x0 0x0
2022-07-25 17:47:20,133 pymodbus.factory - DEBUG - Factory Response[ReadHoldingRegistersResponse: 3]
2022-07-25 17:47:20,133 pymodbus.transaction - DEBUG - Adding transaction 16
2022-07-25 17:47:20,133 pymodbus.transaction - DEBUG - Getting transaction 16
2022-07-25 17:47:20,133 pymodbus.transaction - DEBUG - Changing transaction state from 'PROCESSING REPLY' to 'TRANSACTION_COMPLETE'
2022-07-25 17:47:20,133 pymodbus.transaction - DEBUG - Current transaction state - TRANSACTION_COMPLETE
2022-07-25 17:47:20,133 pymodbus.transaction - DEBUG - Running transaction 17
2022-07-25 17:47:20,133 pymodbus.transaction - DEBUG - SEND: 0x0 0x11 0x0 0x0 0x0 0x6 0x2 0x3 0x0 0x24 0x0 0x2
2022-07-25 17:47:20,133 pymodbus.client.sync - DEBUG - New Transaction state 'SENDING'
2022-07-25 17:47:20,133 pymodbus.transaction - DEBUG - Changing transaction state from 'SENDING' to 'WAITING FOR REPLY'
2022-07-25 17:47:20,165 pymodbus.transaction - DEBUG - Changing transaction state from 'WAITING FOR REPLY' to 'PROCESSING REPLY'
2022-07-25 17:47:20,165 pymodbus.transaction - DEBUG - RECV: 0x0 0x11 0x0 0x0 0x0 0x7 0x2 0x3 0x4 0x0 0x0 0x0 0x0
2022-07-25 17:47:20,165 pymodbus.framer.socket_framer - DEBUG - Processing: 0x0 0x11 0x0 0x0 0x0 0x7 0x2 0x3 0x4 0x0 0x0 0x0 0x0
2022-07-25 17:47:20,165 pymodbus.factory - DEBUG - Factory Response[ReadHoldingRegistersResponse: 3]
2022-07-25 17:47:20,165 pymodbus.transaction - DEBUG - Adding transaction 17
2022-07-25 17:47:20,165 pymodbus.transaction - DEBUG - Getting transaction 17
2022-07-25 17:47:20,165 pymodbus.transaction - DEBUG - Changing transaction state from 'PROCESSING REPLY' to 'TRANSACTION_COMPLETE'
2022-07-25 17:47:20,165 pymodbus.transaction - DEBUG - Current transaction state - TRANSACTION_COMPLETE
2022-07-25 17:47:20,165 pymodbus.transaction - DEBUG - Running transaction 18
2022-07-25 17:47:20,165 pymodbus.transaction - DEBUG - SEND: 0x0 0x12 0x0 0x0 0x0 0x6 0x2 0x3 0x0 0x26 0x0 0x2
2022-07-25 17:47:20,165 pymodbus.client.sync - DEBUG - New Transaction state 'SENDING'
2022-07-25 17:47:20,166 pymodbus.transaction - DEBUG - Changing transaction state from 'SENDING' to 'WAITING FOR REPLY'
2022-07-25 17:47:20,196 pymodbus.transaction - DEBUG - Changing transaction state from 'WAITING FOR REPLY' to 'PROCESSING REPLY'
2022-07-25 17:47:20,196 pymodbus.transaction - DEBUG - RECV: 0x0 0x12 0x0 0x0 0x0 0x7 0x2 0x3 0x4 0x0 0x0 0x0 0x0
2022-07-25 17:47:20,196 pymodbus.framer.socket_framer - DEBUG - Processing: 0x0 0x12 0x0 0x0 0x0 0x7 0x2 0x3 0x4 0x0 0x0 0x0 0x0
2022-07-25 17:47:20,196 pymodbus.factory - DEBUG - Factory Response[ReadHoldingRegistersResponse: 3]
2022-07-25 17:47:20,196 pymodbus.transaction - DEBUG - Adding transaction 18
2022-07-25 17:47:20,196 pymodbus.transaction - DEBUG - Getting transaction 18
2022-07-25 17:47:20,196 pymodbus.transaction - DEBUG - Changing transaction state from 'PROCESSING REPLY' to 'TRANSACTION_COMPLETE'
2022-07-25 17:47:20,196 pymodbus.transaction - DEBUG - Current transaction state - TRANSACTION_COMPLETE
2022-07-25 17:47:20,196 pymodbus.transaction - DEBUG - Running transaction 19
2022-07-25 17:47:20,196 pymodbus.transaction - DEBUG - SEND: 0x0 0x13 0x0 0x0 0x0 0x6 0x2 0x3 0x0 0x28 0x0 0x2
2022-07-25 17:47:20,196 pymodbus.client.sync - DEBUG - New Transaction state 'SENDING'
2022-07-25 17:47:20,196 pymodbus.transaction - DEBUG - Changing transaction state from 'SENDING' to 'WAITING FOR REPLY'
2022-07-25 17:47:20,227 pymodbus.transaction - DEBUG - Changing transaction state from 'WAITING FOR REPLY' to 'PROCESSING REPLY'
2022-07-25 17:47:20,227 pymodbus.transaction - DEBUG - RECV: 0x0 0x13 0x0 0x0 0x0 0x7 0x2 0x3 0x4 0x0 0x0 0x0 0x0
2022-07-25 17:47:20,228 pymodbus.framer.socket_framer - DEBUG - Processing: 0x0 0x13 0x0 0x0 0x0 0x7 0x2 0x3 0x4 0x0 0x0 0x0 0x0
2022-07-25 17:47:20,228 pymodbus.factory - DEBUG - Factory Response[ReadHoldingRegistersResponse: 3]
2022-07-25 17:47:20,228 pymodbus.transaction - DEBUG - Adding transaction 19
2022-07-25 17:47:20,228 pymodbus.transaction - DEBUG - Getting transaction 19
2022-07-25 17:47:20,228 pymodbus.transaction - DEBUG - Changing transaction state from 'PROCESSING REPLY' to 'TRANSACTION_COMPLETE'
2022-07-25 17:47:20,228 pymodbus.transaction - DEBUG - Current transaction state - TRANSACTION_COMPLETE
2022-07-25 17:47:20,228 pymodbus.transaction - DEBUG - Running transaction 20
2022-07-25 17:47:20,228 pymodbus.transaction - DEBUG - SEND: 0x0 0x14 0x0 0x0 0x0 0x6 0x2 0x3 0x0 0x2a 0x0 0x2
2022-07-25 17:47:20,228 pymodbus.client.sync - DEBUG - New Transaction state 'SENDING'
2022-07-25 17:47:20,229 pymodbus.transaction - DEBUG - Changing transaction state from 'SENDING' to 'WAITING FOR REPLY'
2022-07-25 17:47:20,259 pymodbus.transaction - DEBUG - Changing transaction state from 'WAITING FOR REPLY' to 'PROCESSING REPLY'
2022-07-25 17:47:20,259 pymodbus.transaction - DEBUG - RECV: 0x0 0x14 0x0 0x0 0x0 0x7 0x2 0x3 0x4 0x0 0x0 0x0 0x0
2022-07-25 17:47:20,259 pymodbus.framer.socket_framer - DEBUG - Processing: 0x0 0x14 0x0 0x0 0x0 0x7 0x2 0x3 0x4 0x0 0x0 0x0 0x0
2022-07-25 17:47:20,260 pymodbus.factory - DEBUG - Factory Response[ReadHoldingRegistersResponse: 3]
2022-07-25 17:47:20,260 pymodbus.transaction - DEBUG - Adding transaction 20
2022-07-25 17:47:20,260 pymodbus.transaction - DEBUG - Getting transaction 20
2022-07-25 17:47:20,260 pymodbus.transaction - DEBUG - Changing transaction state from 'PROCESSING REPLY' to 'TRANSACTION_COMPLETE'
2022-07-25 17:47:20,260 pymodbus.transaction - DEBUG - Current transaction state - TRANSACTION_COMPLETE
2022-07-25 17:47:20,260 pymodbus.transaction - DEBUG - Running transaction 21
2022-07-25 17:47:20,260 pymodbus.transaction - DEBUG - SEND: 0x0 0x15 0x0 0x0 0x0 0x6 0x2 0x3 0x0 0x2c 0x0 0x2
2022-07-25 17:47:20,260 pymodbus.client.sync - DEBUG - New Transaction state 'SENDING'
2022-07-25 17:47:20,260 pymodbus.transaction - DEBUG - Changing transaction state from 'SENDING' to 'WAITING FOR REPLY'
2022-07-25 17:47:20,289 pymodbus.transaction - DEBUG - Changing transaction state from 'WAITING FOR REPLY' to 'PROCESSING REPLY'
2022-07-25 17:47:20,289 pymodbus.transaction - DEBUG - RECV: 0x0 0x15 0x0 0x0 0x0 0x7 0x2 0x3 0x4 0x0 0x0 0x0 0x0
2022-07-25 17:47:20,289 pymodbus.framer.socket_framer - DEBUG - Processing: 0x0 0x15 0x0 0x0 0x0 0x7 0x2 0x3 0x4 0x0 0x0 0x0 0x0
2022-07-25 17:47:20,289 pymodbus.factory - DEBUG - Factory Response[ReadHoldingRegistersResponse: 3]
2022-07-25 17:47:20,289 pymodbus.transaction - DEBUG - Adding transaction 21
2022-07-25 17:47:20,290 pymodbus.transaction - DEBUG - Getting transaction 21
2022-07-25 17:47:20,290 pymodbus.transaction - DEBUG - Changing transaction state from 'PROCESSING REPLY' to 'TRANSACTION_COMPLETE'
2022-07-25 17:47:20,290 pymodbus.transaction - DEBUG - Current transaction state - TRANSACTION_COMPLETE
2022-07-25 17:47:20,290 pymodbus.transaction - DEBUG - Running transaction 22
2022-07-25 17:47:20,290 pymodbus.transaction - DEBUG - SEND: 0x0 0x16 0x0 0x0 0x0 0x6 0x2 0x3 0x0 0x2e 0x0 0x2
2022-07-25 17:47:20,290 pymodbus.client.sync - DEBUG - New Transaction state 'SENDING'
2022-07-25 17:47:20,290 pymodbus.transaction - DEBUG - Changing transaction state from 'SENDING' to 'WAITING FOR REPLY'
2022-07-25 17:47:20,321 pymodbus.transaction - DEBUG - Changing transaction state from 'WAITING FOR REPLY' to 'PROCESSING REPLY'
2022-07-25 17:47:20,321 pymodbus.transaction - DEBUG - RECV: 0x0 0x16 0x0 0x0 0x0 0x7 0x2 0x3 0x4 0x0 0x0 0x0 0x0
2022-07-25 17:47:20,321 pymodbus.framer.socket_framer - DEBUG - Processing: 0x0 0x16 0x0 0x0 0x0 0x7 0x2 0x3 0x4 0x0 0x0 0x0 0x0
2022-07-25 17:47:20,321 pymodbus.factory - DEBUG - Factory Response[ReadHoldingRegistersResponse: 3]
2022-07-25 17:47:20,321 pymodbus.transaction - DEBUG - Adding transaction 22
2022-07-25 17:47:20,321 pymodbus.transaction - DEBUG - Getting transaction 22
2022-07-25 17:47:20,321 pymodbus.transaction - DEBUG - Changing transaction state from 'PROCESSING REPLY' to 'TRANSACTION_COMPLETE'
2022-07-25 17:47:20,321 pymodbus.transaction - DEBUG - Current transaction state - TRANSACTION_COMPLETE
2022-07-25 17:47:20,323 pymodbus.transaction - DEBUG - Running transaction 23
2022-07-25 17:47:20,323 pymodbus.transaction - DEBUG - SEND: 0x0 0x17 0x0 0x0 0x0 0x6 0x2 0x3 0x0 0x30 0x0 0x2
2022-07-25 17:47:20,323 pymodbus.client.sync - DEBUG - New Transaction state 'SENDING'
2022-07-25 17:47:20,323 pymodbus.transaction - DEBUG - Changing transaction state from 'SENDING' to 'WAITING FOR REPLY'
2022-07-25 17:47:20,352 pymodbus.transaction - DEBUG - Changing transaction state from 'WAITING FOR REPLY' to 'PROCESSING REPLY'
2022-07-25 17:47:20,353 pymodbus.transaction - DEBUG - RECV: 0x0 0x17 0x0 0x0 0x0 0x7 0x2 0x3 0x4 0x0 0x0 0x0 0x0
2022-07-25 17:47:20,353 pymodbus.framer.socket_framer - DEBUG - Processing: 0x0 0x17 0x0 0x0 0x0 0x7 0x2 0x3 0x4 0x0 0x0 0x0 0x0
2022-07-25 17:47:20,353 pymodbus.factory - DEBUG - Factory Response[ReadHoldingRegistersResponse: 3]
2022-07-25 17:47:20,353 pymodbus.transaction - DEBUG - Adding transaction 23
2022-07-25 17:47:20,353 pymodbus.transaction - DEBUG - Getting transaction 23
2022-07-25 17:47:20,353 pymodbus.transaction - DEBUG - Changing transaction state from 'PROCESSING REPLY' to 'TRANSACTION_COMPLETE'
2022-07-25 17:47:20,353 pymodbus.transaction - DEBUG - Current transaction state - TRANSACTION_COMPLETE
2022-07-25 17:47:20,353 pymodbus.transaction - DEBUG - Running transaction 24
2022-07-25 17:47:20,353 pymodbus.transaction - DEBUG - SEND: 0x0 0x18 0x0 0x0 0x0 0x6 0x2 0x3 0x0 0x32 0x0 0x2
2022-07-25 17:47:20,353 pymodbus.client.sync - DEBUG - New Transaction state 'SENDING'
2022-07-25 17:47:20,353 pymodbus.transaction - DEBUG - Changing transaction state from 'SENDING' to 'WAITING FOR REPLY'
2022-07-25 17:47:20,383 pymodbus.transaction - DEBUG - Changing transaction state from 'WAITING FOR REPLY' to 'PROCESSING REPLY'
2022-07-25 17:47:20,383 pymodbus.transaction - DEBUG - RECV: 0x0 0x18 0x0 0x0 0x0 0x7 0x2 0x3 0x4 0x0 0x0 0x0 0x0
2022-07-25 17:47:20,383 pymodbus.framer.socket_framer - DEBUG - Processing: 0x0 0x18 0x0 0x0 0x0 0x7 0x2 0x3 0x4 0x0 0x0 0x0 0x0
2022-07-25 17:47:20,384 pymodbus.factory - DEBUG - Factory Response[ReadHoldingRegistersResponse: 3]
2022-07-25 17:47:20,384 pymodbus.transaction - DEBUG - Adding transaction 24
2022-07-25 17:47:20,384 pymodbus.transaction - DEBUG - Getting transaction 24
2022-07-25 17:47:20,384 pymodbus.transaction - DEBUG - Changing transaction state from 'PROCESSING REPLY' to 'TRANSACTION_COMPLETE'
2022-07-25 17:47:20,384 pymodbus.transaction - DEBUG - Current transaction state - TRANSACTION_COMPLETE
2022-07-25 17:47:20,384 pymodbus.transaction - DEBUG - Running transaction 25
2022-07-25 17:47:20,384 pymodbus.transaction - DEBUG - SEND: 0x0 0x19 0x0 0x0 0x0 0x6 0x2 0x3 0x0 0x34 0x0 0x2
2022-07-25 17:47:20,384 pymodbus.client.sync - DEBUG - New Transaction state 'SENDING'
2022-07-25 17:47:20,384 pymodbus.transaction - DEBUG - Changing transaction state from 'SENDING' to 'WAITING FOR REPLY'
2022-07-25 17:47:20,414 pymodbus.transaction - DEBUG - Changing transaction state from 'WAITING FOR REPLY' to 'PROCESSING REPLY'
2022-07-25 17:47:20,415 pymodbus.transaction - DEBUG - RECV: 0x0 0x19 0x0 0x0 0x0 0x7 0x2 0x3 0x4 0x0 0x0 0x0 0x0
2022-07-25 17:47:20,415 pymodbus.framer.socket_framer - DEBUG - Processing: 0x0 0x19 0x0 0x0 0x0 0x7 0x2 0x3 0x4 0x0 0x0 0x0 0x0
2022-07-25 17:47:20,415 pymodbus.factory - DEBUG - Factory Response[ReadHoldingRegistersResponse: 3]
2022-07-25 17:47:20,415 pymodbus.transaction - DEBUG - Adding transaction 25
2022-07-25 17:47:20,415 pymodbus.transaction - DEBUG - Getting transaction 25
2022-07-25 17:47:20,415 pymodbus.transaction - DEBUG - Changing transaction state from 'PROCESSING REPLY' to 'TRANSACTION_COMPLETE'
2022-07-25 17:47:20,415 pymodbus.transaction - DEBUG - Current transaction state - TRANSACTION_COMPLETE
2022-07-25 17:47:20,415 pymodbus.transaction - DEBUG - Running transaction 26
2022-07-25 17:47:20,415 pymodbus.transaction - DEBUG - SEND: 0x0 0x1a 0x0 0x0 0x0 0x6 0x2 0x3 0x0 0x36 0x0 0x2
2022-07-25 17:47:20,415 pymodbus.client.sync - DEBUG - New Transaction state 'SENDING'
2022-07-25 17:47:20,415 pymodbus.transaction - DEBUG - Changing transaction state from 'SENDING' to 'WAITING FOR REPLY'
2022-07-25 17:47:20,446 pymodbus.transaction - DEBUG - Changing transaction state from 'WAITING FOR REPLY' to 'PROCESSING REPLY'
2022-07-25 17:47:20,446 pymodbus.transaction - DEBUG - RECV: 0x0 0x1a 0x0 0x0 0x0 0x7 0x2 0x3 0x4 0x0 0x0 0x0 0x0
2022-07-25 17:47:20,446 pymodbus.framer.socket_framer - DEBUG - Processing: 0x0 0x1a 0x0 0x0 0x0 0x7 0x2 0x3 0x4 0x0 0x0 0x0 0x0
2022-07-25 17:47:20,446 pymodbus.factory - DEBUG - Factory Response[ReadHoldingRegistersResponse: 3]
2022-07-25 17:47:20,446 pymodbus.transaction - DEBUG - Adding transaction 26
2022-07-25 17:47:20,446 pymodbus.transaction - DEBUG - Getting transaction 26
2022-07-25 17:47:20,446 pymodbus.transaction - DEBUG - Changing transaction state from 'PROCESSING REPLY' to 'TRANSACTION_COMPLETE'
2022-07-25 17:47:20,446 pymodbus.transaction - DEBUG - Current transaction state - TRANSACTION_COMPLETE
2022-07-25 17:47:20,446 pymodbus.transaction - DEBUG - Running transaction 27
2022-07-25 17:47:20,447 pymodbus.transaction - DEBUG - SEND: 0x0 0x1b 0x0 0x0 0x0 0x6 0x2 0x3 0x0 0x38 0x0 0x2
2022-07-25 17:47:20,447 pymodbus.client.sync - DEBUG - New Transaction state 'SENDING'
2022-07-25 17:47:20,447 pymodbus.transaction - DEBUG - Changing transaction state from 'SENDING' to 'WAITING FOR REPLY'
2022-07-25 17:47:20,477 pymodbus.transaction - DEBUG - Changing transaction state from 'WAITING FOR REPLY' to 'PROCESSING REPLY'
2022-07-25 17:47:20,477 pymodbus.transaction - DEBUG - RECV: 0x0 0x1b 0x0 0x0 0x0 0x7 0x2 0x3 0x4 0x0 0x0 0x0 0x0
2022-07-25 17:47:20,477 pymodbus.framer.socket_framer - DEBUG - Processing: 0x0 0x1b 0x0 0x0 0x0 0x7 0x2 0x3 0x4 0x0 0x0 0x0 0x0
2022-07-25 17:47:20,477 pymodbus.factory - DEBUG - Factory Response[ReadHoldingRegistersResponse: 3]
2022-07-25 17:47:20,478 pymodbus.transaction - DEBUG - Adding transaction 27
2022-07-25 17:47:20,478 pymodbus.transaction - DEBUG - Getting transaction 27
2022-07-25 17:47:20,478 pymodbus.transaction - DEBUG - Changing transaction state from 'PROCESSING REPLY' to 'TRANSACTION_COMPLETE'
2022-07-25 17:47:20,478 pymodbus.transaction - DEBUG - Current transaction state - TRANSACTION_COMPLETE
2022-07-25 17:47:20,478 pymodbus.transaction - DEBUG - Running transaction 28
2022-07-25 17:47:20,478 pymodbus.transaction - DEBUG - SEND: 0x0 0x1c 0x0 0x0 0x0 0x6 0x2 0x3 0x0 0x3a 0x0 0x2
2022-07-25 17:47:20,478 pymodbus.client.sync - DEBUG - New Transaction state 'SENDING'
2022-07-25 17:47:20,478 pymodbus.transaction - DEBUG - Changing transaction state from 'SENDING' to 'WAITING FOR REPLY'
2022-07-25 17:47:20,508 pymodbus.transaction - DEBUG - Changing transaction state from 'WAITING FOR REPLY' to 'PROCESSING REPLY'
2022-07-25 17:47:20,509 pymodbus.transaction - DEBUG - RECV: 0x0 0x1c 0x0 0x0 0x0 0x7 0x2 0x3 0x4 0x0 0x0 0x0 0x0
2022-07-25 17:47:20,509 pymodbus.framer.socket_framer - DEBUG - Processing: 0x0 0x1c 0x0 0x0 0x0 0x7 0x2 0x3 0x4 0x0 0x0 0x0 0x0
2022-07-25 17:47:20,509 pymodbus.factory - DEBUG - Factory Response[ReadHoldingRegistersResponse: 3]
2022-07-25 17:47:20,509 pymodbus.transaction - DEBUG - Adding transaction 28
2022-07-25 17:47:20,509 pymodbus.transaction - DEBUG - Getting transaction 28
2022-07-25 17:47:20,509 pymodbus.transaction - DEBUG - Changing transaction state from 'PROCESSING REPLY' to 'TRANSACTION_COMPLETE'
2022-07-25 17:47:20,509 pymodbus.transaction - DEBUG - Current transaction state - TRANSACTION_COMPLETE
2022-07-25 17:47:20,509 pymodbus.transaction - DEBUG - Running transaction 29
2022-07-25 17:47:20,509 pymodbus.transaction - DEBUG - SEND: 0x0 0x1d 0x0 0x0 0x0 0x6 0x2 0x3 0x0 0x3c 0x0 0x2
2022-07-25 17:47:20,509 pymodbus.client.sync - DEBUG - New Transaction state 'SENDING'
2022-07-25 17:47:20,509 pymodbus.transaction - DEBUG - Changing transaction state from 'SENDING' to 'WAITING FOR REPLY'
2022-07-25 17:47:20,539 pymodbus.transaction - DEBUG - Changing transaction state from 'WAITING FOR REPLY' to 'PROCESSING REPLY'
2022-07-25 17:47:20,540 pymodbus.transaction - DEBUG - RECV: 0x0 0x1d 0x0 0x0 0x0 0x7 0x2 0x3 0x4 0x0 0x0 0x0 0x0
2022-07-25 17:47:20,540 pymodbus.framer.socket_framer - DEBUG - Processing: 0x0 0x1d 0x0 0x0 0x0 0x7 0x2 0x3 0x4 0x0 0x0 0x0 0x0
2022-07-25 17:47:20,540 pymodbus.factory - DEBUG - Factory Response[ReadHoldingRegistersResponse: 3]
2022-07-25 17:47:20,540 pymodbus.transaction - DEBUG - Adding transaction 29
2022-07-25 17:47:20,540 pymodbus.transaction - DEBUG - Getting transaction 29
2022-07-25 17:47:20,540 pymodbus.transaction - DEBUG - Changing transaction state from 'PROCESSING REPLY' to 'TRANSACTION_COMPLETE'
2022-07-25 17:47:20,540 pymodbus.transaction - DEBUG - Current transaction state - TRANSACTION_COMPLETE
2022-07-25 17:47:20,540 pymodbus.transaction - DEBUG - Running transaction 30
2022-07-25 17:47:20,540 pymodbus.transaction - DEBUG - SEND: 0x0 0x1e 0x0 0x0 0x0 0x6 0x2 0x3 0x0 0x40 0x0 0x2
2022-07-25 17:47:20,540 pymodbus.client.sync - DEBUG - New Transaction state 'SENDING'
2022-07-25 17:47:20,541 pymodbus.transaction - DEBUG - Changing transaction state from 'SENDING' to 'WAITING FOR REPLY'
2022-07-25 17:47:20,570 pymodbus.transaction - DEBUG - Changing transaction state from 'WAITING FOR REPLY' to 'PROCESSING REPLY'
2022-07-25 17:47:20,570 pymodbus.transaction - DEBUG - RECV: 0x0 0x1e 0x0 0x0 0x0 0x7 0x2 0x3 0x4 0x0 0x0 0x0 0x0
2022-07-25 17:47:20,570 pymodbus.framer.socket_framer - DEBUG - Processing: 0x0 0x1e 0x0 0x0 0x0 0x7 0x2 0x3 0x4 0x0 0x0 0x0 0x0
2022-07-25 17:47:20,570 pymodbus.factory - DEBUG - Factory Response[ReadHoldingRegistersResponse: 3]
2022-07-25 17:47:20,570 pymodbus.transaction - DEBUG - Adding transaction 30
2022-07-25 17:47:20,570 pymodbus.transaction - DEBUG - Getting transaction 30
2022-07-25 17:47:20,570 pymodbus.transaction - DEBUG - Changing transaction state from 'PROCESSING REPLY' to 'TRANSACTION_COMPLETE'
2022-07-25 17:47:20,570 pymodbus.transaction - DEBUG - Current transaction state - TRANSACTION_COMPLETE
2022-07-25 17:47:20,570 pymodbus.transaction - DEBUG - Running transaction 31
2022-07-25 17:47:20,570 pymodbus.transaction - DEBUG - SEND: 0x0 0x1f 0x0 0x0 0x0 0x6 0x2 0x3 0x0 0x3e 0x0 0x2
2022-07-25 17:47:20,570 pymodbus.client.sync - DEBUG - New Transaction state 'SENDING'
2022-07-25 17:47:20,570 pymodbus.transaction - DEBUG - Changing transaction state from 'SENDING' to 'WAITING FOR REPLY'
2022-07-25 17:47:20,601 pymodbus.transaction - DEBUG - Changing transaction state from 'WAITING FOR REPLY' to 'PROCESSING REPLY'
2022-07-25 17:47:20,601 pymodbus.transaction - DEBUG - RECV: 0x0 0x1f 0x0 0x0 0x0 0x7 0x2 0x3 0x4 0x0 0x0 0x0 0x0
2022-07-25 17:47:20,601 pymodbus.framer.socket_framer - DEBUG - Processing: 0x0 0x1f 0x0 0x0 0x0 0x7 0x2 0x3 0x4 0x0 0x0 0x0 0x0
2022-07-25 17:47:20,601 pymodbus.factory - DEBUG - Factory Response[ReadHoldingRegistersResponse: 3]
2022-07-25 17:47:20,601 pymodbus.transaction - DEBUG - Adding transaction 31
2022-07-25 17:47:20,601 pymodbus.transaction - DEBUG - Getting transaction 31
2022-07-25 17:47:20,601 pymodbus.transaction - DEBUG - Changing transaction state from 'PROCESSING REPLY' to 'TRANSACTION_COMPLETE'
2022-07-25 17:47:20,602 log1 - DEBUG - Reading Register Complete
2022-07-25 17:47:20,602 log1 - DEBUG - Posting Data to DB
2022-07-25 17:47:20,610 urllib3.connectionpool - DEBUG - Starting new HTTP connection (1): 192.168.1.36:4000
2022-07-25 17:47:20,648 urllib3.connectionpool - DEBUG - http://192.168.1.36:4000 "POST /data HTTP/1.1" 200 20
2022-07-25 17:47:20,648 root - DEBUG - {"index":0,"code":2}
2022-07-25 17:47:20,649 log1 - DEBUG - {'timestamp': 1658742439, 'dc_main_contactor': 65534.0, 'stk1_contactor': 80.0, 'primary_positive_pump': 23.0, 'primary_negative_pump': 4.0, 'system_mode': 0, 'system_alarm_status': 0, 'balancing_valve': 0.0, 'positive_valve': 0.0, 'negative_valve': 0.0, 'state_of_charge': 655.34, 'bcu_mode_status': 0, 'bcu_voltage': 0, 'bcu_current': 0, 'bcu_power': 0, 'bcu_state_of_charge': 0.0, 'bcu_hydrogen_sensor': 0.0, 'bcu_leakage_sensor': 0.0, 'smoke_sensor': 0.0, 'bcu_ocv': 0.0, 'bcu_positive_tank_temp': 0.0, 'bcu_negative_tank_temp': 0.0, 'positive_tank_high_level_float': 0.0, 'negative_tank_high_level_float': 0.0, 'positive_tank_low_level_float': 0.0, 'negative_tank_low_level_float': 0.0, 'primary_stack_voltage': 0.0, 'primary_stack_current': 0.0, 'primary_stack_positive_pressure_sensor': 0.0, 'primary_stack_negative_pressure_sensor': 0.0, 'positive_stack_pressure_delta': 0.0, 'b1_primary_stack_pressure_delta': 0.0, 'sensor_temp': 0.0, 'humidity': 0.0, 'bms_timestamp': 0, 'plc_alarm_status_1': 0}
2022-07-25 17:47:20,651 log1 - DEBUG - POST Complete
2022-07-25 17:47:25,670 root - DEBUG - Reading Registers
2022-07-25 17:47:25,670 log1 - DEBUG - Reading Registers
2022-07-25 17:47:25,671 pymodbus.transaction - DEBUG - Current transaction state - TRANSACTION_COMPLETE
2022-07-25 17:47:25,671 pymodbus.transaction - DEBUG - Running transaction 32
2022-07-25 17:47:25,671 pymodbus.transaction - DEBUG - SEND: 0x0 0x20 0x0 0x0 0x0 0x6 0x2 0x3 0x0 0x0 0x0 0x2
2022-07-25 17:47:25,671 pymodbus.client.sync - DEBUG - New Transaction state 'SENDING'
2022-07-25 17:47:25,671 pymodbus.transaction - DEBUG - Changing transaction state from 'SENDING' to 'WAITING FOR REPLY'
2022-07-25 17:47:25,686 pymodbus.transaction - DEBUG - Changing transaction state from 'WAITING FOR REPLY' to 'PROCESSING REPLY'
2022-07-25 17:47:25,686 pymodbus.transaction - DEBUG - RECV: 0x0 0x20 0x0 0x0 0x0 0x7 0x2 0x3 0x4 0x0 0x0 0xff 0xfe
2022-07-25 17:47:25,686 pymodbus.framer.socket_framer - DEBUG - Processing: 0x0 0x20 0x0 0x0 0x0 0x7 0x2 0x3 0x4 0x0 0x0 0xff 0xfe
2022-07-25 17:47:25,687 pymodbus.factory - DEBUG - Factory Response[ReadHoldingRegistersResponse: 3]
2022-07-25 17:47:25,687 pymodbus.transaction - DEBUG - Adding transaction 32
2022-07-25 17:47:25,687 pymodbus.transaction - DEBUG - Getting transaction 32
2022-07-25 17:47:25,687 pymodbus.transaction - DEBUG - Changing transaction state from 'PROCESSING REPLY' to 'TRANSACTION_COMPLETE'
2022-07-25 17:47:25,687 pymodbus.transaction - DEBUG - Current transaction state - TRANSACTION_COMPLETE
2022-07-25 17:47:25,687 pymodbus.transaction - DEBUG - Running transaction 33
2022-07-25 17:47:25,687 pymodbus.transaction - DEBUG - SEND: 0x0 0x21 0x0 0x0 0x0 0x6 0x2 0x3 0x0 0x2 0x0 0x2
2022-07-25 17:47:25,687 pymodbus.client.sync - DEBUG - New Transaction state 'SENDING'
2022-07-25 17:47:25,687 pymodbus.transaction - DEBUG - Changing transaction state from 'SENDING' to 'WAITING FOR REPLY'
2022-07-25 17:47:25,717 pymodbus.transaction - DEBUG - Changing transaction state from 'WAITING FOR REPLY' to 'PROCESSING REPLY'
2022-07-25 17:47:25,717 pymodbus.transaction - DEBUG - RECV: 0x0 0x21 0x0 0x0 0x0 0x7 0x2 0x3 0x4 0x0 0x0 0x0 0x50
2022-07-25 17:47:25,718 pymodbus.framer.socket_framer - DEBUG - Processing: 0x0 0x21 0x0 0x0 0x0 0x7 0x2 0x3 0x4 0x0 0x0 0x0 0x50
2022-07-25 17:47:25,718 pymodbus.factory - DEBUG - Factory Response[ReadHoldingRegistersResponse: 3]
2022-07-25 17:47:25,718 pymodbus.transaction - DEBUG - Adding transaction 33
2022-07-25 17:47:25,718 pymodbus.transaction - DEBUG - Getting transaction 33
2022-07-25 17:47:25,718 pymodbus.transaction - DEBUG - Changing transaction state from 'PROCESSING REPLY' to 'TRANSACTION_COMPLETE'
2022-07-25 17:47:25,718 pymodbus.transaction - DEBUG - Current transaction state - TRANSACTION_COMPLETE
2022-07-25 17:47:25,718 pymodbus.transaction - DEBUG - Running transaction 34
2022-07-25 17:47:25,718 pymodbus.transaction - DEBUG - SEND: 0x0 0x22 0x0 0x0 0x0 0x6 0x2 0x3 0x0 0x4 0x0 0x2
2022-07-25 17:47:25,718 pymodbus.client.sync - DEBUG - New Transaction state 'SENDING'
2022-07-25 17:47:25,718 pymodbus.transaction - DEBUG - Changing transaction state from 'SENDING' to 'WAITING FOR REPLY'
2022-07-25 17:47:25,748 pymodbus.transaction - DEBUG - Changing transaction state from 'WAITING FOR REPLY' to 'PROCESSING REPLY'
2022-07-25 17:47:25,748 pymodbus.transaction - DEBUG - RECV: 0x0 0x22 0x0 0x0 0x0 0x7 0x2 0x3 0x4 0x0 0x0 0x0 0x17
2022-07-25 17:47:25,749 pymodbus.framer.socket_framer - DEBUG - Processing: 0x0 0x22 0x0 0x0 0x0 0x7 0x2 0x3 0x4 0x0 0x0 0x0 0x17
2022-07-25 17:47:25,749 pymodbus.factory - DEBUG - Factory Response[ReadHoldingRegistersResponse: 3]
2022-07-25 17:47:25,749 pymodbus.transaction - DEBUG - Adding transaction 34
2022-07-25 17:47:25,749 pymodbus.transaction - DEBUG - Getting transaction 34
2022-07-25 17:47:25,749 pymodbus.transaction - DEBUG - Changing transaction state from 'PROCESSING REPLY' to 'TRANSACTION_COMPLETE'
2022-07-25 17:47:25,749 pymodbus.transaction - DEBUG - Current transaction state - TRANSACTION_COMPLETE
2022-07-25 17:47:25,749 pymodbus.transaction - DEBUG - Running transaction 35
2022-07-25 17:47:25,749 pymodbus.transaction - DEBUG - SEND: 0x0 0x23 0x0 0x0 0x0 0x6 0x2 0x3 0x0 0x6 0x0 0x2
2022-07-25 17:47:25,749 pymodbus.client.sync - DEBUG - New Transaction state 'SENDING'
2022-07-25 17:47:25,749 pymodbus.transaction - DEBUG - Changing transaction state from 'SENDING' to 'WAITING FOR REPLY'
2022-07-25 17:47:25,779 pymodbus.transaction - DEBUG - Changing transaction state from 'WAITING FOR REPLY' to 'PROCESSING REPLY'
2022-07-25 17:47:25,779 pymodbus.transaction - DEBUG - RECV: 0x0 0x23 0x0 0x0 0x0 0x7 0x2 0x3 0x4 0x0 0x0 0x0 0x4
2022-07-25 17:47:25,779 pymodbus.framer.socket_framer - DEBUG - Processing: 0x0 0x23 0x0 0x0 0x0 0x7 0x2 0x3 0x4 0x0 0x0 0x0 0x4
2022-07-25 17:47:25,779 pymodbus.factory - DEBUG - Factory Response[ReadHoldingRegistersResponse: 3]
2022-07-25 17:47:25,779 pymodbus.transaction - DEBUG - Adding transaction 35
2022-07-25 17:47:25,779 pymodbus.transaction - DEBUG - Getting transaction 35
2022-07-25 17:47:25,779 pymodbus.transaction - DEBUG - Changing transaction state from 'PROCESSING REPLY' to 'TRANSACTION_COMPLETE'
2022-07-25 17:47:25,779 pymodbus.transaction - DEBUG - Current transaction state - TRANSACTION_COMPLETE
2022-07-25 17:47:25,779 pymodbus.transaction - DEBUG - Running transaction 36
2022-07-25 17:47:25,779 pymodbus.transaction - DEBUG - SEND: 0x0 0x24 0x0 0x0 0x0 0x6 0x2 0x3 0x0 0xc 0x0 0x2
2022-07-25 17:47:25,779 pymodbus.client.sync - DEBUG - New Transaction state 'SENDING'
2022-07-25 17:47:25,779 pymodbus.transaction - DEBUG - Changing transaction state from 'SENDING' to 'WAITING FOR REPLY'
2022-07-25 17:47:25,811 pymodbus.transaction - DEBUG - Changing transaction state from 'WAITING FOR REPLY' to 'PROCESSING REPLY'
2022-07-25 17:47:25,811 pymodbus.transaction - DEBUG - RECV: 0x0 0x24 0x0 0x0 0x0 0x7 0x2 0x3 0x4 0x0 0x0 0x0 0x0
2022-07-25 17:47:25,811 pymodbus.framer.socket_framer - DEBUG - Processing: 0x0 0x24 0x0 0x0 0x0 0x7 0x2 0x3 0x4 0x0 0x0 0x0 0x0
2022-07-25 17:47:25,811 pymodbus.factory - DEBUG - Factory Response[ReadHoldingRegistersResponse: 3]
2022-07-25 17:47:25,812 pymodbus.transaction - DEBUG - Adding transaction 36
2022-07-25 17:47:25,812 pymodbus.transaction - DEBUG - Getting transaction 36
2022-07-25 17:47:25,812 pymodbus.transaction - DEBUG - Changing transaction state from 'PROCESSING REPLY' to 'TRANSACTION_COMPLETE'
2022-07-25 17:47:25,812 pymodbus.transaction - DEBUG - Current transaction state - TRANSACTION_COMPLETE
2022-07-25 17:47:25,812 pymodbus.transaction - DEBUG - Running transaction 37
2022-07-25 17:47:25,812 pymodbus.transaction - DEBUG - SEND: 0x0 0x25 0x0 0x0 0x0 0x6 0x2 0x3 0x0 0xe 0x0 0x2
2022-07-25 17:47:25,812 pymodbus.client.sync - DEBUG - New Transaction state 'SENDING'
2022-07-25 17:47:25,812 pymodbus.transaction - DEBUG - Changing transaction state from 'SENDING' to 'WAITING FOR REPLY'
2022-07-25 17:47:25,842 pymodbus.transaction - DEBUG - Changing transaction state from 'WAITING FOR REPLY' to 'PROCESSING REPLY'
2022-07-25 17:47:25,842 pymodbus.transaction - DEBUG - RECV: 0x0 0x25 0x0 0x0 0x0 0x7 0x2 0x3 0x4 0x0 0x0 0x0 0x0
2022-07-25 17:47:25,842 pymodbus.framer.socket_framer - DEBUG - Processing: 0x0 0x25 0x0 0x0 0x0 0x7 0x2 0x3 0x4 0x0 0x0 0x0 0x0
2022-07-25 17:47:25,842 pymodbus.factory - DEBUG - Factory Response[ReadHoldingRegistersResponse: 3]
2022-07-25 17:47:25,842 pymodbus.transaction - DEBUG - Adding transaction 37
2022-07-25 17:47:25,842 pymodbus.transaction - DEBUG - Getting transaction 37
2022-07-25 17:47:25,842 pymodbus.transaction - DEBUG - Changing transaction state from 'PROCESSING REPLY' to 'TRANSACTION_COMPLETE'
2022-07-25 17:47:25,843 pymodbus.transaction - DEBUG - Current transaction state - TRANSACTION_COMPLETE
2022-07-25 17:47:25,843 pymodbus.transaction - DEBUG - Running transaction 38
2022-07-25 17:47:25,843 pymodbus.transaction - DEBUG - SEND: 0x0 0x26 0x0 0x0 0x0 0x6 0x2 0x3 0x0 0x10 0x0 0x2
2022-07-25 17:47:25,843 pymodbus.client.sync - DEBUG - New Transaction state 'SENDING'
2022-07-25 17:47:25,843 pymodbus.transaction - DEBUG - Changing transaction state from 'SENDING' to 'WAITING FOR REPLY'
2022-07-25 17:47:25,872 pymodbus.transaction - DEBUG - Changing transaction state from 'WAITING FOR REPLY' to 'PROCESSING REPLY'
2022-07-25 17:47:25,872 pymodbus.transaction - DEBUG - RECV: 0x0 0x26 0x0 0x0 0x0 0x7 0x2 0x3 0x4 0x0 0x0 0x0 0x0
2022-07-25 17:47:25,872 pymodbus.framer.socket_framer - DEBUG - Processing: 0x0 0x26 0x0 0x0 0x0 0x7 0x2 0x3 0x4 0x0 0x0 0x0 0x0
2022-07-25 17:47:25,872 pymodbus.factory - DEBUG - Factory Response[ReadHoldingRegistersResponse: 3]
2022-07-25 17:47:25,872 pymodbus.transaction - DEBUG - Adding transaction 38
2022-07-25 17:47:25,872 pymodbus.transaction - DEBUG - Getting transaction 38
2022-07-25 17:47:25,873 pymodbus.transaction - DEBUG - Changing transaction state from 'PROCESSING REPLY' to 'TRANSACTION_COMPLETE'
2022-07-25 17:47:25,873 pymodbus.transaction - DEBUG - Current transaction state - TRANSACTION_COMPLETE
2022-07-25 17:47:25,873 pymodbus.transaction - DEBUG - Running transaction 39
2022-07-25 17:47:25,873 pymodbus.transaction - DEBUG - SEND: 0x0 0x27 0x0 0x0 0x0 0x6 0x2 0x3 0x0 0x12 0x0 0x2
2022-07-25 17:47:25,873 pymodbus.client.sync - DEBUG - New Transaction state 'SENDING'
2022-07-25 17:47:25,873 pymodbus.transaction - DEBUG - Changing transaction state from 'SENDING' to 'WAITING FOR REPLY'
2022-07-25 17:47:25,903 pymodbus.transaction - DEBUG - Changing transaction state from 'WAITING FOR REPLY' to 'PROCESSING REPLY'
2022-07-25 17:47:25,903 pymodbus.transaction - DEBUG - RECV: 0x0 0x27 0x0 0x0 0x0 0x7 0x2 0x3 0x4 0x0 0x0 0xff 0xfe
2022-07-25 17:47:25,903 pymodbus.framer.socket_framer - DEBUG - Processing: 0x0 0x27 0x0 0x0 0x0 0x7 0x2 0x3 0x4 0x0 0x0 0xff 0xfe
2022-07-25 17:47:25,903 pymodbus.factory - DEBUG - Factory Response[ReadHoldingRegistersResponse: 3]
2022-07-25 17:47:25,904 pymodbus.transaction - DEBUG - Adding transaction 39
2022-07-25 17:47:25,904 pymodbus.transaction - DEBUG - Getting transaction 39
2022-07-25 17:47:25,904 pymodbus.transaction - DEBUG - Changing transaction state from 'PROCESSING REPLY' to 'TRANSACTION_COMPLETE'
2022-07-25 17:47:25,904 pymodbus.transaction - DEBUG - Current transaction state - TRANSACTION_COMPLETE
2022-07-25 17:47:25,904 pymodbus.transaction - DEBUG - Running transaction 40
2022-07-25 17:47:25,904 pymodbus.transaction - DEBUG - SEND: 0x0 0x28 0x0 0x0 0x0 0x6 0x2 0x3 0x0 0x14 0x0 0x2
2022-07-25 17:47:25,904 pymodbus.client.sync - DEBUG - New Transaction state 'SENDING'
2022-07-25 17:47:25,904 pymodbus.transaction - DEBUG - Changing transaction state from 'SENDING' to 'WAITING FOR REPLY'
2022-07-25 17:47:25,935 pymodbus.transaction - DEBUG - Changing transaction state from 'WAITING FOR REPLY' to 'PROCESSING REPLY'
2022-07-25 17:47:25,935 pymodbus.transaction - DEBUG - RECV: 0x0 0x28 0x0 0x0 0x0 0x7 0x2 0x3 0x4 0x0 0x0 0x0 0x0
2022-07-25 17:47:25,935 pymodbus.framer.socket_framer - DEBUG - Processing: 0x0 0x28 0x0 0x0 0x0 0x7 0x2 0x3 0x4 0x0 0x0 0x0 0x0
2022-07-25 17:47:25,935 pymodbus.factory - DEBUG - Factory Response[ReadHoldingRegistersResponse: 3]
2022-07-25 17:47:25,936 pymodbus.transaction - DEBUG - Adding transaction 40
2022-07-25 17:47:25,936 pymodbus.transaction - DEBUG - Getting transaction 40
2022-07-25 17:47:25,936 pymodbus.transaction - DEBUG - Changing transaction state from 'PROCESSING REPLY' to 'TRANSACTION_COMPLETE'
2022-07-25 17:47:25,936 pymodbus.transaction - DEBUG - Current transaction state - TRANSACTION_COMPLETE
2022-07-25 17:47:25,936 pymodbus.transaction - DEBUG - Running transaction 41
2022-07-25 17:47:25,936 pymodbus.transaction - DEBUG - SEND: 0x0 0x29 0x0 0x0 0x0 0x6 0x2 0x3 0x0 0x16 0x0 0x2
2022-07-25 17:47:25,936 pymodbus.client.sync - DEBUG - New Transaction state 'SENDING'
2022-07-25 17:47:25,936 pymodbus.transaction - DEBUG - Changing transaction state from 'SENDING' to 'WAITING FOR REPLY'
2022-07-25 17:47:25,967 pymodbus.transaction - DEBUG - Changing transaction state from 'WAITING FOR REPLY' to 'PROCESSING REPLY'
2022-07-25 17:47:25,967 pymodbus.transaction - DEBUG - RECV: 0x0 0x29 0x0 0x0 0x0 0x7 0x2 0x3 0x4 0x0 0x0 0x0 0x0
2022-07-25 17:47:25,967 pymodbus.framer.socket_framer - DEBUG - Processing: 0x0 0x29 0x0 0x0 0x0 0x7 0x2 0x3 0x4 0x0 0x0 0x0 0x0
2022-07-25 17:47:25,967 pymodbus.factory - DEBUG - Factory Response[ReadHoldingRegistersResponse: 3]
2022-07-25 17:47:25,967 pymodbus.transaction - DEBUG - Adding transaction 41
2022-07-25 17:47:25,968 pymodbus.transaction - DEBUG - Getting transaction 41
2022-07-25 17:47:25,968 pymodbus.transaction - DEBUG - Changing transaction state from 'PROCESSING REPLY' to 'TRANSACTION_COMPLETE'
2022-07-25 17:47:25,968 pymodbus.transaction - DEBUG - Current transaction state - TRANSACTION_COMPLETE
2022-07-25 17:47:25,968 pymodbus.transaction - DEBUG - Running transaction 42
2022-07-25 17:47:25,968 pymodbus.transaction - DEBUG - SEND: 0x0 0x2a 0x0 0x0 0x0 0x6 0x2 0x3 0x0 0x18 0x0 0x2
2022-07-25 17:47:25,969 pymodbus.client.sync - DEBUG - New Transaction state 'SENDING'
2022-07-25 17:47:25,969 pymodbus.transaction - DEBUG - Changing transaction state from 'SENDING' to 'WAITING FOR REPLY'
2022-07-25 17:47:25,998 pymodbus.transaction - DEBUG - Changing transaction state from 'WAITING FOR REPLY' to 'PROCESSING REPLY'
2022-07-25 17:47:25,998 pymodbus.transaction - DEBUG - RECV: 0x0 0x2a 0x0 0x0 0x0 0x7 0x2 0x3 0x4 0x0 0x0 0x0 0x0
2022-07-25 17:47:25,999 pymodbus.framer.socket_framer - DEBUG - Processing: 0x0 0x2a 0x0 0x0 0x0 0x7 0x2 0x3 0x4 0x0 0x0 0x0 0x0
2022-07-25 17:47:25,999 pymodbus.factory - DEBUG - Factory Response[ReadHoldingRegistersResponse: 3]
2022-07-25 17:47:25,999 pymodbus.transaction - DEBUG - Adding transaction 42
2022-07-25 17:47:25,999 pymodbus.transaction - DEBUG - Getting transaction 42
2022-07-25 17:47:25,999 pymodbus.transaction - DEBUG - Changing transaction state from 'PROCESSING REPLY' to 'TRANSACTION_COMPLETE'
2022-07-25 17:47:25,999 pymodbus.transaction - DEBUG - Current transaction state - TRANSACTION_COMPLETE
2022-07-25 17:47:25,999 pymodbus.transaction - DEBUG - Running transaction 43
2022-07-25 17:47:25,999 pymodbus.transaction - DEBUG - SEND: 0x0 0x2b 0x0 0x0 0x0 0x6 0x2 0x3 0x0 0x1a 0x0 0x2
2022-07-25 17:47:25,999 pymodbus.client.sync - DEBUG - New Transaction state 'SENDING'
2022-07-25 17:47:25,999 pymodbus.transaction - DEBUG - Changing transaction state from 'SENDING' to 'WAITING FOR REPLY'
2022-07-25 17:47:26,029 pymodbus.transaction - DEBUG - Changing transaction state from 'WAITING FOR REPLY' to 'PROCESSING REPLY'
2022-07-25 17:47:26,029 pymodbus.transaction - DEBUG - RECV: 0x0 0x2b 0x0 0x0 0x0 0x7 0x2 0x3 0x4 0x0 0x0 0x0 0x0
2022-07-25 17:47:26,030 pymodbus.framer.socket_framer - DEBUG - Processing: 0x0 0x2b 0x0 0x0 0x0 0x7 0x2 0x3 0x4 0x0 0x0 0x0 0x0
2022-07-25 17:47:26,030 pymodbus.factory - DEBUG - Factory Response[ReadHoldingRegistersResponse: 3]
2022-07-25 17:47:26,030 pymodbus.transaction - DEBUG - Adding transaction 43
2022-07-25 17:47:26,030 pymodbus.transaction - DEBUG - Getting transaction 43
2022-07-25 17:47:26,030 pymodbus.transaction - DEBUG - Changing transaction state from 'PROCESSING REPLY' to 'TRANSACTION_COMPLETE'
2022-07-25 17:47:26,030 pymodbus.transaction - DEBUG - Current transaction state - TRANSACTION_COMPLETE
2022-07-25 17:47:26,030 pymodbus.transaction - DEBUG - Running transaction 44
2022-07-25 17:47:26,030 pymodbus.transaction - DEBUG - SEND: 0x0 0x2c 0x0 0x0 0x0 0x6 0x2 0x3 0x0 0x1c 0x0 0x2
2022-07-25 17:47:26,030 pymodbus.client.sync - DEBUG - New Transaction state 'SENDING'
2022-07-25 17:47:26,031 pymodbus.transaction - DEBUG - Changing transaction state from 'SENDING' to 'WAITING FOR REPLY'
2022-07-25 17:47:26,061 pymodbus.transaction - DEBUG - Changing transaction state from 'WAITING FOR REPLY' to 'PROCESSING REPLY'
2022-07-25 17:47:26,061 pymodbus.transaction - DEBUG - RECV: 0x0 0x2c 0x0 0x0 0x0 0x7 0x2 0x3 0x4 0x0 0x0 0x0 0x0
2022-07-25 17:47:26,061 pymodbus.framer.socket_framer - DEBUG - Processing: 0x0 0x2c 0x0 0x0 0x0 0x7 0x2 0x3 0x4 0x0 0x0 0x0 0x0
2022-07-25 17:47:26,061 pymodbus.factory - DEBUG - Factory Response[ReadHoldingRegistersResponse: 3]
2022-07-25 17:47:26,061 pymodbus.transaction - DEBUG - Adding transaction 44
2022-07-25 17:47:26,062 pymodbus.transaction - DEBUG - Getting transaction 44
2022-07-25 17:47:26,062 pymodbus.transaction - DEBUG - Changing transaction state from 'PROCESSING REPLY' to 'TRANSACTION_COMPLETE'
2022-07-25 17:47:26,062 pymodbus.transaction - DEBUG - Current transaction state - TRANSACTION_COMPLETE
2022-07-25 17:47:26,062 pymodbus.transaction - DEBUG - Running transaction 45
2022-07-25 17:47:26,062 pymodbus.transaction - DEBUG - SEND: 0x0 0x2d 0x0 0x0 0x0 0x6 0x2 0x3 0x0 0x1e 0x0 0x2
2022-07-25 17:47:26,062 pymodbus.client.sync - DEBUG - New Transaction state 'SENDING'
2022-07-25 17:47:26,062 pymodbus.transaction - DEBUG - Changing transaction state from 'SENDING' to 'WAITING FOR REPLY'
2022-07-25 17:47:26,092 pymodbus.transaction - DEBUG - Changing transaction state from 'WAITING FOR REPLY' to 'PROCESSING REPLY'
2022-07-25 17:47:26,093 pymodbus.transaction - DEBUG - RECV: 0x0 0x2d 0x0 0x0 0x0 0x7 0x2 0x3 0x4 0x0 0x0 0x0 0x0
2022-07-25 17:47:26,093 pymodbus.framer.socket_framer - DEBUG - Processing: 0x0 0x2d 0x0 0x0 0x0 0x7 0x2 0x3 0x4 0x0 0x0 0x0 0x0
2022-07-25 17:47:26,093 pymodbus.factory - DEBUG - Factory Response[ReadHoldingRegistersResponse: 3]
2022-07-25 17:47:26,093 pymodbus.transaction - DEBUG - Adding transaction 45
2022-07-25 17:47:26,093 pymodbus.transaction - DEBUG - Getting transaction 45
2022-07-25 17:47:26,093 pymodbus.transaction - DEBUG - Changing transaction state from 'PROCESSING REPLY' to 'TRANSACTION_COMPLETE'
2022-07-25 17:47:26,094 pymodbus.transaction - DEBUG - Current transaction state - TRANSACTION_COMPLETE
2022-07-25 17:47:26,094 pymodbus.transaction - DEBUG - Running transaction 46
2022-07-25 17:47:26,094 pymodbus.transaction - DEBUG - SEND: 0x0 0x2e 0x0 0x0 0x0 0x6 0x2 0x3 0x0 0x20 0x0 0x2
2022-07-25 17:47:26,094 pymodbus.client.sync - DEBUG - New Transaction state 'SENDING'
2022-07-25 17:47:26,094 pymodbus.transaction - DEBUG - Changing transaction state from 'SENDING' to 'WAITING FOR REPLY'
2022-07-25 17:47:26,124 pymodbus.transaction - DEBUG - Changing transaction state from 'WAITING FOR REPLY' to 'PROCESSING REPLY'
2022-07-25 17:47:26,124 pymodbus.transaction - DEBUG - RECV: 0x0 0x2e 0x0 0x0 0x0 0x7 0x2 0x3 0x4 0x0 0x0 0x0 0x0
2022-07-25 17:47:26,124 pymodbus.framer.socket_framer - DEBUG - Processing: 0x0 0x2e 0x0 0x0 0x0 0x7 0x2 0x3 0x4 0x0 0x0 0x0 0x0
2022-07-25 17:47:26,124 pymodbus.factory - DEBUG - Factory Response[ReadHoldingRegistersResponse: 3]
2022-07-25 17:47:26,124 pymodbus.transaction - DEBUG - Adding transaction 46
2022-07-25 17:47:26,124 pymodbus.transaction - DEBUG - Getting transaction 46
2022-07-25 17:47:26,124 pymodbus.transaction - DEBUG - Changing transaction state from 'PROCESSING REPLY' to 'TRANSACTION_COMPLETE'
2022-07-25 17:47:26,124 pymodbus.transaction - DEBUG - Current transaction state - TRANSACTION_COMPLETE
2022-07-25 17:47:26,124 pymodbus.transaction - DEBUG - Running transaction 47
2022-07-25 17:47:26,124 pymodbus.transaction - DEBUG - SEND: 0x0 0x2f 0x0 0x0 0x0 0x6 0x2 0x3 0x0 0x22 0x0 0x2
2022-07-25 17:47:26,124 pymodbus.client.sync - DEBUG - New Transaction state 'SENDING'
2022-07-25 17:47:26,124 pymodbus.transaction - DEBUG - Changing transaction state from 'SENDING' to 'WAITING FOR REPLY'
2022-07-25 17:47:26,154 pymodbus.transaction - DEBUG - Changing transaction state from 'WAITING FOR REPLY' to 'PROCESSING REPLY'
2022-07-25 17:47:26,155 pymodbus.transaction - DEBUG - RECV: 0x0 0x2f 0x0 0x0 0x0 0x7 0x2 0x3 0x4 0x0 0x0 0x0 0x0
2022-07-25 17:47:26,155 pymodbus.framer.socket_framer - DEBUG - Processing: 0x0 0x2f 0x0 0x0 0x0 0x7 0x2 0x3 0x4 0x0 0x0 0x0 0x0
2022-07-25 17:47:26,155 pymodbus.factory - DEBUG - Factory Response[ReadHoldingRegistersResponse: 3]
2022-07-25 17:47:26,155 pymodbus.transaction - DEBUG - Adding transaction 47
2022-07-25 17:47:26,155 pymodbus.transaction - DEBUG - Getting transaction 47
2022-07-25 17:47:26,155 pymodbus.transaction - DEBUG - Changing transaction state from 'PROCESSING REPLY' to 'TRANSACTION_COMPLETE'
2022-07-25 17:47:26,155 pymodbus.transaction - DEBUG - Current transaction state - TRANSACTION_COMPLETE
2022-07-25 17:47:26,155 pymodbus.transaction - DEBUG - Running transaction 48
2022-07-25 17:47:26,155 pymodbus.transaction - DEBUG - SEND: 0x0 0x30 0x0 0x0 0x0 0x6 0x2 0x3 0x0 0x24 0x0 0x2
2022-07-25 17:47:26,155 pymodbus.client.sync - DEBUG - New Transaction state 'SENDING'
2022-07-25 17:47:26,155 pymodbus.transaction - DEBUG - Changing transaction state from 'SENDING' to 'WAITING FOR REPLY'
2022-07-25 17:47:26,185 pymodbus.transaction - DEBUG - Changing transaction state from 'WAITING FOR REPLY' to 'PROCESSING REPLY'
2022-07-25 17:47:26,185 pymodbus.transaction - DEBUG - RECV: 0x0 0x30 0x0 0x0 0x0 0x7 0x2 0x3 0x4 0x0 0x0 0x0 0x0
2022-07-25 17:47:26,185 pymodbus.framer.socket_framer - DEBUG - Processing: 0x0 0x30 0x0 0x0 0x0 0x7 0x2 0x3 0x4 0x0 0x0 0x0 0x0
2022-07-25 17:47:26,185 pymodbus.factory - DEBUG - Factory Response[ReadHoldingRegistersResponse: 3]
2022-07-25 17:47:26,185 pymodbus.transaction - DEBUG - Adding transaction 48
2022-07-25 17:47:26,185 pymodbus.transaction - DEBUG - Getting transaction 48
2022-07-25 17:47:26,185 pymodbus.transaction - DEBUG - Changing transaction state from 'PROCESSING REPLY' to 'TRANSACTION_COMPLETE'
2022-07-25 17:47:26,185 pymodbus.transaction - DEBUG - Current transaction state - TRANSACTION_COMPLETE
2022-07-25 17:47:26,185 pymodbus.transaction - DEBUG - Running transaction 49
2022-07-25 17:47:26,185 pymodbus.transaction - DEBUG - SEND: 0x0 0x31 0x0 0x0 0x0 0x6 0x2 0x3 0x0 0x26 0x0 0x2
2022-07-25 17:47:26,185 pymodbus.client.sync - DEBUG - New Transaction state 'SENDING'
2022-07-25 17:47:26,185 pymodbus.transaction - DEBUG - Changing transaction state from 'SENDING' to 'WAITING FOR REPLY'
2022-07-25 17:47:26,216 pymodbus.transaction - DEBUG - Changing transaction state from 'WAITING FOR REPLY' to 'PROCESSING REPLY'
2022-07-25 17:47:26,216 pymodbus.transaction - DEBUG - RECV: 0x0 0x31 0x0 0x0 0x0 0x7 0x2 0x3 0x4 0x0 0x0 0x0 0x0
2022-07-25 17:47:26,216 pymodbus.framer.socket_framer - DEBUG - Processing: 0x0 0x31 0x0 0x0 0x0 0x7 0x2 0x3 0x4 0x0 0x0 0x0 0x0
2022-07-25 17:47:26,217 pymodbus.factory - DEBUG - Factory Response[ReadHoldingRegistersResponse: 3]
2022-07-25 17:47:26,217 pymodbus.transaction - DEBUG - Adding transaction 49
2022-07-25 17:47:26,217 pymodbus.transaction - DEBUG - Getting transaction 49
2022-07-25 17:47:26,217 pymodbus.transaction - DEBUG - Changing transaction state from 'PROCESSING REPLY' to 'TRANSACTION_COMPLETE'
2022-07-25 17:47:26,217 pymodbus.transaction - DEBUG - Current transaction state - TRANSACTION_COMPLETE
2022-07-25 17:47:26,217 pymodbus.transaction - DEBUG - Running transaction 50
2022-07-25 17:47:26,218 pymodbus.transaction - DEBUG - SEND: 0x0 0x32 0x0 0x0 0x0 0x6 0x2 0x3 0x0 0x28 0x0 0x2
2022-07-25 17:47:26,218 pymodbus.client.sync - DEBUG - New Transaction state 'SENDING'
2022-07-25 17:47:26,218 pymodbus.transaction - DEBUG - Changing transaction state from 'SENDING' to 'WAITING FOR REPLY'
2022-07-25 17:47:26,247 pymodbus.transaction - DEBUG - Changing transaction state from 'WAITING FOR REPLY' to 'PROCESSING REPLY'
2022-07-25 17:47:26,247 pymodbus.transaction - DEBUG - RECV: 0x0 0x32 0x0 0x0 0x0 0x7 0x2 0x3 0x4 0x0 0x0 0x0 0x0
2022-07-25 17:47:26,247 pymodbus.framer.socket_framer - DEBUG - Processing: 0x0 0x32 0x0 0x0 0x0 0x7 0x2 0x3 0x4 0x0 0x0 0x0 0x0
2022-07-25 17:47:26,247 pymodbus.factory - DEBUG - Factory Response[ReadHoldingRegistersResponse: 3]
2022-07-25 17:47:26,248 pymodbus.transaction - DEBUG - Adding transaction 50
2022-07-25 17:47:26,248 pymodbus.transaction - DEBUG - Getting transaction 50
2022-07-25 17:47:26,248 pymodbus.transaction - DEBUG - Changing transaction state from 'PROCESSING REPLY' to 'TRANSACTION_COMPLETE'
2022-07-25 17:47:26,248 pymodbus.transaction - DEBUG - Current transaction state - TRANSACTION_COMPLETE
2022-07-25 17:47:26,248 pymodbus.transaction - DEBUG - Running transaction 51
2022-07-25 17:47:26,248 pymodbus.transaction - DEBUG - SEND: 0x0 0x33 0x0 0x0 0x0 0x6 0x2 0x3 0x0 0x2a 0x0 0x2
2022-07-25 17:47:26,248 pymodbus.client.sync - DEBUG - New Transaction state 'SENDING'
2022-07-25 17:47:26,248 pymodbus.transaction - DEBUG - Changing transaction state from 'SENDING' to 'WAITING FOR REPLY'
2022-07-25 17:47:26,279 pymodbus.transaction - DEBUG - Changing transaction state from 'WAITING FOR REPLY' to 'PROCESSING REPLY'
2022-07-25 17:47:26,279 pymodbus.transaction - DEBUG - RECV: 0x0 0x33 0x0 0x0 0x0 0x7 0x2 0x3 0x4 0x0 0x0 0x0 0x0
2022-07-25 17:47:26,280 pymodbus.framer.socket_framer - DEBUG - Processing: 0x0 0x33 0x0 0x0 0x0 0x7 0x2 0x3 0x4 0x0 0x0 0x0 0x0
2022-07-25 17:47:26,280 pymodbus.factory - DEBUG - Factory Response[ReadHoldingRegistersResponse: 3]
2022-07-25 17:47:26,280 pymodbus.transaction - DEBUG - Adding transaction 51
2022-07-25 17:47:26,280 pymodbus.transaction - DEBUG - Getting transaction 51
2022-07-25 17:47:26,280 pymodbus.transaction - DEBUG - Changing transaction state from 'PROCESSING REPLY' to 'TRANSACTION_COMPLETE'
2022-07-25 17:47:26,280 pymodbus.transaction - DEBUG - Current transaction state - TRANSACTION_COMPLETE
2022-07-25 17:47:26,280 pymodbus.transaction - DEBUG - Running transaction 52
2022-07-25 17:47:26,280 pymodbus.transaction - DEBUG - SEND: 0x0 0x34 0x0 0x0 0x0 0x6 0x2 0x3 0x0 0x2c 0x0 0x2
2022-07-25 17:47:26,280 pymodbus.client.sync - DEBUG - New Transaction state 'SENDING'
2022-07-25 17:47:26,281 pymodbus.transaction - DEBUG - Changing transaction state from 'SENDING' to 'WAITING FOR REPLY'
2022-07-25 17:47:26,310 pymodbus.transaction - DEBUG - Changing transaction state from 'WAITING FOR REPLY' to 'PROCESSING REPLY'
2022-07-25 17:47:26,310 pymodbus.transaction - DEBUG - RECV: 0x0 0x34 0x0 0x0 0x0 0x7 0x2 0x3 0x4 0x0 0x0 0x0 0x0
2022-07-25 17:47:26,310 pymodbus.framer.socket_framer - DEBUG - Processing: 0x0 0x34 0x0 0x0 0x0 0x7 0x2 0x3 0x4 0x0 0x0 0x0 0x0
2022-07-25 17:47:26,310 pymodbus.factory - DEBUG - Factory Response[ReadHoldingRegistersResponse: 3]
2022-07-25 17:47:26,310 pymodbus.transaction - DEBUG - Adding transaction 52
2022-07-25 17:47:26,311 pymodbus.transaction - DEBUG - Getting transaction 52
2022-07-25 17:47:26,311 pymodbus.transaction - DEBUG - Changing transaction state from 'PROCESSING REPLY' to 'TRANSACTION_COMPLETE'
2022-07-25 17:47:26,311 pymodbus.transaction - DEBUG - Current transaction state - TRANSACTION_COMPLETE
2022-07-25 17:47:26,311 pymodbus.transaction - DEBUG - Running transaction 53
2022-07-25 17:47:26,311 pymodbus.transaction - DEBUG - SEND: 0x0 0x35 0x0 0x0 0x0 0x6 0x2 0x3 0x0 0x2e 0x0 0x2
2022-07-25 17:47:26,311 pymodbus.client.sync - DEBUG - New Transaction state 'SENDING'
2022-07-25 17:47:26,311 pymodbus.transaction - DEBUG - Changing transaction state from 'SENDING' to 'WAITING FOR REPLY'
2022-07-25 17:47:26,342 pymodbus.transaction - DEBUG - Changing transaction state from 'WAITING FOR REPLY' to 'PROCESSING REPLY'
2022-07-25 17:47:26,342 pymodbus.transaction - DEBUG - RECV: 0x0 0x35 0x0 0x0 0x0 0x7 0x2 0x3 0x4 0x0 0x0 0x0 0x0
2022-07-25 17:47:26,342 pymodbus.framer.socket_framer - DEBUG - Processing: 0x0 0x35 0x0 0x0 0x0 0x7 0x2 0x3 0x4 0x0 0x0 0x0 0x0
2022-07-25 17:47:26,343 pymodbus.factory - DEBUG - Factory Response[ReadHoldingRegistersResponse: 3]
2022-07-25 17:47:26,343 pymodbus.transaction - DEBUG - Adding transaction 53
2022-07-25 17:47:26,343 pymodbus.transaction - DEBUG - Getting transaction 53
2022-07-25 17:47:26,343 pymodbus.transaction - DEBUG - Changing transaction state from 'PROCESSING REPLY' to 'TRANSACTION_COMPLETE'
2022-07-25 17:47:26,343 pymodbus.transaction - DEBUG - Current transaction state - TRANSACTION_COMPLETE
2022-07-25 17:47:26,343 pymodbus.transaction - DEBUG - Running transaction 54
2022-07-25 17:47:26,343 pymodbus.transaction - DEBUG - SEND: 0x0 0x36 0x0 0x0 0x0 0x6 0x2 0x3 0x0 0x30 0x0 0x2
2022-07-25 17:47:26,343 pymodbus.client.sync - DEBUG - New Transaction state 'SENDING'
2022-07-25 17:47:26,343 pymodbus.transaction - DEBUG - Changing transaction state from 'SENDING' to 'WAITING FOR REPLY'
2022-07-25 17:47:26,373 pymodbus.transaction - DEBUG - Changing transaction state from 'WAITING FOR REPLY' to 'PROCESSING REPLY'
2022-07-25 17:47:26,373 pymodbus.transaction - DEBUG - RECV: 0x0 0x36 0x0 0x0 0x0 0x7 0x2 0x3 0x4 0x0 0x0 0x0 0x0
2022-07-25 17:47:26,373 pymodbus.framer.socket_framer - DEBUG - Processing: 0x0 0x36 0x0 0x0 0x0 0x7 0x2 0x3 0x4 0x0 0x0 0x0 0x0
2022-07-25 17:47:26,373 pymodbus.factory - DEBUG - Factory Response[ReadHoldingRegistersResponse: 3]
2022-07-25 17:47:26,373 pymodbus.transaction - DEBUG - Adding transaction 54
2022-07-25 17:47:26,373 pymodbus.transaction - DEBUG - Getting transaction 54
2022-07-25 17:47:26,373 pymodbus.transaction - DEBUG - Changing transaction state from 'PROCESSING REPLY' to 'TRANSACTION_COMPLETE'
2022-07-25 17:47:26,374 pymodbus.transaction - DEBUG - Current transaction state - TRANSACTION_COMPLETE
2022-07-25 17:47:26,374 pymodbus.transaction - DEBUG - Running transaction 55
2022-07-25 17:47:26,374 pymodbus.transaction - DEBUG - SEND: 0x0 0x37 0x0 0x0 0x0 0x6 0x2 0x3 0x0 0x32 0x0 0x2
2022-07-25 17:47:26,374 pymodbus.client.sync - DEBUG - New Transaction state 'SENDING'
2022-07-25 17:47:26,374 pymodbus.transaction - DEBUG - Changing transaction state from 'SENDING' to 'WAITING FOR REPLY'
2022-07-25 17:47:26,404 pymodbus.transaction - DEBUG - Changing transaction state from 'WAITING FOR REPLY' to 'PROCESSING REPLY'
2022-07-25 17:47:26,404 pymodbus.transaction - DEBUG - RECV: 0x0 0x37 0x0 0x0 0x0 0x7 0x2 0x3 0x4 0x0 0x0 0x0 0x0
2022-07-25 17:47:26,404 pymodbus.framer.socket_framer - DEBUG - Processing: 0x0 0x37 0x0 0x0 0x0 0x7 0x2 0x3 0x4 0x0 0x0 0x0 0x0
2022-07-25 17:47:26,404 pymodbus.factory - DEBUG - Factory Response[ReadHoldingRegistersResponse: 3]
2022-07-25 17:47:26,405 pymodbus.transaction - DEBUG - Adding transaction 55
2022-07-25 17:47:26,405 pymodbus.transaction - DEBUG - Getting transaction 55
2022-07-25 17:47:26,405 pymodbus.transaction - DEBUG - Changing transaction state from 'PROCESSING REPLY' to 'TRANSACTION_COMPLETE'
2022-07-25 17:47:26,405 pymodbus.transaction - DEBUG - Current transaction state - TRANSACTION_COMPLETE
2022-07-25 17:47:26,405 pymodbus.transaction - DEBUG - Running transaction 56
2022-07-25 17:47:26,405 pymodbus.transaction - DEBUG - SEND: 0x0 0x38 0x0 0x0 0x0 0x6 0x2 0x3 0x0 0x34 0x0 0x2
2022-07-25 17:47:26,405 pymodbus.client.sync - DEBUG - New Transaction state 'SENDING'
2022-07-25 17:47:26,405 pymodbus.transaction - DEBUG - Changing transaction state from 'SENDING' to 'WAITING FOR REPLY'
2022-07-25 17:47:26,435 pymodbus.transaction - DEBUG - Changing transaction state from 'WAITING FOR REPLY' to 'PROCESSING REPLY'
2022-07-25 17:47:26,435 pymodbus.transaction - DEBUG - RECV: 0x0 0x38 0x0 0x0 0x0 0x7 0x2 0x3 0x4 0x0 0x0 0x0 0x0
2022-07-25 17:47:26,435 pymodbus.framer.socket_framer - DEBUG - Processing: 0x0 0x38 0x0 0x0 0x0 0x7 0x2 0x3 0x4 0x0 0x0 0x0 0x0
2022-07-25 17:47:26,435 pymodbus.factory - DEBUG - Factory Response[ReadHoldingRegistersResponse: 3]
2022-07-25 17:47:26,435 pymodbus.transaction - DEBUG - Adding transaction 56
2022-07-25 17:47:26,435 pymodbus.transaction - DEBUG - Getting transaction 56
2022-07-25 17:47:26,435 pymodbus.transaction - DEBUG - Changing transaction state from 'PROCESSING REPLY' to 'TRANSACTION_COMPLETE'
2022-07-25 17:47:26,435 pymodbus.transaction - DEBUG - Current transaction state - TRANSACTION_COMPLETE
2022-07-25 17:47:26,435 pymodbus.transaction - DEBUG - Running transaction 57
2022-07-25 17:47:26,435 pymodbus.transaction - DEBUG - SEND: 0x0 0x39 0x0 0x0 0x0 0x6 0x2 0x3 0x0 0x36 0x0 0x2
2022-07-25 17:47:26,435 pymodbus.client.sync - DEBUG - New Transaction state 'SENDING'
2022-07-25 17:47:26,435 pymodbus.transaction - DEBUG - Changing transaction state from 'SENDING' to 'WAITING FOR REPLY'
2022-07-25 17:47:26,467 pymodbus.transaction - DEBUG - Changing transaction state from 'WAITING FOR REPLY' to 'PROCESSING REPLY'
2022-07-25 17:47:26,467 pymodbus.transaction - DEBUG - RECV: 0x0 0x39 0x0 0x0 0x0 0x7 0x2 0x3 0x4 0x0 0x0 0x0 0x0
2022-07-25 17:47:26,467 pymodbus.framer.socket_framer - DEBUG - Processing: 0x0 0x39 0x0 0x0 0x0 0x7 0x2 0x3 0x4 0x0 0x0 0x0 0x0
2022-07-25 17:47:26,467 pymodbus.factory - DEBUG - Factory Response[ReadHoldingRegistersResponse: 3]
2022-07-25 17:47:26,467 pymodbus.transaction - DEBUG - Adding transaction 57
2022-07-25 17:47:26,467 pymodbus.transaction - DEBUG - Getting transaction 57
2022-07-25 17:47:26,467 pymodbus.transaction - DEBUG - Changing transaction state from 'PROCESSING REPLY' to 'TRANSACTION_COMPLETE'
2022-07-25 17:47:26,467 pymodbus.transaction - DEBUG - Current transaction state - TRANSACTION_COMPLETE
2022-07-25 17:47:26,467 pymodbus.transaction - DEBUG - Running transaction 58
2022-07-25 17:47:26,467 pymodbus.transaction - DEBUG - SEND: 0x0 0x3a 0x0 0x0 0x0 0x6 0x2 0x3 0x0 0x38 0x0 0x2
2022-07-25 17:47:26,467 pymodbus.client.sync - DEBUG - New Transaction state 'SENDING'
2022-07-25 17:47:26,467 pymodbus.transaction - DEBUG - Changing transaction state from 'SENDING' to 'WAITING FOR REPLY'
2022-07-25 17:47:26,498 pymodbus.transaction - DEBUG - Changing transaction state from 'WAITING FOR REPLY' to 'PROCESSING REPLY'
2022-07-25 17:47:26,498 pymodbus.transaction - DEBUG - RECV: 0x0 0x3a 0x0 0x0 0x0 0x7 0x2 0x3 0x4 0x0 0x0 0x0 0x0
2022-07-25 17:47:26,498 pymodbus.framer.socket_framer - DEBUG - Processing: 0x0 0x3a 0x0 0x0 0x0 0x7 0x2 0x3 0x4 0x0 0x0 0x0 0x0
2022-07-25 17:47:26,498 pymodbus.factory - DEBUG - Factory Response[ReadHoldingRegistersResponse: 3]
2022-07-25 17:47:26,498 pymodbus.transaction - DEBUG - Adding transaction 58
2022-07-25 17:47:26,498 pymodbus.transaction - DEBUG - Getting transaction 58
2022-07-25 17:47:26,499 pymodbus.transaction - DEBUG - Changing transaction state from 'PROCESSING REPLY' to 'TRANSACTION_COMPLETE'
2022-07-25 17:47:26,499 pymodbus.transaction - DEBUG - Current transaction state - TRANSACTION_COMPLETE
2022-07-25 17:47:26,499 pymodbus.transaction - DEBUG - Running transaction 59
2022-07-25 17:47:26,499 pymodbus.transaction - DEBUG - SEND: 0x0 0x3b 0x0 0x0 0x0 0x6 0x2 0x3 0x0 0x3a 0x0 0x2
2022-07-25 17:47:26,499 pymodbus.client.sync - DEBUG - New Transaction state 'SENDING'
2022-07-25 17:47:26,499 pymodbus.transaction - DEBUG - Changing transaction state from 'SENDING' to 'WAITING FOR REPLY'
2022-07-25 17:47:26,529 pymodbus.transaction - DEBUG - Changing transaction state from 'WAITING FOR REPLY' to 'PROCESSING REPLY'
2022-07-25 17:47:26,529 pymodbus.transaction - DEBUG - RECV: 0x0 0x3b 0x0 0x0 0x0 0x7 0x2 0x3 0x4 0x0 0x0 0x0 0x0
2022-07-25 17:47:26,530 pymodbus.framer.socket_framer - DEBUG - Processing: 0x0 0x3b 0x0 0x0 0x0 0x7 0x2 0x3 0x4 0x0 0x0 0x0 0x0
2022-07-25 17:47:26,530 pymodbus.factory - DEBUG - Factory Response[ReadHoldingRegistersResponse: 3]
2022-07-25 17:47:26,530 pymodbus.transaction - DEBUG - Adding transaction 59
2022-07-25 17:47:26,530 pymodbus.transaction - DEBUG - Getting transaction 59
2022-07-25 17:47:26,530 pymodbus.transaction - DEBUG - Changing transaction state from 'PROCESSING REPLY' to 'TRANSACTION_COMPLETE'
2022-07-25 17:47:26,530 pymodbus.transaction - DEBUG - Current transaction state - TRANSACTION_COMPLETE
2022-07-25 17:47:26,530 pymodbus.transaction - DEBUG - Running transaction 60
2022-07-25 17:47:26,530 pymodbus.transaction - DEBUG - SEND: 0x0 0x3c 0x0 0x0 0x0 0x6 0x2 0x3 0x0 0x3c 0x0 0x2
2022-07-25 17:47:26,530 pymodbus.client.sync - DEBUG - New Transaction state 'SENDING'
2022-07-25 17:47:26,530 pymodbus.transaction - DEBUG - Changing transaction state from 'SENDING' to 'WAITING FOR REPLY'
2022-07-25 17:47:26,561 pymodbus.transaction - DEBUG - Changing transaction state from 'WAITING FOR REPLY' to 'PROCESSING REPLY'
2022-07-25 17:47:26,561 pymodbus.transaction - DEBUG - RECV: 0x0 0x3c 0x0 0x0 0x0 0x7 0x2 0x3 0x4 0x0 0x0 0x0 0x0
2022-07-25 17:47:26,561 pymodbus.framer.socket_framer - DEBUG - Processing: 0x0 0x3c 0x0 0x0 0x0 0x7 0x2 0x3 0x4 0x0 0x0 0x0 0x0
2022-07-25 17:47:26,561 pymodbus.factory - DEBUG - Factory Response[ReadHoldingRegistersResponse: 3]
2022-07-25 17:47:26,561 pymodbus.transaction - DEBUG - Adding transaction 60
2022-07-25 17:47:26,561 pymodbus.transaction - DEBUG - Getting transaction 60
2022-07-25 17:47:26,561 pymodbus.transaction - DEBUG - Changing transaction state from 'PROCESSING REPLY' to 'TRANSACTION_COMPLETE'
2022-07-25 17:47:26,561 pymodbus.transaction - DEBUG - Current transaction state - TRANSACTION_COMPLETE
2022-07-25 17:47:26,561 pymodbus.transaction - DEBUG - Running transaction 61
2022-07-25 17:47:26,561 pymodbus.transaction - DEBUG - SEND: 0x0 0x3d 0x0 0x0 0x0 0x6 0x2 0x3 0x0 0x40 0x0 0x2
2022-07-25 17:47:26,562 pymodbus.client.sync - DEBUG - New Transaction state 'SENDING'
2022-07-25 17:47:26,562 pymodbus.transaction - DEBUG - Changing transaction state from 'SENDING' to 'WAITING FOR REPLY'
2022-07-25 17:47:26,592 pymodbus.transaction - DEBUG - Changing transaction state from 'WAITING FOR REPLY' to 'PROCESSING REPLY'
2022-07-25 17:47:26,592 pymodbus.transaction - DEBUG - RECV: 0x0 0x3d 0x0 0x0 0x0 0x7 0x2 0x3 0x4 0x0 0x0 0x0 0x0
2022-07-25 17:47:26,592 pymodbus.framer.socket_framer - DEBUG - Processing: 0x0 0x3d 0x0 0x0 0x0 0x7 0x2 0x3 0x4 0x0 0x0 0x0 0x0
2022-07-25 17:47:26,592 pymodbus.factory - DEBUG - Factory Response[ReadHoldingRegistersResponse: 3]
2022-07-25 17:47:26,592 pymodbus.transaction - DEBUG - Adding transaction 61
2022-07-25 17:47:26,592 pymodbus.transaction - DEBUG - Getting transaction 61
2022-07-25 17:47:26,592 pymodbus.transaction - DEBUG - Changing transaction state from 'PROCESSING REPLY' to 'TRANSACTION_COMPLETE'
2022-07-25 17:47:26,592 pymodbus.transaction - DEBUG - Current transaction state - TRANSACTION_COMPLETE
2022-07-25 17:47:26,592 pymodbus.transaction - DEBUG - Running transaction 62
2022-07-25 17:47:26,592 pymodbus.transaction - DEBUG - SEND: 0x0 0x3e 0x0 0x0 0x0 0x6 0x2 0x3 0x0 0x3e 0x0 0x2
2022-07-25 17:47:26,592 pymodbus.client.sync - DEBUG - New Transaction state 'SENDING'
2022-07-25 17:47:26,594 pymodbus.transaction - DEBUG - Changing transaction state from 'SENDING' to 'WAITING FOR REPLY'
2022-07-25 17:47:26,623 pymodbus.transaction - DEBUG - Changing transaction state from 'WAITING FOR REPLY' to 'PROCESSING REPLY'
2022-07-25 17:47:26,624 pymodbus.transaction - DEBUG - RECV: 0x0 0x3e 0x0 0x0 0x0 0x7 0x2 0x3 0x4 0x0 0x0 0x0 0x0
2022-07-25 17:47:26,624 pymodbus.framer.socket_framer - DEBUG - Processing: 0x0 0x3e 0x0 0x0 0x0 0x7 0x2 0x3 0x4 0x0 0x0 0x0 0x0
2022-07-25 17:47:26,624 pymodbus.factory - DEBUG - Factory Response[ReadHoldingRegistersResponse: 3]
2022-07-25 17:47:26,624 pymodbus.transaction - DEBUG - Adding transaction 62
2022-07-25 17:47:26,624 pymodbus.transaction - DEBUG - Getting transaction 62
2022-07-25 17:47:26,624 pymodbus.transaction - DEBUG - Changing transaction state from 'PROCESSING REPLY' to 'TRANSACTION_COMPLETE'
2022-07-25 17:47:26,624 log1 - DEBUG - Reading Register Complete
2022-07-25 17:47:26,626 log1 - DEBUG - Posting Data to DB
2022-07-25 17:47:26,628 urllib3.connectionpool - DEBUG - Resetting dropped connection: 192.168.1.36
2022-07-25 17:47:26,646 urllib3.connectionpool - DEBUG - http://192.168.1.36:4000 "POST /data HTTP/1.1" 200 20
2022-07-25 17:47:26,647 root - DEBUG - {"index":0,"code":2}
2022-07-25 17:47:26,647 log1 - DEBUG - {'timestamp': 1658742445, 'dc_main_contactor': 65534.0, 'stk1_contactor': 80.0, 'primary_positive_pump': 23.0, 'primary_negative_pump': 4.0, 'system_mode': 0, 'system_alarm_status': 0, 'balancing_valve': 0.0, 'positive_valve': 0.0, 'negative_valve': 0.0, 'state_of_charge': 655.34, 'bcu_mode_status': 0, 'bcu_voltage': 0, 'bcu_current': 0, 'bcu_power': 0, 'bcu_state_of_charge': 0.0, 'bcu_hydrogen_sensor': 0.0, 'bcu_leakage_sensor': 0.0, 'smoke_sensor': 0.0, 'bcu_ocv': 0.0, 'bcu_positive_tank_temp': 0.0, 'bcu_negative_tank_temp': 0.0, 'positive_tank_high_level_float': 0.0, 'negative_tank_high_level_float': 0.0, 'positive_tank_low_level_float': 0.0, 'negative_tank_low_level_float': 0.0, 'primary_stack_voltage': 0.0, 'primary_stack_current': 0.0, 'primary_stack_positive_pressure_sensor': 0.0, 'primary_stack_negative_pressure_sensor': 0.0, 'positive_stack_pressure_delta': 0.0, 'b1_primary_stack_pressure_delta': 0.0, 'sensor_temp': 0.0, 'humidity': 0.0, 'bms_timestamp': 0, 'plc_alarm_status_1': 0}
2022-07-25 17:47:26,649 log1 - DEBUG - POST Complete
2022-07-25 17:47:31,666 root - DEBUG - Reading Registers
2022-07-25 17:47:31,666 log1 - DEBUG - Reading Registers
2022-07-25 17:47:31,667 pymodbus.transaction - DEBUG - Current transaction state - TRANSACTION_COMPLETE
2022-07-25 17:47:31,667 pymodbus.transaction - DEBUG - Running transaction 63
2022-07-25 17:47:31,667 pymodbus.transaction - DEBUG - SEND: 0x0 0x3f 0x0 0x0 0x0 0x6 0x2 0x3 0x0 0x0 0x0 0x2
2022-07-25 17:47:31,668 pymodbus.client.sync - DEBUG - New Transaction state 'SENDING'
2022-07-25 17:47:31,668 pymodbus.transaction - DEBUG - Changing transaction state from 'SENDING' to 'WAITING FOR REPLY'
2022-07-25 17:47:31,682 pymodbus.transaction - DEBUG - Changing transaction state from 'WAITING FOR REPLY' to 'PROCESSING REPLY'
2022-07-25 17:47:31,682 pymodbus.transaction - DEBUG - RECV: 0x0 0x3f 0x0 0x0 0x0 0x7 0x2 0x3 0x4 0x0 0x0 0xff 0xfe
2022-07-25 17:47:31,682 pymodbus.framer.socket_framer - DEBUG - Processing: 0x0 0x3f 0x0 0x0 0x0 0x7 0x2 0x3 0x4 0x0 0x0 0xff 0xfe
2022-07-25 17:47:31,682 pymodbus.factory - DEBUG - Factory Response[ReadHoldingRegistersResponse: 3]
2022-07-25 17:47:31,683 pymodbus.transaction - DEBUG - Adding transaction 63
2022-07-25 17:47:31,683 pymodbus.transaction - DEBUG - Getting transaction 63
2022-07-25 17:47:31,683 pymodbus.transaction - DEBUG - Changing transaction state from 'PROCESSING REPLY' to 'TRANSACTION_COMPLETE'
2022-07-25 17:47:31,683 pymodbus.transaction - DEBUG - Current transaction state - TRANSACTION_COMPLETE
2022-07-25 17:47:31,683 pymodbus.transaction - DEBUG - Running transaction 64
2022-07-25 17:47:31,683 pymodbus.transaction - DEBUG - SEND: 0x0 0x40 0x0 0x0 0x0 0x6 0x2 0x3 0x0 0x2 0x0 0x2
2022-07-25 17:47:31,683 pymodbus.client.sync - DEBUG - New Transaction state 'SENDING'
2022-07-25 17:47:31,683 pymodbus.transaction - DEBUG - Changing transaction state from 'SENDING' to 'WAITING FOR REPLY'
2022-07-25 17:47:31,714 pymodbus.transaction - DEBUG - Changing transaction state from 'WAITING FOR REPLY' to 'PROCESSING REPLY'
2022-07-25 17:47:31,714 pymodbus.transaction - DEBUG - RECV: 0x0 0x40 0x0 0x0 0x0 0x7 0x2 0x3 0x4 0x0 0x0 0x0 0x50
2022-07-25 17:47:31,714 pymodbus.framer.socket_framer - DEBUG - Processing: 0x0 0x40 0x0 0x0 0x0 0x7 0x2 0x3 0x4 0x0 0x0 0x0 0x50
2022-07-25 17:47:31,715 pymodbus.factory - DEBUG - Factory Response[ReadHoldingRegistersResponse: 3]
2022-07-25 17:47:31,715 pymodbus.transaction - DEBUG - Adding transaction 64
2022-07-25 17:47:31,715 pymodbus.transaction - DEBUG - Getting transaction 64
2022-07-25 17:47:31,715 pymodbus.transaction - DEBUG - Changing transaction state from 'PROCESSING REPLY' to 'TRANSACTION_COMPLETE'
2022-07-25 17:47:31,715 pymodbus.transaction - DEBUG - Current transaction state - TRANSACTION_COMPLETE
2022-07-25 17:47:31,715 pymodbus.transaction - DEBUG - Running transaction 65
2022-07-25 17:47:31,715 pymodbus.transaction - DEBUG - SEND: 0x0 0x41 0x0 0x0 0x0 0x6 0x2 0x3 0x0 0x4 0x0 0x2
2022-07-25 17:47:31,715 pymodbus.client.sync - DEBUG - New Transaction state 'SENDING'
2022-07-25 17:47:31,715 pymodbus.transaction - DEBUG - Changing transaction state from 'SENDING' to 'WAITING FOR REPLY'
2022-07-25 17:47:31,745 pymodbus.transaction - DEBUG - Changing transaction state from 'WAITING FOR REPLY' to 'PROCESSING REPLY'
2022-07-25 17:47:31,745 pymodbus.transaction - DEBUG - RECV: 0x0 0x41 0x0 0x0 0x0 0x7 0x2 0x3 0x4 0x0 0x0 0x0 0x17
2022-07-25 17:47:31,745 pymodbus.framer.socket_framer - DEBUG - Processing: 0x0 0x41 0x0 0x0 0x0 0x7 0x2 0x3 0x4 0x0 0x0 0x0 0x17
2022-07-25 17:47:31,745 pymodbus.factory - DEBUG - Factory Response[ReadHoldingRegistersResponse: 3]
2022-07-25 17:47:31,745 pymodbus.transaction - DEBUG - Adding transaction 65
2022-07-25 17:47:31,745 pymodbus.transaction - DEBUG - Getting transaction 65
2022-07-25 17:47:31,745 pymodbus.transaction - DEBUG - Changing transaction state from 'PROCESSING REPLY' to 'TRANSACTION_COMPLETE'
2022-07-25 17:47:31,745 pymodbus.transaction - DEBUG - Current transaction state - TRANSACTION_COMPLETE
2022-07-25 17:47:31,745 pymodbus.transaction - DEBUG - Running transaction 66
2022-07-25 17:47:31,745 pymodbus.transaction - DEBUG - SEND: 0x0 0x42 0x0 0x0 0x0 0x6 0x2 0x3 0x0 0x6 0x0 0x2
2022-07-25 17:47:31,745 pymodbus.client.sync - DEBUG - New Transaction state 'SENDING'
2022-07-25 17:47:31,745 pymodbus.transaction - DEBUG - Changing transaction state from 'SENDING' to 'WAITING FOR REPLY'
2022-07-25 17:47:31,776 pymodbus.transaction - DEBUG - Changing transaction state from 'WAITING FOR REPLY' to 'PROCESSING REPLY'
2022-07-25 17:47:31,776 pymodbus.transaction - DEBUG - RECV: 0x0 0x42 0x0 0x0 0x0 0x7 0x2 0x3 0x4 0x0 0x0 0x0 0x4
2022-07-25 17:47:31,776 pymodbus.framer.socket_framer - DEBUG - Processing: 0x0 0x42 0x0 0x0 0x0 0x7 0x2 0x3 0x4 0x0 0x0 0x0 0x4
2022-07-25 17:47:31,776 pymodbus.factory - DEBUG - Factory Response[ReadHoldingRegistersResponse: 3]
2022-07-25 17:47:31,776 pymodbus.transaction - DEBUG - Adding transaction 66
2022-07-25 17:47:31,777 pymodbus.transaction - DEBUG - Getting transaction 66
2022-07-25 17:47:31,777 pymodbus.transaction - DEBUG - Changing transaction state from 'PROCESSING REPLY' to 'TRANSACTION_COMPLETE'
2022-07-25 17:47:31,777 pymodbus.transaction - DEBUG - Current transaction state - TRANSACTION_COMPLETE
2022-07-25 17:47:31,777 pymodbus.transaction - DEBUG - Running transaction 67
2022-07-25 17:47:31,777 pymodbus.transaction - DEBUG - SEND: 0x0 0x43 0x0 0x0 0x0 0x6 0x2 0x3 0x0 0xc 0x0 0x2
2022-07-25 17:47:31,777 pymodbus.client.sync - DEBUG - New Transaction state 'SENDING'
2022-07-25 17:47:31,777 pymodbus.transaction - DEBUG - Changing transaction state from 'SENDING' to 'WAITING FOR REPLY'
2022-07-25 17:47:31,808 pymodbus.transaction - DEBUG - Changing transaction state from 'WAITING FOR REPLY' to 'PROCESSING REPLY'
2022-07-25 17:47:31,808 pymodbus.transaction - DEBUG - RECV: 0x0 0x43 0x0 0x0 0x0 0x7 0x2 0x3 0x4 0x0 0x0 0x0 0x0
2022-07-25 17:47:31,808 pymodbus.framer.socket_framer - DEBUG - Processing: 0x0 0x43 0x0 0x0 0x0 0x7 0x2 0x3 0x4 0x0 0x0 0x0 0x0
2022-07-25 17:47:31,809 pymodbus.factory - DEBUG - Factory Response[ReadHoldingRegistersResponse: 3]
2022-07-25 17:47:31,809 pymodbus.transaction - DEBUG - Adding transaction 67
2022-07-25 17:47:31,809 pymodbus.transaction - DEBUG - Getting transaction 67
2022-07-25 17:47:31,809 pymodbus.transaction - DEBUG - Changing transaction state from 'PROCESSING REPLY' to 'TRANSACTION_COMPLETE'
2022-07-25 17:47:31,809 pymodbus.transaction - DEBUG - Current transaction state - TRANSACTION_COMPLETE
2022-07-25 17:47:31,809 pymodbus.transaction - DEBUG - Running transaction 68
2022-07-25 17:47:31,809 pymodbus.transaction - DEBUG - SEND: 0x0 0x44 0x0 0x0 0x0 0x6 0x2 0x3 0x0 0xe 0x0 0x2
2022-07-25 17:47:31,809 pymodbus.client.sync - DEBUG - New Transaction state 'SENDING'
2022-07-25 17:47:31,809 pymodbus.transaction - DEBUG - Changing transaction state from 'SENDING' to 'WAITING FOR REPLY'
2022-07-25 17:47:31,838 pymodbus.transaction - DEBUG - Changing transaction state from 'WAITING FOR REPLY' to 'PROCESSING REPLY'
2022-07-25 17:47:31,838 pymodbus.transaction - DEBUG - RECV: 0x0 0x44 0x0 0x0 0x0 0x7 0x2 0x3 0x4 0x0 0x0 0x0 0x0
2022-07-25 17:47:31,839 pymodbus.framer.socket_framer - DEBUG - Processing: 0x0 0x44 0x0 0x0 0x0 0x7 0x2 0x3 0x4 0x0 0x0 0x0 0x0
2022-07-25 17:47:31,839 pymodbus.factory - DEBUG - Factory Response[ReadHoldingRegistersResponse: 3]
2022-07-25 17:47:31,839 pymodbus.transaction - DEBUG - Adding transaction 68
2022-07-25 17:47:31,839 pymodbus.transaction - DEBUG - Getting transaction 68
2022-07-25 17:47:31,839 pymodbus.transaction - DEBUG - Changing transaction state from 'PROCESSING REPLY' to 'TRANSACTION_COMPLETE'
2022-07-25 17:47:31,839 pymodbus.transaction - DEBUG - Current transaction state - TRANSACTION_COMPLETE
2022-07-25 17:47:31,839 pymodbus.transaction - DEBUG - Running transaction 69
2022-07-25 17:47:31,839 pymodbus.transaction - DEBUG - SEND: 0x0 0x45 0x0 0x0 0x0 0x6 0x2 0x3 0x0 0x10 0x0 0x2
2022-07-25 17:47:31,839 pymodbus.client.sync - DEBUG - New Transaction state 'SENDING'
2022-07-25 17:47:31,839 pymodbus.transaction - DEBUG - Changing transaction state from 'SENDING' to 'WAITING FOR REPLY'
2022-07-25 17:47:31,870 pymodbus.transaction - DEBUG - Changing transaction state from 'WAITING FOR REPLY' to 'PROCESSING REPLY'
2022-07-25 17:47:31,870 pymodbus.transaction - DEBUG - RECV: 0x0 0x45 0x0 0x0 0x0 0x7 0x2 0x3 0x4 0x0 0x0 0x0 0x0
2022-07-25 17:47:31,871 pymodbus.framer.socket_framer - DEBUG - Processing: 0x0 0x45 0x0 0x0 0x0 0x7 0x2 0x3 0x4 0x0 0x0 0x0 0x0
2022-07-25 17:47:31,871 pymodbus.factory - DEBUG - Factory Response[ReadHoldingRegistersResponse: 3]
2022-07-25 17:47:31,871 pymodbus.transaction - DEBUG - Adding transaction 69
2022-07-25 17:47:31,871 pymodbus.transaction - DEBUG - Getting transaction 69
2022-07-25 17:47:31,871 pymodbus.transaction - DEBUG - Changing transaction state from 'PROCESSING REPLY' to 'TRANSACTION_COMPLETE'
2022-07-25 17:47:31,871 pymodbus.transaction - DEBUG - Current transaction state - TRANSACTION_COMPLETE
2022-07-25 17:47:31,871 pymodbus.transaction - DEBUG - Running transaction 70
2022-07-25 17:47:31,871 pymodbus.transaction - DEBUG - SEND: 0x0 0x46 0x0 0x0 0x0 0x6 0x2 0x3 0x0 0x12 0x0 0x2
2022-07-25 17:47:31,871 pymodbus.client.sync - DEBUG - New Transaction state 'SENDING'
2022-07-25 17:47:31,871 pymodbus.transaction - DEBUG - Changing transaction state from 'SENDING' to 'WAITING FOR REPLY'
2022-07-25 17:47:31,901 pymodbus.transaction - DEBUG - Changing transaction state from 'WAITING FOR REPLY' to 'PROCESSING REPLY'
2022-07-25 17:47:31,901 pymodbus.transaction - DEBUG - RECV: 0x0 0x46 0x0 0x0 0x0 0x7 0x2 0x3 0x4 0x0 0x0 0xff 0xfe
2022-07-25 17:47:31,902 pymodbus.framer.socket_framer - DEBUG - Processing: 0x0 0x46 0x0 0x0 0x0 0x7 0x2 0x3 0x4 0x0 0x0 0xff 0xfe
2022-07-25 17:47:31,902 pymodbus.factory - DEBUG - Factory Response[ReadHoldingRegistersResponse: 3]
2022-07-25 17:47:31,902 pymodbus.transaction - DEBUG - Adding transaction 70
2022-07-25 17:47:31,902 pymodbus.transaction - DEBUG - Getting transaction 70
2022-07-25 17:47:31,902 pymodbus.transaction - DEBUG - Changing transaction state from 'PROCESSING REPLY' to 'TRANSACTION_COMPLETE'
2022-07-25 17:47:31,902 pymodbus.transaction - DEBUG - Current transaction state - TRANSACTION_COMPLETE
2022-07-25 17:47:31,902 pymodbus.transaction - DEBUG - Running transaction 71
2022-07-25 17:47:31,902 pymodbus.transaction - DEBUG - SEND: 0x0 0x47 0x0 0x0 0x0 0x6 0x2 0x3 0x0 0x14 0x0 0x2
2022-07-25 17:47:31,902 pymodbus.client.sync - DEBUG - New Transaction state 'SENDING'
2022-07-25 17:47:31,902 pymodbus.transaction - DEBUG - Changing transaction state from 'SENDING' to 'WAITING FOR REPLY'
2022-07-25 17:47:31,933 pymodbus.transaction - DEBUG - Changing transaction state from 'WAITING FOR REPLY' to 'PROCESSING REPLY'
2022-07-25 17:47:31,933 pymodbus.transaction - DEBUG - RECV: 0x0 0x47 0x0 0x0 0x0 0x7 0x2 0x3 0x4 0x0 0x0 0x0 0x0
2022-07-25 17:47:31,933 pymodbus.framer.socket_framer - DEBUG - Processing: 0x0 0x47 0x0 0x0 0x0 0x7 0x2 0x3 0x4 0x0 0x0 0x0 0x0
2022-07-25 17:47:31,934 pymodbus.factory - DEBUG - Factory Response[ReadHoldingRegistersResponse: 3]
2022-07-25 17:47:31,934 pymodbus.transaction - DEBUG - Adding transaction 71
2022-07-25 17:47:31,934 pymodbus.transaction - DEBUG - Getting transaction 71
2022-07-25 17:47:31,934 pymodbus.transaction - DEBUG - Changing transaction state from 'PROCESSING REPLY' to 'TRANSACTION_COMPLETE'
2022-07-25 17:47:31,934 pymodbus.transaction - DEBUG - Current transaction state - TRANSACTION_COMPLETE
2022-07-25 17:47:31,934 pymodbus.transaction - DEBUG - Running transaction 72
2022-07-25 17:47:31,934 pymodbus.transaction - DEBUG - SEND: 0x0 0x48 0x0 0x0 0x0 0x6 0x2 0x3 0x0 0x16 0x0 0x2
2022-07-25 17:47:31,934 pymodbus.client.sync - DEBUG - New Transaction state 'SENDING'
2022-07-25 17:47:31,934 pymodbus.transaction - DEBUG - Changing transaction state from 'SENDING' to 'WAITING FOR REPLY'
2022-07-25 17:47:31,964 pymodbus.transaction - DEBUG - Changing transaction state from 'WAITING FOR REPLY' to 'PROCESSING REPLY'
2022-07-25 17:47:31,965 pymodbus.transaction - DEBUG - RECV: 0x0 0x48 0x0 0x0 0x0 0x7 0x2 0x3 0x4 0x0 0x0 0x0 0x0
2022-07-25 17:47:31,965 pymodbus.framer.socket_framer - DEBUG - Processing: 0x0 0x48 0x0 0x0 0x0 0x7 0x2 0x3 0x4 0x0 0x0 0x0 0x0
2022-07-25 17:47:31,965 pymodbus.factory - DEBUG - Factory Response[ReadHoldingRegistersResponse: 3]
2022-07-25 17:47:31,965 pymodbus.transaction - DEBUG - Adding transaction 72
2022-07-25 17:47:31,965 pymodbus.transaction - DEBUG - Getting transaction 72
2022-07-25 17:47:31,965 pymodbus.transaction - DEBUG - Changing transaction state from 'PROCESSING REPLY' to 'TRANSACTION_COMPLETE'
2022-07-25 17:47:31,965 pymodbus.transaction - DEBUG - Current transaction state - TRANSACTION_COMPLETE
2022-07-25 17:47:31,965 pymodbus.transaction - DEBUG - Running transaction 73
2022-07-25 17:47:31,965 pymodbus.transaction - DEBUG - SEND: 0x0 0x49 0x0 0x0 0x0 0x6 0x2 0x3 0x0 0x18 0x0 0x2
2022-07-25 17:47:31,965 pymodbus.client.sync - DEBUG - New Transaction state 'SENDING'
2022-07-25 17:47:31,965 pymodbus.transaction - DEBUG - Changing transaction state from 'SENDING' to 'WAITING FOR REPLY'
2022-07-25 17:47:31,995 pymodbus.transaction - DEBUG - Changing transaction state from 'WAITING FOR REPLY' to 'PROCESSING REPLY'
2022-07-25 17:47:31,996 pymodbus.transaction - DEBUG - RECV: 0x0 0x49 0x0 0x0 0x0 0x7 0x2 0x3 0x4 0x0 0x0 0x0 0x0
2022-07-25 17:47:31,996 pymodbus.framer.socket_framer - DEBUG - Processing: 0x0 0x49 0x0 0x0 0x0 0x7 0x2 0x3 0x4 0x0 0x0 0x0 0x0
2022-07-25 17:47:31,996 pymodbus.factory - DEBUG - Factory Response[ReadHoldingRegistersResponse: 3]
2022-07-25 17:47:31,996 pymodbus.transaction - DEBUG - Adding transaction 73
2022-07-25 17:47:31,996 pymodbus.transaction - DEBUG - Getting transaction 73
2022-07-25 17:47:31,996 pymodbus.transaction - DEBUG - Changing transaction state from 'PROCESSING REPLY' to 'TRANSACTION_COMPLETE'
2022-07-25 17:47:31,996 pymodbus.transaction - DEBUG - Current transaction state - TRANSACTION_COMPLETE
2022-07-25 17:47:31,996 pymodbus.transaction - DEBUG - Running transaction 74
2022-07-25 17:47:31,996 pymodbus.transaction - DEBUG - SEND: 0x0 0x4a 0x0 0x0 0x0 0x6 0x2 0x3 0x0 0x1a 0x0 0x2
2022-07-25 17:47:31,996 pymodbus.client.sync - DEBUG - New Transaction state 'SENDING'
2022-07-25 17:47:31,996 pymodbus.transaction - DEBUG - Changing transaction state from 'SENDING' to 'WAITING FOR REPLY'
2022-07-25 17:47:32,027 pymodbus.transaction - DEBUG - Changing transaction state from 'WAITING FOR REPLY' to 'PROCESSING REPLY'
2022-07-25 17:47:32,027 pymodbus.transaction - DEBUG - RECV: 0x0 0x4a 0x0 0x0 0x0 0x7 0x2 0x3 0x4 0x0 0x0 0x0 0x0
2022-07-25 17:47:32,027 pymodbus.framer.socket_framer - DEBUG - Processing: 0x0 0x4a 0x0 0x0 0x0 0x7 0x2 0x3 0x4 0x0 0x0 0x0 0x0
2022-07-25 17:47:32,027 pymodbus.factory - DEBUG - Factory Response[ReadHoldingRegistersResponse: 3]
2022-07-25 17:47:32,027 pymodbus.transaction - DEBUG - Adding transaction 74
2022-07-25 17:47:32,027 pymodbus.transaction - DEBUG - Getting transaction 74
2022-07-25 17:47:32,027 pymodbus.transaction - DEBUG - Changing transaction state from 'PROCESSING REPLY' to 'TRANSACTION_COMPLETE'
2022-07-25 17:47:32,028 pymodbus.transaction - DEBUG - Current transaction state - TRANSACTION_COMPLETE
2022-07-25 17:47:32,028 pymodbus.transaction - DEBUG - Running transaction 75
2022-07-25 17:47:32,028 pymodbus.transaction - DEBUG - SEND: 0x0 0x4b 0x0 0x0 0x0 0x6 0x2 0x3 0x0 0x1c 0x0 0x2
2022-07-25 17:47:32,028 pymodbus.client.sync - DEBUG - New Transaction state 'SENDING'
2022-07-25 17:47:32,028 pymodbus.transaction - DEBUG - Changing transaction state from 'SENDING' to 'WAITING FOR REPLY'
2022-07-25 17:47:32,058 pymodbus.transaction - DEBUG - Changing transaction state from 'WAITING FOR REPLY' to 'PROCESSING REPLY'
2022-07-25 17:47:32,058 pymodbus.transaction - DEBUG - RECV: 0x0 0x4b 0x0 0x0 0x0 0x7 0x2 0x3 0x4 0x0 0x0 0x0 0x0
2022-07-25 17:47:32,059 pymodbus.framer.socket_framer - DEBUG - Processing: 0x0 0x4b 0x0 0x0 0x0 0x7 0x2 0x3 0x4 0x0 0x0 0x0 0x0
2022-07-25 17:47:32,059 pymodbus.factory - DEBUG - Factory Response[ReadHoldingRegistersResponse: 3]
2022-07-25 17:47:32,059 pymodbus.transaction - DEBUG - Adding transaction 75
2022-07-25 17:47:32,059 pymodbus.transaction - DEBUG - Getting transaction 75
2022-07-25 17:47:32,059 pymodbus.transaction - DEBUG - Changing transaction state from 'PROCESSING REPLY' to 'TRANSACTION_COMPLETE'
2022-07-25 17:47:32,059 pymodbus.transaction - DEBUG - Current transaction state - TRANSACTION_COMPLETE
2022-07-25 17:47:32,059 pymodbus.transaction - DEBUG - Running transaction 76
2022-07-25 17:47:32,059 pymodbus.transaction - DEBUG - SEND: 0x0 0x4c 0x0 0x0 0x0 0x6 0x2 0x3 0x0 0x1e 0x0 0x2
2022-07-25 17:47:32,060 pymodbus.client.sync - DEBUG - New Transaction state 'SENDING'
2022-07-25 17:47:32,060 pymodbus.transaction - DEBUG - Changing transaction state from 'SENDING' to 'WAITING FOR REPLY'
2022-07-25 17:47:32,090 pymodbus.transaction - DEBUG - Changing transaction state from 'WAITING FOR REPLY' to 'PROCESSING REPLY'
2022-07-25 17:47:32,090 pymodbus.transaction - DEBUG - RECV: 0x0 0x4c 0x0 0x0 0x0 0x7 0x2 0x3 0x4 0x0 0x0 0x0 0x0
2022-07-25 17:47:32,090 pymodbus.framer.socket_framer - DEBUG - Processing: 0x0 0x4c 0x0 0x0 0x0 0x7 0x2 0x3 0x4 0x0 0x0 0x0 0x0
2022-07-25 17:47:32,090 pymodbus.factory - DEBUG - Factory Response[ReadHoldingRegistersResponse: 3]
2022-07-25 17:47:32,090 pymodbus.transaction - DEBUG - Adding transaction 76
2022-07-25 17:47:32,090 pymodbus.transaction - DEBUG - Getting transaction 76
2022-07-25 17:47:32,090 pymodbus.transaction - DEBUG - Changing transaction state from 'PROCESSING REPLY' to 'TRANSACTION_COMPLETE'
2022-07-25 17:47:32,090 pymodbus.transaction - DEBUG - Current transaction state - TRANSACTION_COMPLETE
2022-07-25 17:47:32,090 pymodbus.transaction - DEBUG - Running transaction 77
2022-07-25 17:47:32,091 pymodbus.transaction - DEBUG - SEND: 0x0 0x4d 0x0 0x0 0x0 0x6 0x2 0x3 0x0 0x20 0x0 0x2
2022-07-25 17:47:32,091 pymodbus.client.sync - DEBUG - New Transaction state 'SENDING'
2022-07-25 17:47:32,091 pymodbus.transaction - DEBUG - Changing transaction state from 'SENDING' to 'WAITING FOR REPLY'
2022-07-25 17:47:32,120 pymodbus.transaction - DEBUG - Changing transaction state from 'WAITING FOR REPLY' to 'PROCESSING REPLY'
