2022-07-22 11:47:34,909 log1 - DEBUG - Connecting to Modbus...
2022-07-22 11:47:34,910 pymodbus.client.sync - DEBUG - Connection to Modbus server established. Socket ('192.168.1.36', 56487)
2022-07-22 11:47:34,911 root - DEBUG - True
2022-07-22 11:47:34,911 log1 - DEBUG - Modbus Connection Status: True
2022-07-22 11:47:34,911 root - DEBUG - Reading Registers
2022-07-22 11:47:34,911 log1 - DEBUG - Reading Registers
2022-07-22 11:47:34,912 pymodbus.transaction - DEBUG - Current transaction state - IDLE
2022-07-22 11:47:34,912 pymodbus.transaction - DEBUG - Running transaction 1
2022-07-22 11:47:34,912 pymodbus.transaction - DEBUG - SEND: 0x0 0x1 0x0 0x0 0x0 0x6 0x2 0x3 0x0 0x0 0x0 0x2
2022-07-22 11:47:34,912 pymodbus.client.sync - DEBUG - New Transaction state 'SENDING'
2022-07-22 11:47:34,912 pymodbus.transaction - DEBUG - Changing transaction state from 'SENDING' to 'WAITING FOR REPLY'
2022-07-22 11:47:34,945 pymodbus.transaction - DEBUG - Changing transaction state from 'WAITING FOR REPLY' to 'PROCESSING REPLY'
2022-07-22 11:47:34,946 pymodbus.transaction - DEBUG - RECV: 0x0 0x1 0x0 0x0 0x0 0x7 0x2 0x3 0x4 0x0 0x1 0x0 0x1
2022-07-22 11:47:34,946 pymodbus.framer.socket_framer - DEBUG - Processing: 0x0 0x1 0x0 0x0 0x0 0x7 0x2 0x3 0x4 0x0 0x1 0x0 0x1
2022-07-22 11:47:34,946 pymodbus.factory - DEBUG - Factory Response[ReadHoldingRegistersResponse: 3]
2022-07-22 11:47:34,946 pymodbus.transaction - DEBUG - Adding transaction 1
2022-07-22 11:47:34,946 pymodbus.transaction - DEBUG - Getting transaction 1
2022-07-22 11:47:34,946 pymodbus.transaction - DEBUG - Changing transaction state from 'PROCESSING REPLY' to 'TRANSACTION_COMPLETE'
2022-07-22 11:47:34,946 pymodbus.transaction - DEBUG - Current transaction state - TRANSACTION_COMPLETE
2022-07-22 11:47:34,946 pymodbus.transaction - DEBUG - Running transaction 2
2022-07-22 11:47:34,946 pymodbus.transaction - DEBUG - SEND: 0x0 0x2 0x0 0x0 0x0 0x6 0x2 0x3 0x0 0x2 0x0 0x2
2022-07-22 11:47:34,946 pymodbus.client.sync - DEBUG - New Transaction state 'SENDING'
2022-07-22 11:47:34,946 pymodbus.transaction - DEBUG - Changing transaction state from 'SENDING' to 'WAITING FOR REPLY'
2022-07-22 11:47:34,977 pymodbus.transaction - DEBUG - Changing transaction state from 'WAITING FOR REPLY' to 'PROCESSING REPLY'
2022-07-22 11:47:34,977 pymodbus.transaction - DEBUG - RECV: 0x0 0x2 0x0 0x0 0x0 0x7 0x2 0x3 0x4 0x0 0x0 0x0 0x50
2022-07-22 11:47:34,977 pymodbus.framer.socket_framer - DEBUG - Processing: 0x0 0x2 0x0 0x0 0x0 0x7 0x2 0x3 0x4 0x0 0x0 0x0 0x50
2022-07-22 11:47:34,977 pymodbus.factory - DEBUG - Factory Response[ReadHoldingRegistersResponse: 3]
2022-07-22 11:47:34,977 pymodbus.transaction - DEBUG - Adding transaction 2
2022-07-22 11:47:34,977 pymodbus.transaction - DEBUG - Getting transaction 2
2022-07-22 11:47:34,977 pymodbus.transaction - DEBUG - Changing transaction state from 'PROCESSING REPLY' to 'TRANSACTION_COMPLETE'
2022-07-22 11:47:34,977 pymodbus.transaction - DEBUG - Current transaction state - TRANSACTION_COMPLETE
2022-07-22 11:47:34,977 pymodbus.transaction - DEBUG - Running transaction 3
2022-07-22 11:47:34,977 pymodbus.transaction - DEBUG - SEND: 0x0 0x3 0x0 0x0 0x0 0x6 0x2 0x3 0x0 0x4 0x0 0x2
2022-07-22 11:47:34,977 pymodbus.client.sync - DEBUG - New Transaction state 'SENDING'
2022-07-22 11:47:34,978 pymodbus.transaction - DEBUG - Changing transaction state from 'SENDING' to 'WAITING FOR REPLY'
2022-07-22 11:47:35,008 pymodbus.transaction - DEBUG - Changing transaction state from 'WAITING FOR REPLY' to 'PROCESSING REPLY'
2022-07-22 11:47:35,008 pymodbus.transaction - DEBUG - RECV: 0x0 0x3 0x0 0x0 0x0 0x7 0x2 0x3 0x4 0x0 0x0 0x0 0x17
2022-07-22 11:47:35,008 pymodbus.framer.socket_framer - DEBUG - Processing: 0x0 0x3 0x0 0x0 0x0 0x7 0x2 0x3 0x4 0x0 0x0 0x0 0x17
2022-07-22 11:47:35,009 pymodbus.factory - DEBUG - Factory Response[ReadHoldingRegistersResponse: 3]
2022-07-22 11:47:35,009 pymodbus.transaction - DEBUG - Adding transaction 3
2022-07-22 11:47:35,009 pymodbus.transaction - DEBUG - Getting transaction 3
2022-07-22 11:47:35,009 pymodbus.transaction - DEBUG - Changing transaction state from 'PROCESSING REPLY' to 'TRANSACTION_COMPLETE'
2022-07-22 11:47:35,009 pymodbus.transaction - DEBUG - Current transaction state - TRANSACTION_COMPLETE
2022-07-22 11:47:35,009 pymodbus.transaction - DEBUG - Running transaction 4
2022-07-22 11:47:35,009 pymodbus.transaction - DEBUG - SEND: 0x0 0x4 0x0 0x0 0x0 0x6 0x2 0x3 0x0 0x6 0x0 0x2
2022-07-22 11:47:35,009 pymodbus.client.sync - DEBUG - New Transaction state 'SENDING'
2022-07-22 11:47:35,009 pymodbus.transaction - DEBUG - Changing transaction state from 'SENDING' to 'WAITING FOR REPLY'
2022-07-22 11:47:35,039 pymodbus.transaction - DEBUG - Changing transaction state from 'WAITING FOR REPLY' to 'PROCESSING REPLY'
2022-07-22 11:47:35,039 pymodbus.transaction - DEBUG - RECV: 0x0 0x4 0x0 0x0 0x0 0x7 0x2 0x3 0x4 0x0 0x0 0x0 0x4
2022-07-22 11:47:35,039 pymodbus.framer.socket_framer - DEBUG - Processing: 0x0 0x4 0x0 0x0 0x0 0x7 0x2 0x3 0x4 0x0 0x0 0x0 0x4
2022-07-22 11:47:35,040 pymodbus.factory - DEBUG - Factory Response[ReadHoldingRegistersResponse: 3]
2022-07-22 11:47:35,040 pymodbus.transaction - DEBUG - Adding transaction 4
2022-07-22 11:47:35,040 pymodbus.transaction - DEBUG - Getting transaction 4
2022-07-22 11:47:35,040 pymodbus.transaction - DEBUG - Changing transaction state from 'PROCESSING REPLY' to 'TRANSACTION_COMPLETE'
2022-07-22 11:47:35,040 pymodbus.transaction - DEBUG - Current transaction state - TRANSACTION_COMPLETE
2022-07-22 11:47:35,040 pymodbus.transaction - DEBUG - Running transaction 5
2022-07-22 11:47:35,040 pymodbus.transaction - DEBUG - SEND: 0x0 0x5 0x0 0x0 0x0 0x6 0x2 0x3 0x0 0xc 0x0 0x2
2022-07-22 11:47:35,041 pymodbus.client.sync - DEBUG - New Transaction state 'SENDING'
2022-07-22 11:47:35,041 pymodbus.transaction - DEBUG - Changing transaction state from 'SENDING' to 'WAITING FOR REPLY'
2022-07-22 11:47:35,070 pymodbus.transaction - DEBUG - Changing transaction state from 'WAITING FOR REPLY' to 'PROCESSING REPLY'
2022-07-22 11:47:35,070 pymodbus.transaction - DEBUG - RECV: 0x0 0x5 0x0 0x0 0x0 0x7 0x2 0x3 0x4 0x0 0x0 0x0 0x0
2022-07-22 11:47:35,070 pymodbus.framer.socket_framer - DEBUG - Processing: 0x0 0x5 0x0 0x0 0x0 0x7 0x2 0x3 0x4 0x0 0x0 0x0 0x0
2022-07-22 11:47:35,070 pymodbus.factory - DEBUG - Factory Response[ReadHoldingRegistersResponse: 3]
2022-07-22 11:47:35,070 pymodbus.transaction - DEBUG - Adding transaction 5
2022-07-22 11:47:35,070 pymodbus.transaction - DEBUG - Getting transaction 5
2022-07-22 11:47:35,070 pymodbus.transaction - DEBUG - Changing transaction state from 'PROCESSING REPLY' to 'TRANSACTION_COMPLETE'
2022-07-22 11:47:35,071 pymodbus.transaction - DEBUG - Current transaction state - TRANSACTION_COMPLETE
2022-07-22 11:47:35,071 pymodbus.transaction - DEBUG - Running transaction 6
2022-07-22 11:47:35,071 pymodbus.transaction - DEBUG - SEND: 0x0 0x6 0x0 0x0 0x0 0x6 0x2 0x3 0x0 0xe 0x0 0x2
2022-07-22 11:47:35,071 pymodbus.client.sync - DEBUG - New Transaction state 'SENDING'
2022-07-22 11:47:35,071 pymodbus.transaction - DEBUG - Changing transaction state from 'SENDING' to 'WAITING FOR REPLY'
2022-07-22 11:47:35,100 pymodbus.transaction - DEBUG - Changing transaction state from 'WAITING FOR REPLY' to 'PROCESSING REPLY'
2022-07-22 11:47:35,100 pymodbus.transaction - DEBUG - RECV: 0x0 0x6 0x0 0x0 0x0 0x7 0x2 0x3 0x4 0x0 0x0 0x0 0x0
2022-07-22 11:47:35,100 pymodbus.framer.socket_framer - DEBUG - Processing: 0x0 0x6 0x0 0x0 0x0 0x7 0x2 0x3 0x4 0x0 0x0 0x0 0x0
2022-07-22 11:47:35,101 pymodbus.factory - DEBUG - Factory Response[ReadHoldingRegistersResponse: 3]
2022-07-22 11:47:35,101 pymodbus.transaction - DEBUG - Adding transaction 6
2022-07-22 11:47:35,101 pymodbus.transaction - DEBUG - Getting transaction 6
2022-07-22 11:47:35,101 pymodbus.transaction - DEBUG - Changing transaction state from 'PROCESSING REPLY' to 'TRANSACTION_COMPLETE'
2022-07-22 11:47:35,101 pymodbus.transaction - DEBUG - Current transaction state - TRANSACTION_COMPLETE
2022-07-22 11:47:35,101 pymodbus.transaction - DEBUG - Running transaction 7
2022-07-22 11:47:35,101 pymodbus.transaction - DEBUG - SEND: 0x0 0x7 0x0 0x0 0x0 0x6 0x2 0x3 0x0 0x10 0x0 0x2
2022-07-22 11:47:35,101 pymodbus.client.sync - DEBUG - New Transaction state 'SENDING'
2022-07-22 11:47:35,101 pymodbus.transaction - DEBUG - Changing transaction state from 'SENDING' to 'WAITING FOR REPLY'
2022-07-22 11:47:35,132 pymodbus.transaction - DEBUG - Changing transaction state from 'WAITING FOR REPLY' to 'PROCESSING REPLY'
2022-07-22 11:47:35,132 pymodbus.transaction - DEBUG - RECV: 0x0 0x7 0x0 0x0 0x0 0x7 0x2 0x3 0x4 0x0 0x0 0x0 0x0
2022-07-22 11:47:35,133 pymodbus.framer.socket_framer - DEBUG - Processing: 0x0 0x7 0x0 0x0 0x0 0x7 0x2 0x3 0x4 0x0 0x0 0x0 0x0
2022-07-22 11:47:35,133 pymodbus.factory - DEBUG - Factory Response[ReadHoldingRegistersResponse: 3]
2022-07-22 11:47:35,133 pymodbus.transaction - DEBUG - Adding transaction 7
2022-07-22 11:47:35,133 pymodbus.transaction - DEBUG - Getting transaction 7
2022-07-22 11:47:35,133 pymodbus.transaction - DEBUG - Changing transaction state from 'PROCESSING REPLY' to 'TRANSACTION_COMPLETE'
2022-07-22 11:47:35,133 pymodbus.transaction - DEBUG - Current transaction state - TRANSACTION_COMPLETE
2022-07-22 11:47:35,133 pymodbus.transaction - DEBUG - Running transaction 8
2022-07-22 11:47:35,133 pymodbus.transaction - DEBUG - SEND: 0x0 0x8 0x0 0x0 0x0 0x6 0x2 0x3 0x0 0x12 0x0 0x2
2022-07-22 11:47:35,133 pymodbus.client.sync - DEBUG - New Transaction state 'SENDING'
2022-07-22 11:47:35,133 pymodbus.transaction - DEBUG - Changing transaction state from 'SENDING' to 'WAITING FOR REPLY'
2022-07-22 11:47:35,163 pymodbus.transaction - DEBUG - Changing transaction state from 'WAITING FOR REPLY' to 'PROCESSING REPLY'
2022-07-22 11:47:35,163 pymodbus.transaction - DEBUG - RECV: 0x0 0x8 0x0 0x0 0x0 0x7 0x2 0x3 0x4 0x0 0x0 0x0 0x0
2022-07-22 11:47:35,163 pymodbus.framer.socket_framer - DEBUG - Processing: 0x0 0x8 0x0 0x0 0x0 0x7 0x2 0x3 0x4 0x0 0x0 0x0 0x0
2022-07-22 11:47:35,163 pymodbus.factory - DEBUG - Factory Response[ReadHoldingRegistersResponse: 3]
2022-07-22 11:47:35,164 pymodbus.transaction - DEBUG - Adding transaction 8
2022-07-22 11:47:35,164 pymodbus.transaction - DEBUG - Getting transaction 8
2022-07-22 11:47:35,164 pymodbus.transaction - DEBUG - Changing transaction state from 'PROCESSING REPLY' to 'TRANSACTION_COMPLETE'
2022-07-22 11:47:35,164 pymodbus.transaction - DEBUG - Current transaction state - TRANSACTION_COMPLETE
2022-07-22 11:47:35,164 pymodbus.transaction - DEBUG - Running transaction 9
2022-07-22 11:47:35,164 pymodbus.transaction - DEBUG - SEND: 0x0 0x9 0x0 0x0 0x0 0x6 0x2 0x3 0x0 0x14 0x0 0x2
2022-07-22 11:47:35,164 pymodbus.client.sync - DEBUG - New Transaction state 'SENDING'
2022-07-22 11:47:35,164 pymodbus.transaction - DEBUG - Changing transaction state from 'SENDING' to 'WAITING FOR REPLY'
2022-07-22 11:47:35,195 pymodbus.transaction - DEBUG - Changing transaction state from 'WAITING FOR REPLY' to 'PROCESSING REPLY'
2022-07-22 11:47:35,195 pymodbus.transaction - DEBUG - RECV: 0x0 0x9 0x0 0x0 0x0 0x7 0x2 0x3 0x4 0x0 0x0 0x0 0x0
2022-07-22 11:47:35,195 pymodbus.framer.socket_framer - DEBUG - Processing: 0x0 0x9 0x0 0x0 0x0 0x7 0x2 0x3 0x4 0x0 0x0 0x0 0x0
2022-07-22 11:47:35,195 pymodbus.factory - DEBUG - Factory Response[ReadHoldingRegistersResponse: 3]
2022-07-22 11:47:35,195 pymodbus.transaction - DEBUG - Adding transaction 9
2022-07-22 11:47:35,195 pymodbus.transaction - DEBUG - Getting transaction 9
2022-07-22 11:47:35,196 pymodbus.transaction - DEBUG - Changing transaction state from 'PROCESSING REPLY' to 'TRANSACTION_COMPLETE'
2022-07-22 11:47:35,196 pymodbus.transaction - DEBUG - Current transaction state - TRANSACTION_COMPLETE
2022-07-22 11:47:35,196 pymodbus.transaction - DEBUG - Running transaction 10
2022-07-22 11:47:35,196 pymodbus.transaction - DEBUG - SEND: 0x0 0xa 0x0 0x0 0x0 0x6 0x2 0x3 0x0 0x16 0x0 0x2
2022-07-22 11:47:35,196 pymodbus.client.sync - DEBUG - New Transaction state 'SENDING'
2022-07-22 11:47:35,196 pymodbus.transaction - DEBUG - Changing transaction state from 'SENDING' to 'WAITING FOR REPLY'
2022-07-22 11:47:35,226 pymodbus.transaction - DEBUG - Changing transaction state from 'WAITING FOR REPLY' to 'PROCESSING REPLY'
2022-07-22 11:47:35,226 pymodbus.transaction - DEBUG - RECV: 0x0 0xa 0x0 0x0 0x0 0x7 0x2 0x3 0x4 0x0 0x0 0x0 0x0
2022-07-22 11:47:35,226 pymodbus.framer.socket_framer - DEBUG - Processing: 0x0 0xa 0x0 0x0 0x0 0x7 0x2 0x3 0x4 0x0 0x0 0x0 0x0
2022-07-22 11:47:35,226 pymodbus.factory - DEBUG - Factory Response[ReadHoldingRegistersResponse: 3]
2022-07-22 11:47:35,227 pymodbus.transaction - DEBUG - Adding transaction 10
2022-07-22 11:47:35,227 pymodbus.transaction - DEBUG - Getting transaction 10
2022-07-22 11:47:35,227 pymodbus.transaction - DEBUG - Changing transaction state from 'PROCESSING REPLY' to 'TRANSACTION_COMPLETE'
2022-07-22 11:47:35,227 pymodbus.transaction - DEBUG - Current transaction state - TRANSACTION_COMPLETE
2022-07-22 11:47:35,227 pymodbus.transaction - DEBUG - Running transaction 11
2022-07-22 11:47:35,227 pymodbus.transaction - DEBUG - SEND: 0x0 0xb 0x0 0x0 0x0 0x6 0x2 0x3 0x0 0x18 0x0 0x2
2022-07-22 11:47:35,227 pymodbus.client.sync - DEBUG - New Transaction state 'SENDING'
2022-07-22 11:47:35,227 pymodbus.transaction - DEBUG - Changing transaction state from 'SENDING' to 'WAITING FOR REPLY'
2022-07-22 11:47:35,257 pymodbus.transaction - DEBUG - Changing transaction state from 'WAITING FOR REPLY' to 'PROCESSING REPLY'
2022-07-22 11:47:35,257 pymodbus.transaction - DEBUG - RECV: 0x0 0xb 0x0 0x0 0x0 0x7 0x2 0x3 0x4 0x0 0x0 0x0 0x0
2022-07-22 11:47:35,258 pymodbus.framer.socket_framer - DEBUG - Processing: 0x0 0xb 0x0 0x0 0x0 0x7 0x2 0x3 0x4 0x0 0x0 0x0 0x0
2022-07-22 11:47:35,258 pymodbus.factory - DEBUG - Factory Response[ReadHoldingRegistersResponse: 3]
2022-07-22 11:47:35,258 pymodbus.transaction - DEBUG - Adding transaction 11
2022-07-22 11:47:35,258 pymodbus.transaction - DEBUG - Getting transaction 11
2022-07-22 11:47:35,258 pymodbus.transaction - DEBUG - Changing transaction state from 'PROCESSING REPLY' to 'TRANSACTION_COMPLETE'
2022-07-22 11:47:35,258 pymodbus.transaction - DEBUG - Current transaction state - TRANSACTION_COMPLETE
2022-07-22 11:47:35,258 pymodbus.transaction - DEBUG - Running transaction 12
2022-07-22 11:47:35,258 pymodbus.transaction - DEBUG - SEND: 0x0 0xc 0x0 0x0 0x0 0x6 0x2 0x3 0x0 0x1a 0x0 0x2
2022-07-22 11:47:35,258 pymodbus.client.sync - DEBUG - New Transaction state 'SENDING'
2022-07-22 11:47:35,259 pymodbus.transaction - DEBUG - Changing transaction state from 'SENDING' to 'WAITING FOR REPLY'
2022-07-22 11:47:35,289 pymodbus.transaction - DEBUG - Changing transaction state from 'WAITING FOR REPLY' to 'PROCESSING REPLY'
2022-07-22 11:47:35,290 pymodbus.transaction - DEBUG - RECV: 0x0 0xc 0x0 0x0 0x0 0x7 0x2 0x3 0x4 0x0 0x0 0x0 0x0
2022-07-22 11:47:35,290 pymodbus.framer.socket_framer - DEBUG - Processing: 0x0 0xc 0x0 0x0 0x0 0x7 0x2 0x3 0x4 0x0 0x0 0x0 0x0
2022-07-22 11:47:35,290 pymodbus.factory - DEBUG - Factory Response[ReadHoldingRegistersResponse: 3]
2022-07-22 11:47:35,290 pymodbus.transaction - DEBUG - Adding transaction 12
2022-07-22 11:47:35,290 pymodbus.transaction - DEBUG - Getting transaction 12
2022-07-22 11:47:35,290 pymodbus.transaction - DEBUG - Changing transaction state from 'PROCESSING REPLY' to 'TRANSACTION_COMPLETE'
2022-07-22 11:47:35,290 pymodbus.transaction - DEBUG - Current transaction state - TRANSACTION_COMPLETE
2022-07-22 11:47:35,290 pymodbus.transaction - DEBUG - Running transaction 13
2022-07-22 11:47:35,290 pymodbus.transaction - DEBUG - SEND: 0x0 0xd 0x0 0x0 0x0 0x6 0x2 0x3 0x0 0x1c 0x0 0x2
2022-07-22 11:47:35,291 pymodbus.client.sync - DEBUG - New Transaction state 'SENDING'
2022-07-22 11:47:35,291 pymodbus.transaction - DEBUG - Changing transaction state from 'SENDING' to 'WAITING FOR REPLY'
2022-07-22 11:47:35,320 pymodbus.transaction - DEBUG - Changing transaction state from 'WAITING FOR REPLY' to 'PROCESSING REPLY'
2022-07-22 11:47:35,320 pymodbus.transaction - DEBUG - RECV: 0x0 0xd 0x0 0x0 0x0 0x7 0x2 0x3 0x4 0x0 0x0 0x0 0x0
2022-07-22 11:47:35,320 pymodbus.framer.socket_framer - DEBUG - Processing: 0x0 0xd 0x0 0x0 0x0 0x7 0x2 0x3 0x4 0x0 0x0 0x0 0x0
2022-07-22 11:47:35,320 pymodbus.factory - DEBUG - Factory Response[ReadHoldingRegistersResponse: 3]
2022-07-22 11:47:35,320 pymodbus.transaction - DEBUG - Adding transaction 13
2022-07-22 11:47:35,321 pymodbus.transaction - DEBUG - Getting transaction 13
2022-07-22 11:47:35,321 pymodbus.transaction - DEBUG - Changing transaction state from 'PROCESSING REPLY' to 'TRANSACTION_COMPLETE'
2022-07-22 11:47:35,321 pymodbus.transaction - DEBUG - Current transaction state - TRANSACTION_COMPLETE
2022-07-22 11:47:35,321 pymodbus.transaction - DEBUG - Running transaction 14
2022-07-22 11:47:35,321 pymodbus.transaction - DEBUG - SEND: 0x0 0xe 0x0 0x0 0x0 0x6 0x2 0x3 0x0 0x1e 0x0 0x2
2022-07-22 11:47:35,321 pymodbus.client.sync - DEBUG - New Transaction state 'SENDING'
2022-07-22 11:47:35,321 pymodbus.transaction - DEBUG - Changing transaction state from 'SENDING' to 'WAITING FOR REPLY'
2022-07-22 11:47:35,350 pymodbus.transaction - DEBUG - Changing transaction state from 'WAITING FOR REPLY' to 'PROCESSING REPLY'
2022-07-22 11:47:35,351 pymodbus.transaction - DEBUG - RECV: 0x0 0xe 0x0 0x0 0x0 0x7 0x2 0x3 0x4 0x0 0x0 0x0 0x0
2022-07-22 11:47:35,351 pymodbus.framer.socket_framer - DEBUG - Processing: 0x0 0xe 0x0 0x0 0x0 0x7 0x2 0x3 0x4 0x0 0x0 0x0 0x0
2022-07-22 11:47:35,351 pymodbus.factory - DEBUG - Factory Response[ReadHoldingRegistersResponse: 3]
2022-07-22 11:47:35,351 pymodbus.transaction - DEBUG - Adding transaction 14
2022-07-22 11:47:35,351 pymodbus.transaction - DEBUG - Getting transaction 14
2022-07-22 11:47:35,351 pymodbus.transaction - DEBUG - Changing transaction state from 'PROCESSING REPLY' to 'TRANSACTION_COMPLETE'
2022-07-22 11:47:35,351 pymodbus.transaction - DEBUG - Current transaction state - TRANSACTION_COMPLETE
2022-07-22 11:47:35,351 pymodbus.transaction - DEBUG - Running transaction 15
2022-07-22 11:47:35,352 pymodbus.transaction - DEBUG - SEND: 0x0 0xf 0x0 0x0 0x0 0x6 0x2 0x3 0x0 0x20 0x0 0x2
2022-07-22 11:47:35,352 pymodbus.client.sync - DEBUG - New Transaction state 'SENDING'
2022-07-22 11:47:35,352 pymodbus.transaction - DEBUG - Changing transaction state from 'SENDING' to 'WAITING FOR REPLY'
2022-07-22 11:47:35,382 pymodbus.transaction - DEBUG - Changing transaction state from 'WAITING FOR REPLY' to 'PROCESSING REPLY'
2022-07-22 11:47:35,382 pymodbus.transaction - DEBUG - RECV: 0x0 0xf 0x0 0x0 0x0 0x7 0x2 0x3 0x4 0x0 0x0 0x0 0x0
2022-07-22 11:47:35,382 pymodbus.framer.socket_framer - DEBUG - Processing: 0x0 0xf 0x0 0x0 0x0 0x7 0x2 0x3 0x4 0x0 0x0 0x0 0x0
2022-07-22 11:47:35,382 pymodbus.factory - DEBUG - Factory Response[ReadHoldingRegistersResponse: 3]
2022-07-22 11:47:35,382 pymodbus.transaction - DEBUG - Adding transaction 15
2022-07-22 11:47:35,382 pymodbus.transaction - DEBUG - Getting transaction 15
2022-07-22 11:47:35,382 pymodbus.transaction - DEBUG - Changing transaction state from 'PROCESSING REPLY' to 'TRANSACTION_COMPLETE'
2022-07-22 11:47:35,382 pymodbus.transaction - DEBUG - Current transaction state - TRANSACTION_COMPLETE
2022-07-22 11:47:35,382 pymodbus.transaction - DEBUG - Running transaction 16
2022-07-22 11:47:35,382 pymodbus.transaction - DEBUG - SEND: 0x0 0x10 0x0 0x0 0x0 0x6 0x2 0x3 0x0 0x22 0x0 0x2
2022-07-22 11:47:35,382 pymodbus.client.sync - DEBUG - New Transaction state 'SENDING'
2022-07-22 11:47:35,382 pymodbus.transaction - DEBUG - Changing transaction state from 'SENDING' to 'WAITING FOR REPLY'
2022-07-22 11:47:35,413 pymodbus.transaction - DEBUG - Changing transaction state from 'WAITING FOR REPLY' to 'PROCESSING REPLY'
2022-07-22 11:47:35,413 pymodbus.transaction - DEBUG - RECV: 0x0 0x10 0x0 0x0 0x0 0x7 0x2 0x3 0x4 0x0 0x0 0x0 0x0
2022-07-22 11:47:35,413 pymodbus.framer.socket_framer - DEBUG - Processing: 0x0 0x10 0x0 0x0 0x0 0x7 0x2 0x3 0x4 0x0 0x0 0x0 0x0
2022-07-22 11:47:35,414 pymodbus.factory - DEBUG - Factory Response[ReadHoldingRegistersResponse: 3]
2022-07-22 11:47:35,414 pymodbus.transaction - DEBUG - Adding transaction 16
2022-07-22 11:47:35,414 pymodbus.transaction - DEBUG - Getting transaction 16
2022-07-22 11:47:35,414 pymodbus.transaction - DEBUG - Changing transaction state from 'PROCESSING REPLY' to 'TRANSACTION_COMPLETE'
2022-07-22 11:47:35,414 pymodbus.transaction - DEBUG - Current transaction state - TRANSACTION_COMPLETE
2022-07-22 11:47:35,414 pymodbus.transaction - DEBUG - Running transaction 17
2022-07-22 11:47:35,415 pymodbus.transaction - DEBUG - SEND: 0x0 0x11 0x0 0x0 0x0 0x6 0x2 0x3 0x0 0x24 0x0 0x2
2022-07-22 11:47:35,415 pymodbus.client.sync - DEBUG - New Transaction state 'SENDING'
2022-07-22 11:47:35,415 pymodbus.transaction - DEBUG - Changing transaction state from 'SENDING' to 'WAITING FOR REPLY'
2022-07-22 11:47:35,445 pymodbus.transaction - DEBUG - Changing transaction state from 'WAITING FOR REPLY' to 'PROCESSING REPLY'
2022-07-22 11:47:35,445 pymodbus.transaction - DEBUG - RECV: 0x0 0x11 0x0 0x0 0x0 0x7 0x2 0x3 0x4 0x0 0x0 0x0 0x0
2022-07-22 11:47:35,445 pymodbus.framer.socket_framer - DEBUG - Processing: 0x0 0x11 0x0 0x0 0x0 0x7 0x2 0x3 0x4 0x0 0x0 0x0 0x0
2022-07-22 11:47:35,445 pymodbus.factory - DEBUG - Factory Response[ReadHoldingRegistersResponse: 3]
2022-07-22 11:47:35,445 pymodbus.transaction - DEBUG - Adding transaction 17
2022-07-22 11:47:35,445 pymodbus.transaction - DEBUG - Getting transaction 17
2022-07-22 11:47:35,445 pymodbus.transaction - DEBUG - Changing transaction state from 'PROCESSING REPLY' to 'TRANSACTION_COMPLETE'
2022-07-22 11:47:35,445 pymodbus.transaction - DEBUG - Current transaction state - TRANSACTION_COMPLETE
2022-07-22 11:47:35,445 pymodbus.transaction - DEBUG - Running transaction 18
2022-07-22 11:47:35,445 pymodbus.transaction - DEBUG - SEND: 0x0 0x12 0x0 0x0 0x0 0x6 0x2 0x3 0x0 0x26 0x0 0x2
2022-07-22 11:47:35,445 pymodbus.client.sync - DEBUG - New Transaction state 'SENDING'
2022-07-22 11:47:35,445 pymodbus.transaction - DEBUG - Changing transaction state from 'SENDING' to 'WAITING FOR REPLY'
2022-07-22 11:47:35,475 pymodbus.transaction - DEBUG - Changing transaction state from 'WAITING FOR REPLY' to 'PROCESSING REPLY'
2022-07-22 11:47:35,475 pymodbus.transaction - DEBUG - RECV: 0x0 0x12 0x0 0x0 0x0 0x7 0x2 0x3 0x4 0x0 0x0 0x0 0x0
2022-07-22 11:47:35,475 pymodbus.framer.socket_framer - DEBUG - Processing: 0x0 0x12 0x0 0x0 0x0 0x7 0x2 0x3 0x4 0x0 0x0 0x0 0x0
2022-07-22 11:47:35,475 pymodbus.factory - DEBUG - Factory Response[ReadHoldingRegistersResponse: 3]
2022-07-22 11:47:35,475 pymodbus.transaction - DEBUG - Adding transaction 18
2022-07-22 11:47:35,475 pymodbus.transaction - DEBUG - Getting transaction 18
2022-07-22 11:47:35,475 pymodbus.transaction - DEBUG - Changing transaction state from 'PROCESSING REPLY' to 'TRANSACTION_COMPLETE'
2022-07-22 11:47:35,475 pymodbus.transaction - DEBUG - Current transaction state - TRANSACTION_COMPLETE
2022-07-22 11:47:35,475 pymodbus.transaction - DEBUG - Running transaction 19
2022-07-22 11:47:35,475 pymodbus.transaction - DEBUG - SEND: 0x0 0x13 0x0 0x0 0x0 0x6 0x2 0x3 0x0 0x28 0x0 0x2
2022-07-22 11:47:35,475 pymodbus.client.sync - DEBUG - New Transaction state 'SENDING'
2022-07-22 11:47:35,476 pymodbus.transaction - DEBUG - Changing transaction state from 'SENDING' to 'WAITING FOR REPLY'
2022-07-22 11:47:35,506 pymodbus.transaction - DEBUG - Changing transaction state from 'WAITING FOR REPLY' to 'PROCESSING REPLY'
2022-07-22 11:47:35,506 pymodbus.transaction - DEBUG - RECV: 0x0 0x13 0x0 0x0 0x0 0x7 0x2 0x3 0x4 0x0 0x0 0x0 0x0
2022-07-22 11:47:35,506 pymodbus.framer.socket_framer - DEBUG - Processing: 0x0 0x13 0x0 0x0 0x0 0x7 0x2 0x3 0x4 0x0 0x0 0x0 0x0
2022-07-22 11:47:35,506 pymodbus.factory - DEBUG - Factory Response[ReadHoldingRegistersResponse: 3]
2022-07-22 11:47:35,506 pymodbus.transaction - DEBUG - Adding transaction 19
2022-07-22 11:47:35,506 pymodbus.transaction - DEBUG - Getting transaction 19
2022-07-22 11:47:35,506 pymodbus.transaction - DEBUG - Changing transaction state from 'PROCESSING REPLY' to 'TRANSACTION_COMPLETE'
2022-07-22 11:47:35,506 pymodbus.transaction - DEBUG - Current transaction state - TRANSACTION_COMPLETE
2022-07-22 11:47:35,506 pymodbus.transaction - DEBUG - Running transaction 20
2022-07-22 11:47:35,506 pymodbus.transaction - DEBUG - SEND: 0x0 0x14 0x0 0x0 0x0 0x6 0x2 0x3 0x0 0x2a 0x0 0x2
2022-07-22 11:47:35,506 pymodbus.client.sync - DEBUG - New Transaction state 'SENDING'
2022-07-22 11:47:35,506 pymodbus.transaction - DEBUG - Changing transaction state from 'SENDING' to 'WAITING FOR REPLY'
2022-07-22 11:47:35,538 pymodbus.transaction - DEBUG - Changing transaction state from 'WAITING FOR REPLY' to 'PROCESSING REPLY'
2022-07-22 11:47:35,538 pymodbus.transaction - DEBUG - RECV: 0x0 0x14 0x0 0x0 0x0 0x7 0x2 0x3 0x4 0x0 0x0 0x0 0x0
2022-07-22 11:47:35,538 pymodbus.framer.socket_framer - DEBUG - Processing: 0x0 0x14 0x0 0x0 0x0 0x7 0x2 0x3 0x4 0x0 0x0 0x0 0x0
2022-07-22 11:47:35,538 pymodbus.factory - DEBUG - Factory Response[ReadHoldingRegistersResponse: 3]
2022-07-22 11:47:35,538 pymodbus.transaction - DEBUG - Adding transaction 20
2022-07-22 11:47:35,538 pymodbus.transaction - DEBUG - Getting transaction 20
2022-07-22 11:47:35,538 pymodbus.transaction - DEBUG - Changing transaction state from 'PROCESSING REPLY' to 'TRANSACTION_COMPLETE'
2022-07-22 11:47:35,538 pymodbus.transaction - DEBUG - Current transaction state - TRANSACTION_COMPLETE
2022-07-22 11:47:35,538 pymodbus.transaction - DEBUG - Running transaction 21
2022-07-22 11:47:35,538 pymodbus.transaction - DEBUG - SEND: 0x0 0x15 0x0 0x0 0x0 0x6 0x2 0x3 0x0 0x2c 0x0 0x2
2022-07-22 11:47:35,538 pymodbus.client.sync - DEBUG - New Transaction state 'SENDING'
2022-07-22 11:47:35,538 pymodbus.transaction - DEBUG - Changing transaction state from 'SENDING' to 'WAITING FOR REPLY'
2022-07-22 11:47:35,568 pymodbus.transaction - DEBUG - Changing transaction state from 'WAITING FOR REPLY' to 'PROCESSING REPLY'
2022-07-22 11:47:35,568 pymodbus.transaction - DEBUG - RECV: 0x0 0x15 0x0 0x0 0x0 0x7 0x2 0x3 0x4 0x0 0x0 0x0 0x0
2022-07-22 11:47:35,568 pymodbus.framer.socket_framer - DEBUG - Processing: 0x0 0x15 0x0 0x0 0x0 0x7 0x2 0x3 0x4 0x0 0x0 0x0 0x0
2022-07-22 11:47:35,568 pymodbus.factory - DEBUG - Factory Response[ReadHoldingRegistersResponse: 3]
2022-07-22 11:47:35,568 pymodbus.transaction - DEBUG - Adding transaction 21
2022-07-22 11:47:35,569 pymodbus.transaction - DEBUG - Getting transaction 21
2022-07-22 11:47:35,569 pymodbus.transaction - DEBUG - Changing transaction state from 'PROCESSING REPLY' to 'TRANSACTION_COMPLETE'
2022-07-22 11:47:35,569 pymodbus.transaction - DEBUG - Current transaction state - TRANSACTION_COMPLETE
2022-07-22 11:47:35,569 pymodbus.transaction - DEBUG - Running transaction 22
2022-07-22 11:47:35,569 pymodbus.transaction - DEBUG - SEND: 0x0 0x16 0x0 0x0 0x0 0x6 0x2 0x3 0x0 0x2e 0x0 0x2
2022-07-22 11:47:35,569 pymodbus.client.sync - DEBUG - New Transaction state 'SENDING'
2022-07-22 11:47:35,569 pymodbus.transaction - DEBUG - Changing transaction state from 'SENDING' to 'WAITING FOR REPLY'
2022-07-22 11:47:35,599 pymodbus.transaction - DEBUG - Changing transaction state from 'WAITING FOR REPLY' to 'PROCESSING REPLY'
2022-07-22 11:47:35,599 pymodbus.transaction - DEBUG - RECV: 0x0 0x16 0x0 0x0 0x0 0x7 0x2 0x3 0x4 0x0 0x0 0x0 0x0
2022-07-22 11:47:35,599 pymodbus.framer.socket_framer - DEBUG - Processing: 0x0 0x16 0x0 0x0 0x0 0x7 0x2 0x3 0x4 0x0 0x0 0x0 0x0
2022-07-22 11:47:35,599 pymodbus.factory - DEBUG - Factory Response[ReadHoldingRegistersResponse: 3]
2022-07-22 11:47:35,599 pymodbus.transaction - DEBUG - Adding transaction 22
2022-07-22 11:47:35,599 pymodbus.transaction - DEBUG - Getting transaction 22
2022-07-22 11:47:35,600 pymodbus.transaction - DEBUG - Changing transaction state from 'PROCESSING REPLY' to 'TRANSACTION_COMPLETE'
2022-07-22 11:47:35,600 pymodbus.transaction - DEBUG - Current transaction state - TRANSACTION_COMPLETE
2022-07-22 11:47:35,600 pymodbus.transaction - DEBUG - Running transaction 23
2022-07-22 11:47:35,600 pymodbus.transaction - DEBUG - SEND: 0x0 0x17 0x0 0x0 0x0 0x6 0x2 0x3 0x0 0x30 0x0 0x2
2022-07-22 11:47:35,600 pymodbus.client.sync - DEBUG - New Transaction state 'SENDING'
2022-07-22 11:47:35,600 pymodbus.transaction - DEBUG - Changing transaction state from 'SENDING' to 'WAITING FOR REPLY'
2022-07-22 11:47:35,631 pymodbus.transaction - DEBUG - Changing transaction state from 'WAITING FOR REPLY' to 'PROCESSING REPLY'
2022-07-22 11:47:35,631 pymodbus.transaction - DEBUG - RECV: 0x0 0x17 0x0 0x0 0x0 0x7 0x2 0x3 0x4 0x0 0x0 0x0 0x0
2022-07-22 11:47:35,631 pymodbus.framer.socket_framer - DEBUG - Processing: 0x0 0x17 0x0 0x0 0x0 0x7 0x2 0x3 0x4 0x0 0x0 0x0 0x0
2022-07-22 11:47:35,631 pymodbus.factory - DEBUG - Factory Response[ReadHoldingRegistersResponse: 3]
2022-07-22 11:47:35,631 pymodbus.transaction - DEBUG - Adding transaction 23
2022-07-22 11:47:35,631 pymodbus.transaction - DEBUG - Getting transaction 23
2022-07-22 11:47:35,631 pymodbus.transaction - DEBUG - Changing transaction state from 'PROCESSING REPLY' to 'TRANSACTION_COMPLETE'
2022-07-22 11:47:35,631 pymodbus.transaction - DEBUG - Current transaction state - TRANSACTION_COMPLETE
2022-07-22 11:47:35,631 pymodbus.transaction - DEBUG - Running transaction 24
2022-07-22 11:47:35,632 pymodbus.transaction - DEBUG - SEND: 0x0 0x18 0x0 0x0 0x0 0x6 0x2 0x3 0x0 0x32 0x0 0x2
2022-07-22 11:47:35,632 pymodbus.client.sync - DEBUG - New Transaction state 'SENDING'
2022-07-22 11:47:35,632 pymodbus.transaction - DEBUG - Changing transaction state from 'SENDING' to 'WAITING FOR REPLY'
2022-07-22 11:47:35,662 pymodbus.transaction - DEBUG - Changing transaction state from 'WAITING FOR REPLY' to 'PROCESSING REPLY'
2022-07-22 11:47:35,662 pymodbus.transaction - DEBUG - RECV: 0x0 0x18 0x0 0x0 0x0 0x7 0x2 0x3 0x4 0x0 0x0 0x0 0x0
2022-07-22 11:47:35,662 pymodbus.framer.socket_framer - DEBUG - Processing: 0x0 0x18 0x0 0x0 0x0 0x7 0x2 0x3 0x4 0x0 0x0 0x0 0x0
2022-07-22 11:47:35,663 pymodbus.factory - DEBUG - Factory Response[ReadHoldingRegistersResponse: 3]
2022-07-22 11:47:35,663 pymodbus.transaction - DEBUG - Adding transaction 24
2022-07-22 11:47:35,663 pymodbus.transaction - DEBUG - Getting transaction 24
2022-07-22 11:47:35,663 pymodbus.transaction - DEBUG - Changing transaction state from 'PROCESSING REPLY' to 'TRANSACTION_COMPLETE'
2022-07-22 11:47:35,663 pymodbus.transaction - DEBUG - Current transaction state - TRANSACTION_COMPLETE
2022-07-22 11:47:35,663 pymodbus.transaction - DEBUG - Running transaction 25
2022-07-22 11:47:35,663 pymodbus.transaction - DEBUG - SEND: 0x0 0x19 0x0 0x0 0x0 0x6 0x2 0x3 0x0 0x34 0x0 0x2
2022-07-22 11:47:35,663 pymodbus.client.sync - DEBUG - New Transaction state 'SENDING'
2022-07-22 11:47:35,664 pymodbus.transaction - DEBUG - Changing transaction state from 'SENDING' to 'WAITING FOR REPLY'
2022-07-22 11:47:35,694 pymodbus.transaction - DEBUG - Changing transaction state from 'WAITING FOR REPLY' to 'PROCESSING REPLY'
2022-07-22 11:47:35,694 pymodbus.transaction - DEBUG - RECV: 0x0 0x19 0x0 0x0 0x0 0x7 0x2 0x3 0x4 0x0 0x0 0x0 0x0
2022-07-22 11:47:35,694 pymodbus.framer.socket_framer - DEBUG - Processing: 0x0 0x19 0x0 0x0 0x0 0x7 0x2 0x3 0x4 0x0 0x0 0x0 0x0
2022-07-22 11:47:35,694 pymodbus.factory - DEBUG - Factory Response[ReadHoldingRegistersResponse: 3]
2022-07-22 11:47:35,694 pymodbus.transaction - DEBUG - Adding transaction 25
2022-07-22 11:47:35,694 pymodbus.transaction - DEBUG - Getting transaction 25
2022-07-22 11:47:35,694 pymodbus.transaction - DEBUG - Changing transaction state from 'PROCESSING REPLY' to 'TRANSACTION_COMPLETE'
2022-07-22 11:47:35,694 pymodbus.transaction - DEBUG - Current transaction state - TRANSACTION_COMPLETE
2022-07-22 11:47:35,694 pymodbus.transaction - DEBUG - Running transaction 26
2022-07-22 11:47:35,694 pymodbus.transaction - DEBUG - SEND: 0x0 0x1a 0x0 0x0 0x0 0x6 0x2 0x3 0x0 0x36 0x0 0x2
2022-07-22 11:47:35,694 pymodbus.client.sync - DEBUG - New Transaction state 'SENDING'
2022-07-22 11:47:35,694 pymodbus.transaction - DEBUG - Changing transaction state from 'SENDING' to 'WAITING FOR REPLY'
2022-07-22 11:47:35,725 pymodbus.transaction - DEBUG - Changing transaction state from 'WAITING FOR REPLY' to 'PROCESSING REPLY'
2022-07-22 11:47:35,725 pymodbus.transaction - DEBUG - RECV: 0x0 0x1a 0x0 0x0 0x0 0x7 0x2 0x3 0x4 0x0 0x0 0x0 0x0
2022-07-22 11:47:35,725 pymodbus.framer.socket_framer - DEBUG - Processing: 0x0 0x1a 0x0 0x0 0x0 0x7 0x2 0x3 0x4 0x0 0x0 0x0 0x0
2022-07-22 11:47:35,725 pymodbus.factory - DEBUG - Factory Response[ReadHoldingRegistersResponse: 3]
2022-07-22 11:47:35,725 pymodbus.transaction - DEBUG - Adding transaction 26
2022-07-22 11:47:35,725 pymodbus.transaction - DEBUG - Getting transaction 26
2022-07-22 11:47:35,725 pymodbus.transaction - DEBUG - Changing transaction state from 'PROCESSING REPLY' to 'TRANSACTION_COMPLETE'
2022-07-22 11:47:35,727 pymodbus.transaction - DEBUG - Current transaction state - TRANSACTION_COMPLETE
2022-07-22 11:47:35,727 pymodbus.transaction - DEBUG - Running transaction 27
2022-07-22 11:47:35,727 pymodbus.transaction - DEBUG - SEND: 0x0 0x1b 0x0 0x0 0x0 0x6 0x2 0x3 0x0 0x38 0x0 0x2
2022-07-22 11:47:35,727 pymodbus.client.sync - DEBUG - New Transaction state 'SENDING'
2022-07-22 11:47:35,727 pymodbus.transaction - DEBUG - Changing transaction state from 'SENDING' to 'WAITING FOR REPLY'
2022-07-22 11:47:35,756 pymodbus.transaction - DEBUG - Changing transaction state from 'WAITING FOR REPLY' to 'PROCESSING REPLY'
2022-07-22 11:47:35,756 pymodbus.transaction - DEBUG - RECV: 0x0 0x1b 0x0 0x0 0x0 0x7 0x2 0x3 0x4 0x0 0x0 0x0 0x0
2022-07-22 11:47:35,757 pymodbus.framer.socket_framer - DEBUG - Processing: 0x0 0x1b 0x0 0x0 0x0 0x7 0x2 0x3 0x4 0x0 0x0 0x0 0x0
2022-07-22 11:47:35,757 pymodbus.factory - DEBUG - Factory Response[ReadHoldingRegistersResponse: 3]
2022-07-22 11:47:35,757 pymodbus.transaction - DEBUG - Adding transaction 27
2022-07-22 11:47:35,757 pymodbus.transaction - DEBUG - Getting transaction 27
2022-07-22 11:47:35,757 pymodbus.transaction - DEBUG - Changing transaction state from 'PROCESSING REPLY' to 'TRANSACTION_COMPLETE'
2022-07-22 11:47:35,757 pymodbus.transaction - DEBUG - Current transaction state - TRANSACTION_COMPLETE
2022-07-22 11:47:35,757 pymodbus.transaction - DEBUG - Running transaction 28
2022-07-22 11:47:35,757 pymodbus.transaction - DEBUG - SEND: 0x0 0x1c 0x0 0x0 0x0 0x6 0x2 0x3 0x0 0x3a 0x0 0x2
2022-07-22 11:47:35,758 pymodbus.client.sync - DEBUG - New Transaction state 'SENDING'
2022-07-22 11:47:35,758 pymodbus.transaction - DEBUG - Changing transaction state from 'SENDING' to 'WAITING FOR REPLY'
2022-07-22 11:47:35,787 pymodbus.transaction - DEBUG - Changing transaction state from 'WAITING FOR REPLY' to 'PROCESSING REPLY'
2022-07-22 11:47:35,788 pymodbus.transaction - DEBUG - RECV: 0x0 0x1c 0x0 0x0 0x0 0x7 0x2 0x3 0x4 0x0 0x0 0x0 0x0
2022-07-22 11:47:35,788 pymodbus.framer.socket_framer - DEBUG - Processing: 0x0 0x1c 0x0 0x0 0x0 0x7 0x2 0x3 0x4 0x0 0x0 0x0 0x0
2022-07-22 11:47:35,788 pymodbus.factory - DEBUG - Factory Response[ReadHoldingRegistersResponse: 3]
2022-07-22 11:47:35,788 pymodbus.transaction - DEBUG - Adding transaction 28
2022-07-22 11:47:35,788 pymodbus.transaction - DEBUG - Getting transaction 28
2022-07-22 11:47:35,788 pymodbus.transaction - DEBUG - Changing transaction state from 'PROCESSING REPLY' to 'TRANSACTION_COMPLETE'
2022-07-22 11:47:35,788 pymodbus.transaction - DEBUG - Current transaction state - TRANSACTION_COMPLETE
2022-07-22 11:47:35,788 pymodbus.transaction - DEBUG - Running transaction 29
2022-07-22 11:47:35,788 pymodbus.transaction - DEBUG - SEND: 0x0 0x1d 0x0 0x0 0x0 0x6 0x2 0x3 0x0 0x3c 0x0 0x2
2022-07-22 11:47:35,788 pymodbus.client.sync - DEBUG - New Transaction state 'SENDING'
2022-07-22 11:47:35,789 pymodbus.transaction - DEBUG - Changing transaction state from 'SENDING' to 'WAITING FOR REPLY'
2022-07-22 11:47:35,817 pymodbus.transaction - DEBUG - Changing transaction state from 'WAITING FOR REPLY' to 'PROCESSING REPLY'
2022-07-22 11:47:35,817 pymodbus.transaction - DEBUG - RECV: 0x0 0x1d 0x0 0x0 0x0 0x7 0x2 0x3 0x4 0x0 0x0 0x0 0x0
2022-07-22 11:47:35,818 pymodbus.framer.socket_framer - DEBUG - Processing: 0x0 0x1d 0x0 0x0 0x0 0x7 0x2 0x3 0x4 0x0 0x0 0x0 0x0
2022-07-22 11:47:35,818 pymodbus.factory - DEBUG - Factory Response[ReadHoldingRegistersResponse: 3]
2022-07-22 11:47:35,818 pymodbus.transaction - DEBUG - Adding transaction 29
2022-07-22 11:47:35,818 pymodbus.transaction - DEBUG - Getting transaction 29
2022-07-22 11:47:35,818 pymodbus.transaction - DEBUG - Changing transaction state from 'PROCESSING REPLY' to 'TRANSACTION_COMPLETE'
2022-07-22 11:47:35,818 pymodbus.transaction - DEBUG - Current transaction state - TRANSACTION_COMPLETE
2022-07-22 11:47:35,818 pymodbus.transaction - DEBUG - Running transaction 30
2022-07-22 11:47:35,819 pymodbus.transaction - DEBUG - SEND: 0x0 0x1e 0x0 0x0 0x0 0x6 0x2 0x3 0x0 0x40 0x0 0x2
2022-07-22 11:47:35,819 pymodbus.client.sync - DEBUG - New Transaction state 'SENDING'
2022-07-22 11:47:35,819 pymodbus.transaction - DEBUG - Changing transaction state from 'SENDING' to 'WAITING FOR REPLY'
2022-07-22 11:47:35,848 pymodbus.transaction - DEBUG - Changing transaction state from 'WAITING FOR REPLY' to 'PROCESSING REPLY'
2022-07-22 11:47:35,849 pymodbus.transaction - DEBUG - RECV: 0x0 0x1e 0x0 0x0 0x0 0x7 0x2 0x3 0x4 0x0 0x0 0x0 0x0
2022-07-22 11:47:35,849 pymodbus.framer.socket_framer - DEBUG - Processing: 0x0 0x1e 0x0 0x0 0x0 0x7 0x2 0x3 0x4 0x0 0x0 0x0 0x0
2022-07-22 11:47:35,849 pymodbus.factory - DEBUG - Factory Response[ReadHoldingRegistersResponse: 3]
2022-07-22 11:47:35,849 pymodbus.transaction - DEBUG - Adding transaction 30
2022-07-22 11:47:35,850 pymodbus.transaction - DEBUG - Getting transaction 30
2022-07-22 11:47:35,850 pymodbus.transaction - DEBUG - Changing transaction state from 'PROCESSING REPLY' to 'TRANSACTION_COMPLETE'
2022-07-22 11:47:35,850 pymodbus.transaction - DEBUG - Current transaction state - TRANSACTION_COMPLETE
2022-07-22 11:47:35,850 pymodbus.transaction - DEBUG - Running transaction 31
2022-07-22 11:47:35,850 pymodbus.transaction - DEBUG - SEND: 0x0 0x1f 0x0 0x0 0x0 0x6 0x2 0x3 0x0 0x3e 0x0 0x2
2022-07-22 11:47:35,850 pymodbus.client.sync - DEBUG - New Transaction state 'SENDING'
2022-07-22 11:47:35,850 pymodbus.transaction - DEBUG - Changing transaction state from 'SENDING' to 'WAITING FOR REPLY'
2022-07-22 11:47:35,879 pymodbus.transaction - DEBUG - Changing transaction state from 'WAITING FOR REPLY' to 'PROCESSING REPLY'
2022-07-22 11:47:35,879 pymodbus.transaction - DEBUG - RECV: 0x0 0x1f 0x0 0x0 0x0 0x7 0x2 0x3 0x4 0x0 0x0 0x0 0x0
2022-07-22 11:47:35,879 pymodbus.framer.socket_framer - DEBUG - Processing: 0x0 0x1f 0x0 0x0 0x0 0x7 0x2 0x3 0x4 0x0 0x0 0x0 0x0
2022-07-22 11:47:35,879 pymodbus.factory - DEBUG - Factory Response[ReadHoldingRegistersResponse: 3]
2022-07-22 11:47:35,879 pymodbus.transaction - DEBUG - Adding transaction 31
2022-07-22 11:47:35,879 pymodbus.transaction - DEBUG - Getting transaction 31
2022-07-22 11:47:35,879 pymodbus.transaction - DEBUG - Changing transaction state from 'PROCESSING REPLY' to 'TRANSACTION_COMPLETE'
2022-07-22 11:47:35,879 log1 - DEBUG - Reading Register Complete
2022-07-22 11:47:35,880 log1 - DEBUG - Posting Data to DB
2022-07-22 11:47:35,884 urllib3.connectionpool - DEBUG - Starting new HTTP connection (1): 192.168.1.36:4000
2022-07-22 11:47:35,943 urllib3.connectionpool - DEBUG - http://192.168.1.36:4000 "POST /data HTTP/1.1" 200 20
2022-07-22 11:47:35,943 root - DEBUG - {"index":0,"code":2}
2022-07-22 11:47:35,944 log1 - DEBUG - {'timestamp': 1658461654, 'dc_main_contactor': 1.0, 'stk1_contactor': 80.0, 'primary_positive_pump': 23.0, 'primary_negative_pump': 4.0, 'system_mode': 0, 'system_alarm_status': 0, 'balancing_valve': 0.0, 'positive_valve': 0.0, 'negative_valve': 0.0, 'state_of_charge': 0.0, 'bcu_mode_status': 0.0, 'bcu_voltage': 0.0, 'bcu_current': 0.0, 'bcu_power': 0.0, 'bcu_state_of_charge': 0.0, 'bcu_hydrogen_sensor': 0.0, 'bcu_leakage_sensor': 0.0, 'smoke_sensor': 0.0, 'bcu_ocv': 0.0, 'bcu_positive_tank_temp': 0.0, 'bcu_negative_tank_temp': 0.0, 'positive_tank_high_level_float': 0.0, 'negative_tank_high_level_float': 0.0, 'positive_tank_low_level_float': 0.0, 'negative_tank_low_level_float': 0.0, 'primary_stack_voltage': 0.0, 'primary_stack_current': 0.0, 'primary_stack_positive_pressure_sensor': 0.0, 'primary_stack_negative_pressure_sensor': 0.0, 'positive_stack_pressure_delta': 0.0, 'b1_primary_stack_pressure_delta': 0.0, 'sensor_temp': 0.0, 'humidity': 0.0, 'bms_timestamp': 0, 'plc_alarm_status_1': 0}
2022-07-22 11:47:35,945 log1 - DEBUG - POST Complete
2022-07-22 11:47:40,962 root - DEBUG - Reading Registers
2022-07-22 11:47:40,962 log1 - DEBUG - Reading Registers
2022-07-22 11:47:40,963 pymodbus.transaction - DEBUG - Current transaction state - TRANSACTION_COMPLETE
2022-07-22 11:47:40,963 pymodbus.transaction - DEBUG - Running transaction 32
2022-07-22 11:47:40,963 pymodbus.transaction - DEBUG - SEND: 0x0 0x20 0x0 0x0 0x0 0x6 0x2 0x3 0x0 0x0 0x0 0x2
2022-07-22 11:47:40,964 pymodbus.client.sync - DEBUG - New Transaction state 'SENDING'
2022-07-22 11:47:40,964 pymodbus.transaction - DEBUG - Changing transaction state from 'SENDING' to 'WAITING FOR REPLY'
2022-07-22 11:47:40,978 pymodbus.transaction - DEBUG - Changing transaction state from 'WAITING FOR REPLY' to 'PROCESSING REPLY'
2022-07-22 11:47:40,979 pymodbus.transaction - DEBUG - RECV: 0x0 0x20 0x0 0x0 0x0 0x7 0x2 0x3 0x4 0x0 0x1 0x0 0x1
2022-07-22 11:47:40,979 pymodbus.framer.socket_framer - DEBUG - Processing: 0x0 0x20 0x0 0x0 0x0 0x7 0x2 0x3 0x4 0x0 0x1 0x0 0x1
2022-07-22 11:47:40,979 pymodbus.factory - DEBUG - Factory Response[ReadHoldingRegistersResponse: 3]
2022-07-22 11:47:40,979 pymodbus.transaction - DEBUG - Adding transaction 32
2022-07-22 11:47:40,979 pymodbus.transaction - DEBUG - Getting transaction 32
2022-07-22 11:47:40,979 pymodbus.transaction - DEBUG - Changing transaction state from 'PROCESSING REPLY' to 'TRANSACTION_COMPLETE'
2022-07-22 11:47:40,979 pymodbus.transaction - DEBUG - Current transaction state - TRANSACTION_COMPLETE
2022-07-22 11:47:40,979 pymodbus.transaction - DEBUG - Running transaction 33
2022-07-22 11:47:40,980 pymodbus.transaction - DEBUG - SEND: 0x0 0x21 0x0 0x0 0x0 0x6 0x2 0x3 0x0 0x2 0x0 0x2
2022-07-22 11:47:40,980 pymodbus.client.sync - DEBUG - New Transaction state 'SENDING'
2022-07-22 11:47:40,980 pymodbus.transaction - DEBUG - Changing transaction state from 'SENDING' to 'WAITING FOR REPLY'
2022-07-22 11:47:41,010 pymodbus.transaction - DEBUG - Changing transaction state from 'WAITING FOR REPLY' to 'PROCESSING REPLY'
2022-07-22 11:47:41,010 pymodbus.transaction - DEBUG - RECV: 0x0 0x21 0x0 0x0 0x0 0x7 0x2 0x3 0x4 0x0 0x0 0x0 0x50
2022-07-22 11:47:41,010 pymodbus.framer.socket_framer - DEBUG - Processing: 0x0 0x21 0x0 0x0 0x0 0x7 0x2 0x3 0x4 0x0 0x0 0x0 0x50
2022-07-22 11:47:41,010 pymodbus.factory - DEBUG - Factory Response[ReadHoldingRegistersResponse: 3]
2022-07-22 11:47:41,010 pymodbus.transaction - DEBUG - Adding transaction 33
2022-07-22 11:47:41,010 pymodbus.transaction - DEBUG - Getting transaction 33
2022-07-22 11:47:41,010 pymodbus.transaction - DEBUG - Changing transaction state from 'PROCESSING REPLY' to 'TRANSACTION_COMPLETE'
2022-07-22 11:47:41,010 pymodbus.transaction - DEBUG - Current transaction state - TRANSACTION_COMPLETE
2022-07-22 11:47:41,010 pymodbus.transaction - DEBUG - Running transaction 34
2022-07-22 11:47:41,011 pymodbus.transaction - DEBUG - SEND: 0x0 0x22 0x0 0x0 0x0 0x6 0x2 0x3 0x0 0x4 0x0 0x2
2022-07-22 11:47:41,011 pymodbus.client.sync - DEBUG - New Transaction state 'SENDING'
2022-07-22 11:47:41,011 pymodbus.transaction - DEBUG - Changing transaction state from 'SENDING' to 'WAITING FOR REPLY'
2022-07-22 11:47:41,040 pymodbus.transaction - DEBUG - Changing transaction state from 'WAITING FOR REPLY' to 'PROCESSING REPLY'
2022-07-22 11:47:41,040 pymodbus.transaction - DEBUG - RECV: 0x0 0x22 0x0 0x0 0x0 0x7 0x2 0x3 0x4 0x0 0x0 0x0 0x17
2022-07-22 11:47:41,040 pymodbus.framer.socket_framer - DEBUG - Processing: 0x0 0x22 0x0 0x0 0x0 0x7 0x2 0x3 0x4 0x0 0x0 0x0 0x17
2022-07-22 11:47:41,041 pymodbus.factory - DEBUG - Factory Response[ReadHoldingRegistersResponse: 3]
2022-07-22 11:47:41,041 pymodbus.transaction - DEBUG - Adding transaction 34
2022-07-22 11:47:41,041 pymodbus.transaction - DEBUG - Getting transaction 34
2022-07-22 11:47:41,041 pymodbus.transaction - DEBUG - Changing transaction state from 'PROCESSING REPLY' to 'TRANSACTION_COMPLETE'
2022-07-22 11:47:41,041 pymodbus.transaction - DEBUG - Current transaction state - TRANSACTION_COMPLETE
2022-07-22 11:47:41,041 pymodbus.transaction - DEBUG - Running transaction 35
2022-07-22 11:47:41,041 pymodbus.transaction - DEBUG - SEND: 0x0 0x23 0x0 0x0 0x0 0x6 0x2 0x3 0x0 0x6 0x0 0x2
2022-07-22 11:47:41,041 pymodbus.client.sync - DEBUG - New Transaction state 'SENDING'
2022-07-22 11:47:41,041 pymodbus.transaction - DEBUG - Changing transaction state from 'SENDING' to 'WAITING FOR REPLY'
2022-07-22 11:47:41,072 pymodbus.transaction - DEBUG - Changing transaction state from 'WAITING FOR REPLY' to 'PROCESSING REPLY'
2022-07-22 11:47:41,072 pymodbus.transaction - DEBUG - RECV: 0x0 0x23 0x0 0x0 0x0 0x7 0x2 0x3 0x4 0x0 0x0 0x0 0x4
2022-07-22 11:47:41,073 pymodbus.framer.socket_framer - DEBUG - Processing: 0x0 0x23 0x0 0x0 0x0 0x7 0x2 0x3 0x4 0x0 0x0 0x0 0x4
2022-07-22 11:47:41,073 pymodbus.factory - DEBUG - Factory Response[ReadHoldingRegistersResponse: 3]
2022-07-22 11:47:41,073 pymodbus.transaction - DEBUG - Adding transaction 35
2022-07-22 11:47:41,073 pymodbus.transaction - DEBUG - Getting transaction 35
2022-07-22 11:47:41,073 pymodbus.transaction - DEBUG - Changing transaction state from 'PROCESSING REPLY' to 'TRANSACTION_COMPLETE'
2022-07-22 11:47:41,073 pymodbus.transaction - DEBUG - Current transaction state - TRANSACTION_COMPLETE
2022-07-22 11:47:41,073 pymodbus.transaction - DEBUG - Running transaction 36
2022-07-22 11:47:41,073 pymodbus.transaction - DEBUG - SEND: 0x0 0x24 0x0 0x0 0x0 0x6 0x2 0x3 0x0 0xc 0x0 0x2
2022-07-22 11:47:41,074 pymodbus.client.sync - DEBUG - New Transaction state 'SENDING'
2022-07-22 11:47:41,074 pymodbus.transaction - DEBUG - Changing transaction state from 'SENDING' to 'WAITING FOR REPLY'
2022-07-22 11:47:41,103 pymodbus.transaction - DEBUG - Changing transaction state from 'WAITING FOR REPLY' to 'PROCESSING REPLY'
2022-07-22 11:47:41,103 pymodbus.transaction - DEBUG - RECV: 0x0 0x24 0x0 0x0 0x0 0x7 0x2 0x3 0x4 0x0 0x0 0x0 0x0
2022-07-22 11:47:41,104 pymodbus.framer.socket_framer - DEBUG - Processing: 0x0 0x24 0x0 0x0 0x0 0x7 0x2 0x3 0x4 0x0 0x0 0x0 0x0
2022-07-22 11:47:41,104 pymodbus.factory - DEBUG - Factory Response[ReadHoldingRegistersResponse: 3]
2022-07-22 11:47:41,104 pymodbus.transaction - DEBUG - Adding transaction 36
2022-07-22 11:47:41,104 pymodbus.transaction - DEBUG - Getting transaction 36
2022-07-22 11:47:41,104 pymodbus.transaction - DEBUG - Changing transaction state from 'PROCESSING REPLY' to 'TRANSACTION_COMPLETE'
2022-07-22 11:47:41,104 pymodbus.transaction - DEBUG - Current transaction state - TRANSACTION_COMPLETE
2022-07-22 11:47:41,104 pymodbus.transaction - DEBUG - Running transaction 37
2022-07-22 11:47:41,104 pymodbus.transaction - DEBUG - SEND: 0x0 0x25 0x0 0x0 0x0 0x6 0x2 0x3 0x0 0xe 0x0 0x2
2022-07-22 11:47:41,104 pymodbus.client.sync - DEBUG - New Transaction state 'SENDING'
2022-07-22 11:47:41,105 pymodbus.transaction - DEBUG - Changing transaction state from 'SENDING' to 'WAITING FOR REPLY'
2022-07-22 11:47:41,134 pymodbus.transaction - DEBUG - Changing transaction state from 'WAITING FOR REPLY' to 'PROCESSING REPLY'
2022-07-22 11:47:41,134 pymodbus.transaction - DEBUG - RECV: 0x0 0x25 0x0 0x0 0x0 0x7 0x2 0x3 0x4 0x0 0x0 0x0 0x0
2022-07-22 11:47:41,135 pymodbus.framer.socket_framer - DEBUG - Processing: 0x0 0x25 0x0 0x0 0x0 0x7 0x2 0x3 0x4 0x0 0x0 0x0 0x0
2022-07-22 11:47:41,135 pymodbus.factory - DEBUG - Factory Response[ReadHoldingRegistersResponse: 3]
2022-07-22 11:47:41,135 pymodbus.transaction - DEBUG - Adding transaction 37
2022-07-22 11:47:41,135 pymodbus.transaction - DEBUG - Getting transaction 37
2022-07-22 11:47:41,135 pymodbus.transaction - DEBUG - Changing transaction state from 'PROCESSING REPLY' to 'TRANSACTION_COMPLETE'
2022-07-22 11:47:41,135 pymodbus.transaction - DEBUG - Current transaction state - TRANSACTION_COMPLETE
2022-07-22 11:47:41,135 pymodbus.transaction - DEBUG - Running transaction 38
2022-07-22 11:47:41,135 pymodbus.transaction - DEBUG - SEND: 0x0 0x26 0x0 0x0 0x0 0x6 0x2 0x3 0x0 0x10 0x0 0x2
2022-07-22 11:47:41,136 pymodbus.client.sync - DEBUG - New Transaction state 'SENDING'
2022-07-22 11:47:41,136 pymodbus.transaction - DEBUG - Changing transaction state from 'SENDING' to 'WAITING FOR REPLY'
2022-07-22 11:47:41,164 pymodbus.transaction - DEBUG - Changing transaction state from 'WAITING FOR REPLY' to 'PROCESSING REPLY'
2022-07-22 11:47:41,164 pymodbus.transaction - DEBUG - RECV: 0x0 0x26 0x0 0x0 0x0 0x7 0x2 0x3 0x4 0x0 0x0 0x0 0x0
2022-07-22 11:47:41,164 pymodbus.framer.socket_framer - DEBUG - Processing: 0x0 0x26 0x0 0x0 0x0 0x7 0x2 0x3 0x4 0x0 0x0 0x0 0x0
2022-07-22 11:47:41,164 pymodbus.factory - DEBUG - Factory Response[ReadHoldingRegistersResponse: 3]
2022-07-22 11:47:41,165 pymodbus.transaction - DEBUG - Adding transaction 38
2022-07-22 11:47:41,165 pymodbus.transaction - DEBUG - Getting transaction 38
2022-07-22 11:47:41,165 pymodbus.transaction - DEBUG - Changing transaction state from 'PROCESSING REPLY' to 'TRANSACTION_COMPLETE'
2022-07-22 11:47:41,165 pymodbus.transaction - DEBUG - Current transaction state - TRANSACTION_COMPLETE
2022-07-22 11:47:41,165 pymodbus.transaction - DEBUG - Running transaction 39
2022-07-22 11:47:41,165 pymodbus.transaction - DEBUG - SEND: 0x0 0x27 0x0 0x0 0x0 0x6 0x2 0x3 0x0 0x12 0x0 0x2
2022-07-22 11:47:41,165 pymodbus.client.sync - DEBUG - New Transaction state 'SENDING'
2022-07-22 11:47:41,165 pymodbus.transaction - DEBUG - Changing transaction state from 'SENDING' to 'WAITING FOR REPLY'
2022-07-22 11:47:41,196 pymodbus.transaction - DEBUG - Changing transaction state from 'WAITING FOR REPLY' to 'PROCESSING REPLY'
2022-07-22 11:47:41,197 pymodbus.transaction - DEBUG - RECV: 0x0 0x27 0x0 0x0 0x0 0x7 0x2 0x3 0x4 0x0 0x0 0x0 0x0
2022-07-22 11:47:41,197 pymodbus.framer.socket_framer - DEBUG - Processing: 0x0 0x27 0x0 0x0 0x0 0x7 0x2 0x3 0x4 0x0 0x0 0x0 0x0
2022-07-22 11:47:41,197 pymodbus.factory - DEBUG - Factory Response[ReadHoldingRegistersResponse: 3]
2022-07-22 11:47:41,197 pymodbus.transaction - DEBUG - Adding transaction 39
2022-07-22 11:47:41,197 pymodbus.transaction - DEBUG - Getting transaction 39
2022-07-22 11:47:41,197 pymodbus.transaction - DEBUG - Changing transaction state from 'PROCESSING REPLY' to 'TRANSACTION_COMPLETE'
2022-07-22 11:47:41,197 pymodbus.transaction - DEBUG - Current transaction state - TRANSACTION_COMPLETE
2022-07-22 11:47:41,198 pymodbus.transaction - DEBUG - Running transaction 40
2022-07-22 11:47:41,198 pymodbus.transaction - DEBUG - SEND: 0x0 0x28 0x0 0x0 0x0 0x6 0x2 0x3 0x0 0x14 0x0 0x2
2022-07-22 11:47:41,198 pymodbus.client.sync - DEBUG - New Transaction state 'SENDING'
2022-07-22 11:47:41,198 pymodbus.transaction - DEBUG - Changing transaction state from 'SENDING' to 'WAITING FOR REPLY'
2022-07-22 11:47:41,228 pymodbus.transaction - DEBUG - Changing transaction state from 'WAITING FOR REPLY' to 'PROCESSING REPLY'
2022-07-22 11:47:41,228 pymodbus.transaction - DEBUG - RECV: 0x0 0x28 0x0 0x0 0x0 0x7 0x2 0x3 0x4 0x0 0x0 0x0 0x0
2022-07-22 11:47:41,228 pymodbus.framer.socket_framer - DEBUG - Processing: 0x0 0x28 0x0 0x0 0x0 0x7 0x2 0x3 0x4 0x0 0x0 0x0 0x0
2022-07-22 11:47:41,228 pymodbus.factory - DEBUG - Factory Response[ReadHoldingRegistersResponse: 3]
2022-07-22 11:47:41,229 pymodbus.transaction - DEBUG - Adding transaction 40
2022-07-22 11:47:41,229 pymodbus.transaction - DEBUG - Getting transaction 40
2022-07-22 11:47:41,229 pymodbus.transaction - DEBUG - Changing transaction state from 'PROCESSING REPLY' to 'TRANSACTION_COMPLETE'
2022-07-22 11:47:41,229 pymodbus.transaction - DEBUG - Current transaction state - TRANSACTION_COMPLETE
2022-07-22 11:47:41,229 pymodbus.transaction - DEBUG - Running transaction 41
2022-07-22 11:47:41,229 pymodbus.transaction - DEBUG - SEND: 0x0 0x29 0x0 0x0 0x0 0x6 0x2 0x3 0x0 0x16 0x0 0x2
2022-07-22 11:47:41,229 pymodbus.client.sync - DEBUG - New Transaction state 'SENDING'
2022-07-22 11:47:41,229 pymodbus.transaction - DEBUG - Changing transaction state from 'SENDING' to 'WAITING FOR REPLY'
2022-07-22 11:47:41,259 pymodbus.transaction - DEBUG - Changing transaction state from 'WAITING FOR REPLY' to 'PROCESSING REPLY'
2022-07-22 11:47:41,260 pymodbus.transaction - DEBUG - RECV: 0x0 0x29 0x0 0x0 0x0 0x7 0x2 0x3 0x4 0x0 0x0 0x0 0x0
2022-07-22 11:47:41,260 pymodbus.framer.socket_framer - DEBUG - Processing: 0x0 0x29 0x0 0x0 0x0 0x7 0x2 0x3 0x4 0x0 0x0 0x0 0x0
2022-07-22 11:47:41,260 pymodbus.factory - DEBUG - Factory Response[ReadHoldingRegistersResponse: 3]
2022-07-22 11:47:41,260 pymodbus.transaction - DEBUG - Adding transaction 41
2022-07-22 11:47:41,260 pymodbus.transaction - DEBUG - Getting transaction 41
2022-07-22 11:47:41,260 pymodbus.transaction - DEBUG - Changing transaction state from 'PROCESSING REPLY' to 'TRANSACTION_COMPLETE'
2022-07-22 11:47:41,260 pymodbus.transaction - DEBUG - Current transaction state - TRANSACTION_COMPLETE
2022-07-22 11:47:41,260 pymodbus.transaction - DEBUG - Running transaction 42
2022-07-22 11:47:41,261 pymodbus.transaction - DEBUG - SEND: 0x0 0x2a 0x0 0x0 0x0 0x6 0x2 0x3 0x0 0x18 0x0 0x2
2022-07-22 11:47:41,261 pymodbus.client.sync - DEBUG - New Transaction state 'SENDING'
2022-07-22 11:47:41,261 pymodbus.transaction - DEBUG - Changing transaction state from 'SENDING' to 'WAITING FOR REPLY'
2022-07-22 11:47:41,291 pymodbus.transaction - DEBUG - Changing transaction state from 'WAITING FOR REPLY' to 'PROCESSING REPLY'
2022-07-22 11:47:41,292 pymodbus.transaction - DEBUG - RECV: 0x0 0x2a 0x0 0x0 0x0 0x7 0x2 0x3 0x4 0x0 0x0 0x0 0x0
2022-07-22 11:47:41,292 pymodbus.framer.socket_framer - DEBUG - Processing: 0x0 0x2a 0x0 0x0 0x0 0x7 0x2 0x3 0x4 0x0 0x0 0x0 0x0
2022-07-22 11:47:41,292 pymodbus.factory - DEBUG - Factory Response[ReadHoldingRegistersResponse: 3]
2022-07-22 11:47:41,292 pymodbus.transaction - DEBUG - Adding transaction 42
2022-07-22 11:47:41,292 pymodbus.transaction - DEBUG - Getting transaction 42
2022-07-22 11:47:41,292 pymodbus.transaction - DEBUG - Changing transaction state from 'PROCESSING REPLY' to 'TRANSACTION_COMPLETE'
2022-07-22 11:47:41,292 pymodbus.transaction - DEBUG - Current transaction state - TRANSACTION_COMPLETE
2022-07-22 11:47:41,292 pymodbus.transaction - DEBUG - Running transaction 43
2022-07-22 11:47:41,292 pymodbus.transaction - DEBUG - SEND: 0x0 0x2b 0x0 0x0 0x0 0x6 0x2 0x3 0x0 0x1a 0x0 0x2
2022-07-22 11:47:41,292 pymodbus.client.sync - DEBUG - New Transaction state 'SENDING'
2022-07-22 11:47:41,292 pymodbus.transaction - DEBUG - Changing transaction state from 'SENDING' to 'WAITING FOR REPLY'
2022-07-22 11:47:41,322 pymodbus.transaction - DEBUG - Changing transaction state from 'WAITING FOR REPLY' to 'PROCESSING REPLY'
2022-07-22 11:47:41,322 pymodbus.transaction - DEBUG - RECV: 0x0 0x2b 0x0 0x0 0x0 0x7 0x2 0x3 0x4 0x0 0x0 0x0 0x0
2022-07-22 11:47:41,322 pymodbus.framer.socket_framer - DEBUG - Processing: 0x0 0x2b 0x0 0x0 0x0 0x7 0x2 0x3 0x4 0x0 0x0 0x0 0x0
2022-07-22 11:47:41,322 pymodbus.factory - DEBUG - Factory Response[ReadHoldingRegistersResponse: 3]
2022-07-22 11:47:41,322 pymodbus.transaction - DEBUG - Adding transaction 43
2022-07-22 11:47:41,322 pymodbus.transaction - DEBUG - Getting transaction 43
2022-07-22 11:47:41,322 pymodbus.transaction - DEBUG - Changing transaction state from 'PROCESSING REPLY' to 'TRANSACTION_COMPLETE'
2022-07-22 11:47:41,322 pymodbus.transaction - DEBUG - Current transaction state - TRANSACTION_COMPLETE
2022-07-22 11:47:41,322 pymodbus.transaction - DEBUG - Running transaction 44
2022-07-22 11:47:41,322 pymodbus.transaction - DEBUG - SEND: 0x0 0x2c 0x0 0x0 0x0 0x6 0x2 0x3 0x0 0x1c 0x0 0x2
2022-07-22 11:47:41,322 pymodbus.client.sync - DEBUG - New Transaction state 'SENDING'
2022-07-22 11:47:41,322 pymodbus.transaction - DEBUG - Changing transaction state from 'SENDING' to 'WAITING FOR REPLY'
2022-07-22 11:47:41,353 pymodbus.transaction - DEBUG - Changing transaction state from 'WAITING FOR REPLY' to 'PROCESSING REPLY'
2022-07-22 11:47:41,353 pymodbus.transaction - DEBUG - RECV: 0x0 0x2c 0x0 0x0 0x0 0x7 0x2 0x3 0x4 0x0 0x0 0x0 0x0
2022-07-22 11:47:41,353 pymodbus.framer.socket_framer - DEBUG - Processing: 0x0 0x2c 0x0 0x0 0x0 0x7 0x2 0x3 0x4 0x0 0x0 0x0 0x0
2022-07-22 11:47:41,353 pymodbus.factory - DEBUG - Factory Response[ReadHoldingRegistersResponse: 3]
2022-07-22 11:47:41,353 pymodbus.transaction - DEBUG - Adding transaction 44
2022-07-22 11:47:41,353 pymodbus.transaction - DEBUG - Getting transaction 44
2022-07-22 11:47:41,353 pymodbus.transaction - DEBUG - Changing transaction state from 'PROCESSING REPLY' to 'TRANSACTION_COMPLETE'
2022-07-22 11:47:41,354 pymodbus.transaction - DEBUG - Current transaction state - TRANSACTION_COMPLETE
2022-07-22 11:47:41,354 pymodbus.transaction - DEBUG - Running transaction 45
2022-07-22 11:47:41,354 pymodbus.transaction - DEBUG - SEND: 0x0 0x2d 0x0 0x0 0x0 0x6 0x2 0x3 0x0 0x1e 0x0 0x2
2022-07-22 11:47:41,354 pymodbus.client.sync - DEBUG - New Transaction state 'SENDING'
2022-07-22 11:47:41,354 pymodbus.transaction - DEBUG - Changing transaction state from 'SENDING' to 'WAITING FOR REPLY'
2022-07-22 11:47:41,385 pymodbus.transaction - DEBUG - Changing transaction state from 'WAITING FOR REPLY' to 'PROCESSING REPLY'
2022-07-22 11:47:41,385 pymodbus.transaction - DEBUG - RECV: 0x0 0x2d 0x0 0x0 0x0 0x7 0x2 0x3 0x4 0x0 0x0 0x0 0x0
2022-07-22 11:47:41,385 pymodbus.framer.socket_framer - DEBUG - Processing: 0x0 0x2d 0x0 0x0 0x0 0x7 0x2 0x3 0x4 0x0 0x0 0x0 0x0
2022-07-22 11:47:41,385 pymodbus.factory - DEBUG - Factory Response[ReadHoldingRegistersResponse: 3]
2022-07-22 11:47:41,385 pymodbus.transaction - DEBUG - Adding transaction 45
2022-07-22 11:47:41,385 pymodbus.transaction - DEBUG - Getting transaction 45
2022-07-22 11:47:41,385 pymodbus.transaction - DEBUG - Changing transaction state from 'PROCESSING REPLY' to 'TRANSACTION_COMPLETE'
2022-07-22 11:47:41,385 pymodbus.transaction - DEBUG - Current transaction state - TRANSACTION_COMPLETE
2022-07-22 11:47:41,385 pymodbus.transaction - DEBUG - Running transaction 46
2022-07-22 11:47:41,385 pymodbus.transaction - DEBUG - SEND: 0x0 0x2e 0x0 0x0 0x0 0x6 0x2 0x3 0x0 0x20 0x0 0x2
2022-07-22 11:47:41,385 pymodbus.client.sync - DEBUG - New Transaction state 'SENDING'
2022-07-22 11:47:41,385 pymodbus.transaction - DEBUG - Changing transaction state from 'SENDING' to 'WAITING FOR REPLY'
2022-07-22 11:47:41,416 pymodbus.transaction - DEBUG - Changing transaction state from 'WAITING FOR REPLY' to 'PROCESSING REPLY'
2022-07-22 11:47:41,416 pymodbus.transaction - DEBUG - RECV: 0x0 0x2e 0x0 0x0 0x0 0x7 0x2 0x3 0x4 0x0 0x0 0x0 0x0
2022-07-22 11:47:41,416 pymodbus.framer.socket_framer - DEBUG - Processing: 0x0 0x2e 0x0 0x0 0x0 0x7 0x2 0x3 0x4 0x0 0x0 0x0 0x0
2022-07-22 11:47:41,416 pymodbus.factory - DEBUG - Factory Response[ReadHoldingRegistersResponse: 3]
2022-07-22 11:47:41,416 pymodbus.transaction - DEBUG - Adding transaction 46
2022-07-22 11:47:41,416 pymodbus.transaction - DEBUG - Getting transaction 46
2022-07-22 11:47:41,416 pymodbus.transaction - DEBUG - Changing transaction state from 'PROCESSING REPLY' to 'TRANSACTION_COMPLETE'
2022-07-22 11:47:41,417 pymodbus.transaction - DEBUG - Current transaction state - TRANSACTION_COMPLETE
2022-07-22 11:47:41,417 pymodbus.transaction - DEBUG - Running transaction 47
2022-07-22 11:47:41,417 pymodbus.transaction - DEBUG - SEND: 0x0 0x2f 0x0 0x0 0x0 0x6 0x2 0x3 0x0 0x22 0x0 0x2
2022-07-22 11:47:41,417 pymodbus.client.sync - DEBUG - New Transaction state 'SENDING'
2022-07-22 11:47:41,417 pymodbus.transaction - DEBUG - Changing transaction state from 'SENDING' to 'WAITING FOR REPLY'
2022-07-22 11:47:41,447 pymodbus.transaction - DEBUG - Changing transaction state from 'WAITING FOR REPLY' to 'PROCESSING REPLY'
2022-07-22 11:47:41,447 pymodbus.transaction - DEBUG - RECV: 0x0 0x2f 0x0 0x0 0x0 0x7 0x2 0x3 0x4 0x0 0x0 0x0 0x0
2022-07-22 11:47:41,447 pymodbus.framer.socket_framer - DEBUG - Processing: 0x0 0x2f 0x0 0x0 0x0 0x7 0x2 0x3 0x4 0x0 0x0 0x0 0x0
2022-07-22 11:47:41,447 pymodbus.factory - DEBUG - Factory Response[ReadHoldingRegistersResponse: 3]
2022-07-22 11:47:41,448 pymodbus.transaction - DEBUG - Adding transaction 47
2022-07-22 11:47:41,448 pymodbus.transaction - DEBUG - Getting transaction 47
2022-07-22 11:47:41,448 pymodbus.transaction - DEBUG - Changing transaction state from 'PROCESSING REPLY' to 'TRANSACTION_COMPLETE'
2022-07-22 11:47:41,448 pymodbus.transaction - DEBUG - Current transaction state - TRANSACTION_COMPLETE
2022-07-22 11:47:41,448 pymodbus.transaction - DEBUG - Running transaction 48
2022-07-22 11:47:41,448 pymodbus.transaction - DEBUG - SEND: 0x0 0x30 0x0 0x0 0x0 0x6 0x2 0x3 0x0 0x24 0x0 0x2
2022-07-22 11:47:41,448 pymodbus.client.sync - DEBUG - New Transaction state 'SENDING'
2022-07-22 11:47:41,448 pymodbus.transaction - DEBUG - Changing transaction state from 'SENDING' to 'WAITING FOR REPLY'
2022-07-22 11:47:41,479 pymodbus.transaction - DEBUG - Changing transaction state from 'WAITING FOR REPLY' to 'PROCESSING REPLY'
2022-07-22 11:47:41,479 pymodbus.transaction - DEBUG - RECV: 0x0 0x30 0x0 0x0 0x0 0x7 0x2 0x3 0x4 0x0 0x0 0x0 0x0
2022-07-22 11:47:41,479 pymodbus.framer.socket_framer - DEBUG - Processing: 0x0 0x30 0x0 0x0 0x0 0x7 0x2 0x3 0x4 0x0 0x0 0x0 0x0
2022-07-22 11:47:41,480 pymodbus.factory - DEBUG - Factory Response[ReadHoldingRegistersResponse: 3]
2022-07-22 11:47:41,480 pymodbus.transaction - DEBUG - Adding transaction 48
2022-07-22 11:47:41,480 pymodbus.transaction - DEBUG - Getting transaction 48
2022-07-22 11:47:41,480 pymodbus.transaction - DEBUG - Changing transaction state from 'PROCESSING REPLY' to 'TRANSACTION_COMPLETE'
2022-07-22 11:47:41,480 pymodbus.transaction - DEBUG - Current transaction state - TRANSACTION_COMPLETE
2022-07-22 11:47:41,480 pymodbus.transaction - DEBUG - Running transaction 49
2022-07-22 11:47:41,480 pymodbus.transaction - DEBUG - SEND: 0x0 0x31 0x0 0x0 0x0 0x6 0x2 0x3 0x0 0x26 0x0 0x2
2022-07-22 11:47:41,480 pymodbus.client.sync - DEBUG - New Transaction state 'SENDING'
2022-07-22 11:47:41,480 pymodbus.transaction - DEBUG - Changing transaction state from 'SENDING' to 'WAITING FOR REPLY'
2022-07-22 11:47:41,511 pymodbus.transaction - DEBUG - Changing transaction state from 'WAITING FOR REPLY' to 'PROCESSING REPLY'
2022-07-22 11:47:41,511 pymodbus.transaction - DEBUG - RECV: 0x0 0x31 0x0 0x0 0x0 0x7 0x2 0x3 0x4 0x0 0x0 0x0 0x0
2022-07-22 11:47:41,511 pymodbus.framer.socket_framer - DEBUG - Processing: 0x0 0x31 0x0 0x0 0x0 0x7 0x2 0x3 0x4 0x0 0x0 0x0 0x0
2022-07-22 11:47:41,511 pymodbus.factory - DEBUG - Factory Response[ReadHoldingRegistersResponse: 3]
2022-07-22 11:47:41,511 pymodbus.transaction - DEBUG - Adding transaction 49
2022-07-22 11:47:41,511 pymodbus.transaction - DEBUG - Getting transaction 49
2022-07-22 11:47:41,511 pymodbus.transaction - DEBUG - Changing transaction state from 'PROCESSING REPLY' to 'TRANSACTION_COMPLETE'
2022-07-22 11:47:41,511 pymodbus.transaction - DEBUG - Current transaction state - TRANSACTION_COMPLETE
2022-07-22 11:47:41,511 pymodbus.transaction - DEBUG - Running transaction 50
2022-07-22 11:47:41,511 pymodbus.transaction - DEBUG - SEND: 0x0 0x32 0x0 0x0 0x0 0x6 0x2 0x3 0x0 0x28 0x0 0x2
2022-07-22 11:47:41,513 pymodbus.client.sync - DEBUG - New Transaction state 'SENDING'
2022-07-22 11:47:41,513 pymodbus.transaction - DEBUG - Changing transaction state from 'SENDING' to 'WAITING FOR REPLY'
2022-07-22 11:47:41,542 pymodbus.transaction - DEBUG - Changing transaction state from 'WAITING FOR REPLY' to 'PROCESSING REPLY'
2022-07-22 11:47:41,542 pymodbus.transaction - DEBUG - RECV: 0x0 0x32 0x0 0x0 0x0 0x7 0x2 0x3 0x4 0x0 0x0 0x0 0x0
2022-07-22 11:47:41,542 pymodbus.framer.socket_framer - DEBUG - Processing: 0x0 0x32 0x0 0x0 0x0 0x7 0x2 0x3 0x4 0x0 0x0 0x0 0x0
2022-07-22 11:47:41,543 pymodbus.factory - DEBUG - Factory Response[ReadHoldingRegistersResponse: 3]
2022-07-22 11:47:41,543 pymodbus.transaction - DEBUG - Adding transaction 50
2022-07-22 11:47:41,543 pymodbus.transaction - DEBUG - Getting transaction 50
2022-07-22 11:47:41,543 pymodbus.transaction - DEBUG - Changing transaction state from 'PROCESSING REPLY' to 'TRANSACTION_COMPLETE'
2022-07-22 11:47:41,543 pymodbus.transaction - DEBUG - Current transaction state - TRANSACTION_COMPLETE
2022-07-22 11:47:41,543 pymodbus.transaction - DEBUG - Running transaction 51
2022-07-22 11:47:41,543 pymodbus.transaction - DEBUG - SEND: 0x0 0x33 0x0 0x0 0x0 0x6 0x2 0x3 0x0 0x2a 0x0 0x2
2022-07-22 11:47:41,543 pymodbus.client.sync - DEBUG - New Transaction state 'SENDING'
2022-07-22 11:47:41,543 pymodbus.transaction - DEBUG - Changing transaction state from 'SENDING' to 'WAITING FOR REPLY'
2022-07-22 11:47:41,573 pymodbus.transaction - DEBUG - Changing transaction state from 'WAITING FOR REPLY' to 'PROCESSING REPLY'
2022-07-22 11:47:41,573 pymodbus.transaction - DEBUG - RECV: 0x0 0x33 0x0 0x0 0x0 0x7 0x2 0x3 0x4 0x0 0x0 0x0 0x0
2022-07-22 11:47:41,573 pymodbus.framer.socket_framer - DEBUG - Processing: 0x0 0x33 0x0 0x0 0x0 0x7 0x2 0x3 0x4 0x0 0x0 0x0 0x0
2022-07-22 11:47:41,574 pymodbus.factory - DEBUG - Factory Response[ReadHoldingRegistersResponse: 3]
2022-07-22 11:47:41,574 pymodbus.transaction - DEBUG - Adding transaction 51
2022-07-22 11:47:41,574 pymodbus.transaction - DEBUG - Getting transaction 51
2022-07-22 11:47:41,574 pymodbus.transaction - DEBUG - Changing transaction state from 'PROCESSING REPLY' to 'TRANSACTION_COMPLETE'
2022-07-22 11:47:41,574 pymodbus.transaction - DEBUG - Current transaction state - TRANSACTION_COMPLETE
2022-07-22 11:47:41,574 pymodbus.transaction - DEBUG - Running transaction 52
2022-07-22 11:47:41,574 pymodbus.transaction - DEBUG - SEND: 0x0 0x34 0x0 0x0 0x0 0x6 0x2 0x3 0x0 0x2c 0x0 0x2
2022-07-22 11:47:41,574 pymodbus.client.sync - DEBUG - New Transaction state 'SENDING'
2022-07-22 11:47:41,574 pymodbus.transaction - DEBUG - Changing transaction state from 'SENDING' to 'WAITING FOR REPLY'
2022-07-22 11:47:41,604 pymodbus.transaction - DEBUG - Changing transaction state from 'WAITING FOR REPLY' to 'PROCESSING REPLY'
2022-07-22 11:47:41,604 pymodbus.transaction - DEBUG - RECV: 0x0 0x34 0x0 0x0 0x0 0x7 0x2 0x3 0x4 0x0 0x0 0x0 0x0
2022-07-22 11:47:41,605 pymodbus.framer.socket_framer - DEBUG - Processing: 0x0 0x34 0x0 0x0 0x0 0x7 0x2 0x3 0x4 0x0 0x0 0x0 0x0
2022-07-22 11:47:41,605 pymodbus.factory - DEBUG - Factory Response[ReadHoldingRegistersResponse: 3]
2022-07-22 11:47:41,605 pymodbus.transaction - DEBUG - Adding transaction 52
2022-07-22 11:47:41,605 pymodbus.transaction - DEBUG - Getting transaction 52
2022-07-22 11:47:41,605 pymodbus.transaction - DEBUG - Changing transaction state from 'PROCESSING REPLY' to 'TRANSACTION_COMPLETE'
2022-07-22 11:47:41,605 pymodbus.transaction - DEBUG - Current transaction state - TRANSACTION_COMPLETE
2022-07-22 11:47:41,605 pymodbus.transaction - DEBUG - Running transaction 53
2022-07-22 11:47:41,605 pymodbus.transaction - DEBUG - SEND: 0x0 0x35 0x0 0x0 0x0 0x6 0x2 0x3 0x0 0x2e 0x0 0x2
2022-07-22 11:47:41,606 pymodbus.client.sync - DEBUG - New Transaction state 'SENDING'
2022-07-22 11:47:41,606 pymodbus.transaction - DEBUG - Changing transaction state from 'SENDING' to 'WAITING FOR REPLY'
2022-07-22 11:47:41,636 pymodbus.transaction - DEBUG - Changing transaction state from 'WAITING FOR REPLY' to 'PROCESSING REPLY'
2022-07-22 11:47:41,636 pymodbus.transaction - DEBUG - RECV: 0x0 0x35 0x0 0x0 0x0 0x7 0x2 0x3 0x4 0x0 0x0 0x0 0x0
2022-07-22 11:47:41,636 pymodbus.framer.socket_framer - DEBUG - Processing: 0x0 0x35 0x0 0x0 0x0 0x7 0x2 0x3 0x4 0x0 0x0 0x0 0x0
2022-07-22 11:47:41,636 pymodbus.factory - DEBUG - Factory Response[ReadHoldingRegistersResponse: 3]
2022-07-22 11:47:41,636 pymodbus.transaction - DEBUG - Adding transaction 53
2022-07-22 11:47:41,636 pymodbus.transaction - DEBUG - Getting transaction 53
2022-07-22 11:47:41,636 pymodbus.transaction - DEBUG - Changing transaction state from 'PROCESSING REPLY' to 'TRANSACTION_COMPLETE'
2022-07-22 11:47:41,637 pymodbus.transaction - DEBUG - Current transaction state - TRANSACTION_COMPLETE
2022-07-22 11:47:41,637 pymodbus.transaction - DEBUG - Running transaction 54
2022-07-22 11:47:41,637 pymodbus.transaction - DEBUG - SEND: 0x0 0x36 0x0 0x0 0x0 0x6 0x2 0x3 0x0 0x30 0x0 0x2
2022-07-22 11:47:41,637 pymodbus.client.sync - DEBUG - New Transaction state 'SENDING'
2022-07-22 11:47:41,637 pymodbus.transaction - DEBUG - Changing transaction state from 'SENDING' to 'WAITING FOR REPLY'
2022-07-22 11:47:41,667 pymodbus.transaction - DEBUG - Changing transaction state from 'WAITING FOR REPLY' to 'PROCESSING REPLY'
2022-07-22 11:47:41,667 pymodbus.transaction - DEBUG - RECV: 0x0 0x36 0x0 0x0 0x0 0x7 0x2 0x3 0x4 0x0 0x0 0x0 0x0
2022-07-22 11:47:41,667 pymodbus.framer.socket_framer - DEBUG - Processing: 0x0 0x36 0x0 0x0 0x0 0x7 0x2 0x3 0x4 0x0 0x0 0x0 0x0
2022-07-22 11:47:41,667 pymodbus.factory - DEBUG - Factory Response[ReadHoldingRegistersResponse: 3]
2022-07-22 11:47:41,667 pymodbus.transaction - DEBUG - Adding transaction 54
2022-07-22 11:47:41,667 pymodbus.transaction - DEBUG - Getting transaction 54
2022-07-22 11:47:41,667 pymodbus.transaction - DEBUG - Changing transaction state from 'PROCESSING REPLY' to 'TRANSACTION_COMPLETE'
2022-07-22 11:47:41,668 pymodbus.transaction - DEBUG - Current transaction state - TRANSACTION_COMPLETE
2022-07-22 11:47:41,668 pymodbus.transaction - DEBUG - Running transaction 55
2022-07-22 11:47:41,668 pymodbus.transaction - DEBUG - SEND: 0x0 0x37 0x0 0x0 0x0 0x6 0x2 0x3 0x0 0x32 0x0 0x2
2022-07-22 11:47:41,668 pymodbus.client.sync - DEBUG - New Transaction state 'SENDING'
2022-07-22 11:47:41,668 pymodbus.transaction - DEBUG - Changing transaction state from 'SENDING' to 'WAITING FOR REPLY'
2022-07-22 11:47:41,696 pymodbus.transaction - DEBUG - Changing transaction state from 'WAITING FOR REPLY' to 'PROCESSING REPLY'
2022-07-22 11:47:41,696 pymodbus.transaction - DEBUG - RECV: 0x0 0x37 0x0 0x0 0x0 0x7 0x2 0x3 0x4 0x0 0x0 0x0 0x0
2022-07-22 11:47:41,696 pymodbus.framer.socket_framer - DEBUG - Processing: 0x0 0x37 0x0 0x0 0x0 0x7 0x2 0x3 0x4 0x0 0x0 0x0 0x0
2022-07-22 11:47:41,696 pymodbus.factory - DEBUG - Factory Response[ReadHoldingRegistersResponse: 3]
2022-07-22 11:47:41,696 pymodbus.transaction - DEBUG - Adding transaction 55
2022-07-22 11:47:41,696 pymodbus.transaction - DEBUG - Getting transaction 55
2022-07-22 11:47:41,696 pymodbus.transaction - DEBUG - Changing transaction state from 'PROCESSING REPLY' to 'TRANSACTION_COMPLETE'
2022-07-22 11:47:41,696 pymodbus.transaction - DEBUG - Current transaction state - TRANSACTION_COMPLETE
2022-07-22 11:47:41,696 pymodbus.transaction - DEBUG - Running transaction 56
2022-07-22 11:47:41,697 pymodbus.transaction - DEBUG - SEND: 0x0 0x38 0x0 0x0 0x0 0x6 0x2 0x3 0x0 0x34 0x0 0x2
2022-07-22 11:47:41,697 pymodbus.client.sync - DEBUG - New Transaction state 'SENDING'
2022-07-22 11:47:41,697 pymodbus.transaction - DEBUG - Changing transaction state from 'SENDING' to 'WAITING FOR REPLY'
2022-07-22 11:47:41,727 pymodbus.transaction - DEBUG - Changing transaction state from 'WAITING FOR REPLY' to 'PROCESSING REPLY'
2022-07-22 11:47:41,727 pymodbus.transaction - DEBUG - RECV: 0x0 0x38 0x0 0x0 0x0 0x7 0x2 0x3 0x4 0x0 0x0 0x0 0x0
2022-07-22 11:47:41,727 pymodbus.framer.socket_framer - DEBUG - Processing: 0x0 0x38 0x0 0x0 0x0 0x7 0x2 0x3 0x4 0x0 0x0 0x0 0x0
2022-07-22 11:47:41,728 pymodbus.factory - DEBUG - Factory Response[ReadHoldingRegistersResponse: 3]
2022-07-22 11:47:41,728 pymodbus.transaction - DEBUG - Adding transaction 56
2022-07-22 11:47:41,728 pymodbus.transaction - DEBUG - Getting transaction 56
2022-07-22 11:47:41,728 pymodbus.transaction - DEBUG - Changing transaction state from 'PROCESSING REPLY' to 'TRANSACTION_COMPLETE'
2022-07-22 11:47:41,728 pymodbus.transaction - DEBUG - Current transaction state - TRANSACTION_COMPLETE
2022-07-22 11:47:41,728 pymodbus.transaction - DEBUG - Running transaction 57
2022-07-22 11:47:41,728 pymodbus.transaction - DEBUG - SEND: 0x0 0x39 0x0 0x0 0x0 0x6 0x2 0x3 0x0 0x36 0x0 0x2
2022-07-22 11:47:41,728 pymodbus.client.sync - DEBUG - New Transaction state 'SENDING'
2022-07-22 11:47:41,728 pymodbus.transaction - DEBUG - Changing transaction state from 'SENDING' to 'WAITING FOR REPLY'
2022-07-22 11:47:41,759 pymodbus.transaction - DEBUG - Changing transaction state from 'WAITING FOR REPLY' to 'PROCESSING REPLY'
2022-07-22 11:47:41,759 pymodbus.transaction - DEBUG - RECV: 0x0 0x39 0x0 0x0 0x0 0x7 0x2 0x3 0x4 0x0 0x0 0x0 0x0
2022-07-22 11:47:41,759 pymodbus.framer.socket_framer - DEBUG - Processing: 0x0 0x39 0x0 0x0 0x0 0x7 0x2 0x3 0x4 0x0 0x0 0x0 0x0
2022-07-22 11:47:41,760 pymodbus.factory - DEBUG - Factory Response[ReadHoldingRegistersResponse: 3]
2022-07-22 11:47:41,760 pymodbus.transaction - DEBUG - Adding transaction 57
2022-07-22 11:47:41,760 pymodbus.transaction - DEBUG - Getting transaction 57
2022-07-22 11:47:41,760 pymodbus.transaction - DEBUG - Changing transaction state from 'PROCESSING REPLY' to 'TRANSACTION_COMPLETE'
2022-07-22 11:47:41,760 pymodbus.transaction - DEBUG - Current transaction state - TRANSACTION_COMPLETE
2022-07-22 11:47:41,760 pymodbus.transaction - DEBUG - Running transaction 58
2022-07-22 11:47:41,760 pymodbus.transaction - DEBUG - SEND: 0x0 0x3a 0x0 0x0 0x0 0x6 0x2 0x3 0x0 0x38 0x0 0x2
2022-07-22 11:47:41,760 pymodbus.client.sync - DEBUG - New Transaction state 'SENDING'
2022-07-22 11:47:41,760 pymodbus.transaction - DEBUG - Changing transaction state from 'SENDING' to 'WAITING FOR REPLY'
2022-07-22 11:47:41,789 pymodbus.transaction - DEBUG - Changing transaction state from 'WAITING FOR REPLY' to 'PROCESSING REPLY'
2022-07-22 11:47:41,790 pymodbus.transaction - DEBUG - RECV: 0x0 0x3a 0x0 0x0 0x0 0x7 0x2 0x3 0x4 0x0 0x0 0x0 0x0
2022-07-22 11:47:41,790 pymodbus.framer.socket_framer - DEBUG - Processing: 0x0 0x3a 0x0 0x0 0x0 0x7 0x2 0x3 0x4 0x0 0x0 0x0 0x0
2022-07-22 11:47:41,790 pymodbus.factory - DEBUG - Factory Response[ReadHoldingRegistersResponse: 3]
2022-07-22 11:47:41,790 pymodbus.transaction - DEBUG - Adding transaction 58
2022-07-22 11:47:41,790 pymodbus.transaction - DEBUG - Getting transaction 58
2022-07-22 11:47:41,790 pymodbus.transaction - DEBUG - Changing transaction state from 'PROCESSING REPLY' to 'TRANSACTION_COMPLETE'
2022-07-22 11:47:41,790 pymodbus.transaction - DEBUG - Current transaction state - TRANSACTION_COMPLETE
2022-07-22 11:47:41,790 pymodbus.transaction - DEBUG - Running transaction 59
2022-07-22 11:47:41,791 pymodbus.transaction - DEBUG - SEND: 0x0 0x3b 0x0 0x0 0x0 0x6 0x2 0x3 0x0 0x3a 0x0 0x2
2022-07-22 11:47:41,791 pymodbus.client.sync - DEBUG - New Transaction state 'SENDING'
2022-07-22 11:47:41,791 pymodbus.transaction - DEBUG - Changing transaction state from 'SENDING' to 'WAITING FOR REPLY'
2022-07-22 11:47:41,821 pymodbus.transaction - DEBUG - Changing transaction state from 'WAITING FOR REPLY' to 'PROCESSING REPLY'
2022-07-22 11:47:41,821 pymodbus.transaction - DEBUG - RECV: 0x0 0x3b 0x0 0x0 0x0 0x7 0x2 0x3 0x4 0x0 0x0 0x0 0x0
2022-07-22 11:47:41,821 pymodbus.framer.socket_framer - DEBUG - Processing: 0x0 0x3b 0x0 0x0 0x0 0x7 0x2 0x3 0x4 0x0 0x0 0x0 0x0
2022-07-22 11:47:41,821 pymodbus.factory - DEBUG - Factory Response[ReadHoldingRegistersResponse: 3]
2022-07-22 11:47:41,821 pymodbus.transaction - DEBUG - Adding transaction 59
2022-07-22 11:47:41,821 pymodbus.transaction - DEBUG - Getting transaction 59
2022-07-22 11:47:41,821 pymodbus.transaction - DEBUG - Changing transaction state from 'PROCESSING REPLY' to 'TRANSACTION_COMPLETE'
2022-07-22 11:47:41,821 pymodbus.transaction - DEBUG - Current transaction state - TRANSACTION_COMPLETE
2022-07-22 11:47:41,821 pymodbus.transaction - DEBUG - Running transaction 60
2022-07-22 11:47:41,822 pymodbus.transaction - DEBUG - SEND: 0x0 0x3c 0x0 0x0 0x0 0x6 0x2 0x3 0x0 0x3c 0x0 0x2
2022-07-22 11:47:41,822 pymodbus.client.sync - DEBUG - New Transaction state 'SENDING'
2022-07-22 11:47:41,822 pymodbus.transaction - DEBUG - Changing transaction state from 'SENDING' to 'WAITING FOR REPLY'
2022-07-22 11:47:41,853 pymodbus.transaction - DEBUG - Changing transaction state from 'WAITING FOR REPLY' to 'PROCESSING REPLY'
2022-07-22 11:47:41,853 pymodbus.transaction - DEBUG - RECV: 0x0 0x3c 0x0 0x0 0x0 0x7 0x2 0x3 0x4 0x0 0x0 0x0 0x0
2022-07-22 11:47:41,853 pymodbus.framer.socket_framer - DEBUG - Processing: 0x0 0x3c 0x0 0x0 0x0 0x7 0x2 0x3 0x4 0x0 0x0 0x0 0x0
2022-07-22 11:47:41,853 pymodbus.factory - DEBUG - Factory Response[ReadHoldingRegistersResponse: 3]
2022-07-22 11:47:41,853 pymodbus.transaction - DEBUG - Adding transaction 60
2022-07-22 11:47:41,853 pymodbus.transaction - DEBUG - Getting transaction 60
2022-07-22 11:47:41,853 pymodbus.transaction - DEBUG - Changing transaction state from 'PROCESSING REPLY' to 'TRANSACTION_COMPLETE'
2022-07-22 11:47:41,853 pymodbus.transaction - DEBUG - Current transaction state - TRANSACTION_COMPLETE
2022-07-22 11:47:41,853 pymodbus.transaction - DEBUG - Running transaction 61
2022-07-22 11:47:41,853 pymodbus.transaction - DEBUG - SEND: 0x0 0x3d 0x0 0x0 0x0 0x6 0x2 0x3 0x0 0x40 0x0 0x2
2022-07-22 11:47:41,853 pymodbus.client.sync - DEBUG - New Transaction state 'SENDING'
2022-07-22 11:47:41,853 pymodbus.transaction - DEBUG - Changing transaction state from 'SENDING' to 'WAITING FOR REPLY'
2022-07-22 11:47:41,883 pymodbus.transaction - DEBUG - Changing transaction state from 'WAITING FOR REPLY' to 'PROCESSING REPLY'
2022-07-22 11:47:41,884 pymodbus.transaction - DEBUG - RECV: 0x0 0x3d 0x0 0x0 0x0 0x7 0x2 0x3 0x4 0x0 0x0 0x0 0x0
2022-07-22 11:47:41,884 pymodbus.framer.socket_framer - DEBUG - Processing: 0x0 0x3d 0x0 0x0 0x0 0x7 0x2 0x3 0x4 0x0 0x0 0x0 0x0
2022-07-22 11:47:41,884 pymodbus.factory - DEBUG - Factory Response[ReadHoldingRegistersResponse: 3]
2022-07-22 11:47:41,884 pymodbus.transaction - DEBUG - Adding transaction 61
2022-07-22 11:47:41,884 pymodbus.transaction - DEBUG - Getting transaction 61
2022-07-22 11:47:41,884 pymodbus.transaction - DEBUG - Changing transaction state from 'PROCESSING REPLY' to 'TRANSACTION_COMPLETE'
2022-07-22 11:47:41,884 pymodbus.transaction - DEBUG - Current transaction state - TRANSACTION_COMPLETE
2022-07-22 11:47:41,884 pymodbus.transaction - DEBUG - Running transaction 62
2022-07-22 11:47:41,884 pymodbus.transaction - DEBUG - SEND: 0x0 0x3e 0x0 0x0 0x0 0x6 0x2 0x3 0x0 0x3e 0x0 0x2
2022-07-22 11:47:41,884 pymodbus.client.sync - DEBUG - New Transaction state 'SENDING'
2022-07-22 11:47:41,884 pymodbus.transaction - DEBUG - Changing transaction state from 'SENDING' to 'WAITING FOR REPLY'
2022-07-22 11:47:41,915 pymodbus.transaction - DEBUG - Changing transaction state from 'WAITING FOR REPLY' to 'PROCESSING REPLY'
2022-07-22 11:47:41,915 pymodbus.transaction - DEBUG - RECV: 0x0 0x3e 0x0 0x0 0x0 0x7 0x2 0x3 0x4 0x0 0x0 0x0 0x0
2022-07-22 11:47:41,915 pymodbus.framer.socket_framer - DEBUG - Processing: 0x0 0x3e 0x0 0x0 0x0 0x7 0x2 0x3 0x4 0x0 0x0 0x0 0x0
2022-07-22 11:47:41,915 pymodbus.factory - DEBUG - Factory Response[ReadHoldingRegistersResponse: 3]
2022-07-22 11:47:41,915 pymodbus.transaction - DEBUG - Adding transaction 62
2022-07-22 11:47:41,915 pymodbus.transaction - DEBUG - Getting transaction 62
2022-07-22 11:47:41,915 pymodbus.transaction - DEBUG - Changing transaction state from 'PROCESSING REPLY' to 'TRANSACTION_COMPLETE'
2022-07-22 11:47:41,916 log1 - DEBUG - Reading Register Complete
2022-07-22 11:47:41,918 log1 - DEBUG - Posting Data to DB
2022-07-22 11:47:41,918 urllib3.connectionpool - DEBUG - Resetting dropped connection: 192.168.1.36
2022-07-22 11:47:41,931 urllib3.connectionpool - DEBUG - http://192.168.1.36:4000 "POST /data HTTP/1.1" 200 20
2022-07-22 11:47:41,931 root - DEBUG - {"index":0,"code":2}
2022-07-22 11:47:41,931 log1 - DEBUG - {'timestamp': 1658461660, 'dc_main_contactor': 1.0, 'stk1_contactor': 80.0, 'primary_positive_pump': 23.0, 'primary_negative_pump': 4.0, 'system_mode': 0, 'system_alarm_status': 0, 'balancing_valve': 0.0, 'positive_valve': 0.0, 'negative_valve': 0.0, 'state_of_charge': 0.0, 'bcu_mode_status': 0.0, 'bcu_voltage': 0.0, 'bcu_current': 0.0, 'bcu_power': 0.0, 'bcu_state_of_charge': 0.0, 'bcu_hydrogen_sensor': 0.0, 'bcu_leakage_sensor': 0.0, 'smoke_sensor': 0.0, 'bcu_ocv': 0.0, 'bcu_positive_tank_temp': 0.0, 'bcu_negative_tank_temp': 0.0, 'positive_tank_high_level_float': 0.0, 'negative_tank_high_level_float': 0.0, 'positive_tank_low_level_float': 0.0, 'negative_tank_low_level_float': 0.0, 'primary_stack_voltage': 0.0, 'primary_stack_current': 0.0, 'primary_stack_positive_pressure_sensor': 0.0, 'primary_stack_negative_pressure_sensor': 0.0, 'positive_stack_pressure_delta': 0.0, 'b1_primary_stack_pressure_delta': 0.0, 'sensor_temp': 0.0, 'humidity': 0.0, 'bms_timestamp': 0, 'plc_alarm_status_1': 0}
2022-07-22 11:47:41,933 log1 - DEBUG - POST Complete
2022-07-22 11:47:46,943 root - DEBUG - Reading Registers
2022-07-22 11:47:46,944 log1 - DEBUG - Reading Registers
2022-07-22 11:47:46,945 pymodbus.transaction - DEBUG - Current transaction state - TRANSACTION_COMPLETE
2022-07-22 11:47:46,945 pymodbus.transaction - DEBUG - Running transaction 63
2022-07-22 11:47:46,945 pymodbus.transaction - DEBUG - SEND: 0x0 0x3f 0x0 0x0 0x0 0x6 0x2 0x3 0x0 0x0 0x0 0x2
2022-07-22 11:47:46,945 pymodbus.client.sync - DEBUG - New Transaction state 'SENDING'
2022-07-22 11:47:46,945 pymodbus.transaction - DEBUG - Changing transaction state from 'SENDING' to 'WAITING FOR REPLY'
2022-07-22 11:47:46,959 pymodbus.transaction - DEBUG - Changing transaction state from 'WAITING FOR REPLY' to 'PROCESSING REPLY'
2022-07-22 11:47:46,960 pymodbus.transaction - DEBUG - RECV: 0x0 0x3f 0x0 0x0 0x0 0x7 0x2 0x3 0x4 0x0 0x1 0x0 0x1
2022-07-22 11:47:46,960 pymodbus.framer.socket_framer - DEBUG - Processing: 0x0 0x3f 0x0 0x0 0x0 0x7 0x2 0x3 0x4 0x0 0x1 0x0 0x1
2022-07-22 11:47:46,960 pymodbus.factory - DEBUG - Factory Response[ReadHoldingRegistersResponse: 3]
2022-07-22 11:47:46,960 pymodbus.transaction - DEBUG - Adding transaction 63
2022-07-22 11:47:46,960 pymodbus.transaction - DEBUG - Getting transaction 63
2022-07-22 11:47:46,960 pymodbus.transaction - DEBUG - Changing transaction state from 'PROCESSING REPLY' to 'TRANSACTION_COMPLETE'
2022-07-22 11:47:46,960 pymodbus.transaction - DEBUG - Current transaction state - TRANSACTION_COMPLETE
2022-07-22 11:47:46,960 pymodbus.transaction - DEBUG - Running transaction 64
2022-07-22 11:47:46,961 pymodbus.transaction - DEBUG - SEND: 0x0 0x40 0x0 0x0 0x0 0x6 0x2 0x3 0x0 0x2 0x0 0x2
2022-07-22 11:47:46,961 pymodbus.client.sync - DEBUG - New Transaction state 'SENDING'
2022-07-22 11:47:46,961 pymodbus.transaction - DEBUG - Changing transaction state from 'SENDING' to 'WAITING FOR REPLY'
2022-07-22 11:47:46,991 pymodbus.transaction - DEBUG - Changing transaction state from 'WAITING FOR REPLY' to 'PROCESSING REPLY'
2022-07-22 11:47:46,991 pymodbus.transaction - DEBUG - RECV: 0x0 0x40 0x0 0x0 0x0 0x7 0x2 0x3 0x4 0x0 0x0 0x0 0x50
2022-07-22 11:47:46,991 pymodbus.framer.socket_framer - DEBUG - Processing: 0x0 0x40 0x0 0x0 0x0 0x7 0x2 0x3 0x4 0x0 0x0 0x0 0x50
2022-07-22 11:47:46,991 pymodbus.factory - DEBUG - Factory Response[ReadHoldingRegistersResponse: 3]
2022-07-22 11:47:46,991 pymodbus.transaction - DEBUG - Adding transaction 64
2022-07-22 11:47:46,993 pymodbus.transaction - DEBUG - Getting transaction 64
2022-07-22 11:47:46,993 pymodbus.transaction - DEBUG - Changing transaction state from 'PROCESSING REPLY' to 'TRANSACTION_COMPLETE'
2022-07-22 11:47:46,993 pymodbus.transaction - DEBUG - Current transaction state - TRANSACTION_COMPLETE
2022-07-22 11:47:46,993 pymodbus.transaction - DEBUG - Running transaction 65
2022-07-22 11:47:46,993 pymodbus.transaction - DEBUG - SEND: 0x0 0x41 0x0 0x0 0x0 0x6 0x2 0x3 0x0 0x4 0x0 0x2
2022-07-22 11:47:46,993 pymodbus.client.sync - DEBUG - New Transaction state 'SENDING'
2022-07-22 11:47:46,993 pymodbus.transaction - DEBUG - Changing transaction state from 'SENDING' to 'WAITING FOR REPLY'
2022-07-22 11:47:47,022 pymodbus.transaction - DEBUG - Changing transaction state from 'WAITING FOR REPLY' to 'PROCESSING REPLY'
2022-07-22 11:47:47,022 pymodbus.transaction - DEBUG - RECV: 0x0 0x41 0x0 0x0 0x0 0x7 0x2 0x3 0x4 0x0 0x0 0x0 0x17
2022-07-22 11:47:47,023 pymodbus.framer.socket_framer - DEBUG - Processing: 0x0 0x41 0x0 0x0 0x0 0x7 0x2 0x3 0x4 0x0 0x0 0x0 0x17
2022-07-22 11:47:47,023 pymodbus.factory - DEBUG - Factory Response[ReadHoldingRegistersResponse: 3]
2022-07-22 11:47:47,023 pymodbus.transaction - DEBUG - Adding transaction 65
2022-07-22 11:47:47,023 pymodbus.transaction - DEBUG - Getting transaction 65
2022-07-22 11:47:47,023 pymodbus.transaction - DEBUG - Changing transaction state from 'PROCESSING REPLY' to 'TRANSACTION_COMPLETE'
2022-07-22 11:47:47,023 pymodbus.transaction - DEBUG - Current transaction state - TRANSACTION_COMPLETE
2022-07-22 11:47:47,023 pymodbus.transaction - DEBUG - Running transaction 66
2022-07-22 11:47:47,023 pymodbus.transaction - DEBUG - SEND: 0x0 0x42 0x0 0x0 0x0 0x6 0x2 0x3 0x0 0x6 0x0 0x2
2022-07-22 11:47:47,024 pymodbus.client.sync - DEBUG - New Transaction state 'SENDING'
2022-07-22 11:47:47,024 pymodbus.transaction - DEBUG - Changing transaction state from 'SENDING' to 'WAITING FOR REPLY'
2022-07-22 11:47:47,053 pymodbus.transaction - DEBUG - Changing transaction state from 'WAITING FOR REPLY' to 'PROCESSING REPLY'
2022-07-22 11:47:47,053 pymodbus.transaction - DEBUG - RECV: 0x0 0x42 0x0 0x0 0x0 0x7 0x2 0x3 0x4 0x0 0x0 0x0 0x4
2022-07-22 11:47:47,054 pymodbus.framer.socket_framer - DEBUG - Processing: 0x0 0x42 0x0 0x0 0x0 0x7 0x2 0x3 0x4 0x0 0x0 0x0 0x4
2022-07-22 11:47:47,054 pymodbus.factory - DEBUG - Factory Response[ReadHoldingRegistersResponse: 3]
2022-07-22 11:47:47,054 pymodbus.transaction - DEBUG - Adding transaction 66
2022-07-22 11:47:47,054 pymodbus.transaction - DEBUG - Getting transaction 66
2022-07-22 11:47:47,054 pymodbus.transaction - DEBUG - Changing transaction state from 'PROCESSING REPLY' to 'TRANSACTION_COMPLETE'
2022-07-22 11:47:47,054 pymodbus.transaction - DEBUG - Current transaction state - TRANSACTION_COMPLETE
2022-07-22 11:47:47,054 pymodbus.transaction - DEBUG - Running transaction 67
2022-07-22 11:47:47,055 pymodbus.transaction - DEBUG - SEND: 0x0 0x43 0x0 0x0 0x0 0x6 0x2 0x3 0x0 0xc 0x0 0x2
2022-07-22 11:47:47,055 pymodbus.client.sync - DEBUG - New Transaction state 'SENDING'
2022-07-22 11:47:47,055 pymodbus.transaction - DEBUG - Changing transaction state from 'SENDING' to 'WAITING FOR REPLY'
2022-07-22 11:47:47,084 pymodbus.transaction - DEBUG - Changing transaction state from 'WAITING FOR REPLY' to 'PROCESSING REPLY'
2022-07-22 11:47:47,084 pymodbus.transaction - DEBUG - RECV: 0x0 0x43 0x0 0x0 0x0 0x7 0x2 0x3 0x4 0x0 0x0 0x0 0x0
2022-07-22 11:47:47,084 pymodbus.framer.socket_framer - DEBUG - Processing: 0x0 0x43 0x0 0x0 0x0 0x7 0x2 0x3 0x4 0x0 0x0 0x0 0x0
2022-07-22 11:47:47,085 pymodbus.factory - DEBUG - Factory Response[ReadHoldingRegistersResponse: 3]
2022-07-22 11:47:47,085 pymodbus.transaction - DEBUG - Adding transaction 67
2022-07-22 11:47:47,085 pymodbus.transaction - DEBUG - Getting transaction 67
2022-07-22 11:47:47,085 pymodbus.transaction - DEBUG - Changing transaction state from 'PROCESSING REPLY' to 'TRANSACTION_COMPLETE'
2022-07-22 11:47:47,085 pymodbus.transaction - DEBUG - Current transaction state - TRANSACTION_COMPLETE
2022-07-22 11:47:47,085 pymodbus.transaction - DEBUG - Running transaction 68
2022-07-22 11:47:47,085 pymodbus.transaction - DEBUG - SEND: 0x0 0x44 0x0 0x0 0x0 0x6 0x2 0x3 0x0 0xe 0x0 0x2
2022-07-22 11:47:47,085 pymodbus.client.sync - DEBUG - New Transaction state 'SENDING'
2022-07-22 11:47:47,085 pymodbus.transaction - DEBUG - Changing transaction state from 'SENDING' to 'WAITING FOR REPLY'
2022-07-22 11:47:47,116 pymodbus.transaction - DEBUG - Changing transaction state from 'WAITING FOR REPLY' to 'PROCESSING REPLY'
2022-07-22 11:47:47,116 pymodbus.transaction - DEBUG - RECV: 0x0 0x44 0x0 0x0 0x0 0x7 0x2 0x3 0x4 0x0 0x0 0x0 0x0
2022-07-22 11:47:47,116 pymodbus.framer.socket_framer - DEBUG - Processing: 0x0 0x44 0x0 0x0 0x0 0x7 0x2 0x3 0x4 0x0 0x0 0x0 0x0
2022-07-22 11:47:47,117 pymodbus.factory - DEBUG - Factory Response[ReadHoldingRegistersResponse: 3]
2022-07-22 11:47:47,117 pymodbus.transaction - DEBUG - Adding transaction 68
2022-07-22 11:47:47,117 pymodbus.transaction - DEBUG - Getting transaction 68
2022-07-22 11:47:47,117 pymodbus.transaction - DEBUG - Changing transaction state from 'PROCESSING REPLY' to 'TRANSACTION_COMPLETE'
2022-07-22 11:47:47,117 pymodbus.transaction - DEBUG - Current transaction state - TRANSACTION_COMPLETE
2022-07-22 11:47:47,117 pymodbus.transaction - DEBUG - Running transaction 69
2022-07-22 11:47:47,117 pymodbus.transaction - DEBUG - SEND: 0x0 0x45 0x0 0x0 0x0 0x6 0x2 0x3 0x0 0x10 0x0 0x2
2022-07-22 11:47:47,117 pymodbus.client.sync - DEBUG - New Transaction state 'SENDING'
2022-07-22 11:47:47,118 pymodbus.transaction - DEBUG - Changing transaction state from 'SENDING' to 'WAITING FOR REPLY'
2022-07-22 11:47:47,147 pymodbus.transaction - DEBUG - Changing transaction state from 'WAITING FOR REPLY' to 'PROCESSING REPLY'
2022-07-22 11:47:47,147 pymodbus.transaction - DEBUG - RECV: 0x0 0x45 0x0 0x0 0x0 0x7 0x2 0x3 0x4 0x0 0x0 0x0 0x0
2022-07-22 11:47:47,148 pymodbus.framer.socket_framer - DEBUG - Processing: 0x0 0x45 0x0 0x0 0x0 0x7 0x2 0x3 0x4 0x0 0x0 0x0 0x0
2022-07-22 11:47:47,148 pymodbus.factory - DEBUG - Factory Response[ReadHoldingRegistersResponse: 3]
2022-07-22 11:47:47,148 pymodbus.transaction - DEBUG - Adding transaction 69
2022-07-22 11:47:47,148 pymodbus.transaction - DEBUG - Getting transaction 69
2022-07-22 11:47:47,148 pymodbus.transaction - DEBUG - Changing transaction state from 'PROCESSING REPLY' to 'TRANSACTION_COMPLETE'
2022-07-22 11:47:47,148 pymodbus.transaction - DEBUG - Current transaction state - TRANSACTION_COMPLETE
2022-07-22 11:47:47,148 pymodbus.transaction - DEBUG - Running transaction 70
2022-07-22 11:47:47,148 pymodbus.transaction - DEBUG - SEND: 0x0 0x46 0x0 0x0 0x0 0x6 0x2 0x3 0x0 0x12 0x0 0x2
2022-07-22 11:47:47,148 pymodbus.client.sync - DEBUG - New Transaction state 'SENDING'
2022-07-22 11:47:47,149 pymodbus.transaction - DEBUG - Changing transaction state from 'SENDING' to 'WAITING FOR REPLY'
2022-07-22 11:47:47,179 pymodbus.transaction - DEBUG - Changing transaction state from 'WAITING FOR REPLY' to 'PROCESSING REPLY'
2022-07-22 11:47:47,179 pymodbus.transaction - DEBUG - RECV: 0x0 0x46 0x0 0x0 0x0 0x7 0x2 0x3 0x4 0x0 0x0 0x0 0x0
2022-07-22 11:47:47,179 pymodbus.framer.socket_framer - DEBUG - Processing: 0x0 0x46 0x0 0x0 0x0 0x7 0x2 0x3 0x4 0x0 0x0 0x0 0x0
2022-07-22 11:47:47,180 pymodbus.factory - DEBUG - Factory Response[ReadHoldingRegistersResponse: 3]
2022-07-22 11:47:47,180 pymodbus.transaction - DEBUG - Adding transaction 70
2022-07-22 11:47:47,180 pymodbus.transaction - DEBUG - Getting transaction 70
2022-07-22 11:47:47,180 pymodbus.transaction - DEBUG - Changing transaction state from 'PROCESSING REPLY' to 'TRANSACTION_COMPLETE'
2022-07-22 11:47:47,180 pymodbus.transaction - DEBUG - Current transaction state - TRANSACTION_COMPLETE
2022-07-22 11:47:47,180 pymodbus.transaction - DEBUG - Running transaction 71
2022-07-22 11:47:47,180 pymodbus.transaction - DEBUG - SEND: 0x0 0x47 0x0 0x0 0x0 0x6 0x2 0x3 0x0 0x14 0x0 0x2
2022-07-22 11:47:47,180 pymodbus.client.sync - DEBUG - New Transaction state 'SENDING'
2022-07-22 11:47:47,180 pymodbus.transaction - DEBUG - Changing transaction state from 'SENDING' to 'WAITING FOR REPLY'
2022-07-22 11:47:47,211 pymodbus.transaction - DEBUG - Changing transaction state from 'WAITING FOR REPLY' to 'PROCESSING REPLY'
2022-07-22 11:47:47,211 pymodbus.transaction - DEBUG - RECV: 0x0 0x47 0x0 0x0 0x0 0x7 0x2 0x3 0x4 0x0 0x0 0x0 0x0
2022-07-22 11:47:47,212 pymodbus.framer.socket_framer - DEBUG - Processing: 0x0 0x47 0x0 0x0 0x0 0x7 0x2 0x3 0x4 0x0 0x0 0x0 0x0
2022-07-22 11:47:47,212 pymodbus.factory - DEBUG - Factory Response[ReadHoldingRegistersResponse: 3]
2022-07-22 11:47:47,212 pymodbus.transaction - DEBUG - Adding transaction 71
2022-07-22 11:47:47,212 pymodbus.transaction - DEBUG - Getting transaction 71
2022-07-22 11:47:47,212 pymodbus.transaction - DEBUG - Changing transaction state from 'PROCESSING REPLY' to 'TRANSACTION_COMPLETE'
2022-07-22 11:47:47,212 pymodbus.transaction - DEBUG - Current transaction state - TRANSACTION_COMPLETE
2022-07-22 11:47:47,212 pymodbus.transaction - DEBUG - Running transaction 72
2022-07-22 11:47:47,213 pymodbus.transaction - DEBUG - SEND: 0x0 0x48 0x0 0x0 0x0 0x6 0x2 0x3 0x0 0x16 0x0 0x2
2022-07-22 11:47:47,213 pymodbus.client.sync - DEBUG - New Transaction state 'SENDING'
2022-07-22 11:47:47,213 pymodbus.transaction - DEBUG - Changing transaction state from 'SENDING' to 'WAITING FOR REPLY'
2022-07-22 11:47:47,242 pymodbus.transaction - DEBUG - Changing transaction state from 'WAITING FOR REPLY' to 'PROCESSING REPLY'
2022-07-22 11:47:47,242 pymodbus.transaction - DEBUG - RECV: 0x0 0x48 0x0 0x0 0x0 0x7 0x2 0x3 0x4 0x0 0x0 0x0 0x0
2022-07-22 11:47:47,242 pymodbus.framer.socket_framer - DEBUG - Processing: 0x0 0x48 0x0 0x0 0x0 0x7 0x2 0x3 0x4 0x0 0x0 0x0 0x0
2022-07-22 11:47:47,242 pymodbus.factory - DEBUG - Factory Response[ReadHoldingRegistersResponse: 3]
2022-07-22 11:47:47,242 pymodbus.transaction - DEBUG - Adding transaction 72
2022-07-22 11:47:47,242 pymodbus.transaction - DEBUG - Getting transaction 72
2022-07-22 11:47:47,243 pymodbus.transaction - DEBUG - Changing transaction state from 'PROCESSING REPLY' to 'TRANSACTION_COMPLETE'
2022-07-22 11:47:47,243 pymodbus.transaction - DEBUG - Current transaction state - TRANSACTION_COMPLETE
2022-07-22 11:47:47,243 pymodbus.transaction - DEBUG - Running transaction 73
2022-07-22 11:47:47,243 pymodbus.transaction - DEBUG - SEND: 0x0 0x49 0x0 0x0 0x0 0x6 0x2 0x3 0x0 0x18 0x0 0x2
2022-07-22 11:47:47,243 pymodbus.client.sync - DEBUG - New Transaction state 'SENDING'
2022-07-22 11:47:47,243 pymodbus.transaction - DEBUG - Changing transaction state from 'SENDING' to 'WAITING FOR REPLY'
2022-07-22 11:47:47,272 pymodbus.transaction - DEBUG - Changing transaction state from 'WAITING FOR REPLY' to 'PROCESSING REPLY'
2022-07-22 11:47:47,272 pymodbus.transaction - DEBUG - RECV: 0x0 0x49 0x0 0x0 0x0 0x7 0x2 0x3 0x4 0x0 0x0 0x0 0x0
2022-07-22 11:47:47,272 pymodbus.framer.socket_framer - DEBUG - Processing: 0x0 0x49 0x0 0x0 0x0 0x7 0x2 0x3 0x4 0x0 0x0 0x0 0x0
2022-07-22 11:47:47,273 pymodbus.factory - DEBUG - Factory Response[ReadHoldingRegistersResponse: 3]
2022-07-22 11:47:47,273 pymodbus.transaction - DEBUG - Adding transaction 73
2022-07-22 11:47:47,273 pymodbus.transaction - DEBUG - Getting transaction 73
2022-07-22 11:47:47,273 pymodbus.transaction - DEBUG - Changing transaction state from 'PROCESSING REPLY' to 'TRANSACTION_COMPLETE'
2022-07-22 11:47:47,273 pymodbus.transaction - DEBUG - Current transaction state - TRANSACTION_COMPLETE
2022-07-22 11:47:47,273 pymodbus.transaction - DEBUG - Running transaction 74
2022-07-22 11:47:47,273 pymodbus.transaction - DEBUG - SEND: 0x0 0x4a 0x0 0x0 0x0 0x6 0x2 0x3 0x0 0x1a 0x0 0x2
2022-07-22 11:47:47,273 pymodbus.client.sync - DEBUG - New Transaction state 'SENDING'
2022-07-22 11:47:47,274 pymodbus.transaction - DEBUG - Changing transaction state from 'SENDING' to 'WAITING FOR REPLY'
2022-07-22 11:47:47,304 pymodbus.transaction - DEBUG - Changing transaction state from 'WAITING FOR REPLY' to 'PROCESSING REPLY'
2022-07-22 11:47:47,304 pymodbus.transaction - DEBUG - RECV: 0x0 0x4a 0x0 0x0 0x0 0x7 0x2 0x3 0x4 0x0 0x0 0x0 0x0
2022-07-22 11:47:47,304 pymodbus.framer.socket_framer - DEBUG - Processing: 0x0 0x4a 0x0 0x0 0x0 0x7 0x2 0x3 0x4 0x0 0x0 0x0 0x0
2022-07-22 11:47:47,305 pymodbus.factory - DEBUG - Factory Response[ReadHoldingRegistersResponse: 3]
2022-07-22 11:47:47,305 pymodbus.transaction - DEBUG - Adding transaction 74
2022-07-22 11:47:47,305 pymodbus.transaction - DEBUG - Getting transaction 74
2022-07-22 11:47:47,305 pymodbus.transaction - DEBUG - Changing transaction state from 'PROCESSING REPLY' to 'TRANSACTION_COMPLETE'
2022-07-22 11:47:47,305 pymodbus.transaction - DEBUG - Current transaction state - TRANSACTION_COMPLETE
2022-07-22 11:47:47,305 pymodbus.transaction - DEBUG - Running transaction 75
2022-07-22 11:47:47,305 pymodbus.transaction - DEBUG - SEND: 0x0 0x4b 0x0 0x0 0x0 0x6 0x2 0x3 0x0 0x1c 0x0 0x2
2022-07-22 11:47:47,305 pymodbus.client.sync - DEBUG - New Transaction state 'SENDING'
2022-07-22 11:47:47,305 pymodbus.transaction - DEBUG - Changing transaction state from 'SENDING' to 'WAITING FOR REPLY'
2022-07-22 11:47:47,335 pymodbus.transaction - DEBUG - Changing transaction state from 'WAITING FOR REPLY' to 'PROCESSING REPLY'
2022-07-22 11:47:47,335 pymodbus.transaction - DEBUG - RECV: 0x0 0x4b 0x0 0x0 0x0 0x7 0x2 0x3 0x4 0x0 0x0 0x0 0x0
2022-07-22 11:47:47,335 pymodbus.framer.socket_framer - DEBUG - Processing: 0x0 0x4b 0x0 0x0 0x0 0x7 0x2 0x3 0x4 0x0 0x0 0x0 0x0
2022-07-22 11:47:47,335 pymodbus.factory - DEBUG - Factory Response[ReadHoldingRegistersResponse: 3]
2022-07-22 11:47:47,335 pymodbus.transaction - DEBUG - Adding transaction 75
2022-07-22 11:47:47,335 pymodbus.transaction - DEBUG - Getting transaction 75
2022-07-22 11:47:47,335 pymodbus.transaction - DEBUG - Changing transaction state from 'PROCESSING REPLY' to 'TRANSACTION_COMPLETE'
2022-07-22 11:47:47,335 pymodbus.transaction - DEBUG - Current transaction state - TRANSACTION_COMPLETE
2022-07-22 11:47:47,335 pymodbus.transaction - DEBUG - Running transaction 76
2022-07-22 11:47:47,336 pymodbus.transaction - DEBUG - SEND: 0x0 0x4c 0x0 0x0 0x0 0x6 0x2 0x3 0x0 0x1e 0x0 0x2
2022-07-22 11:47:47,336 pymodbus.client.sync - DEBUG - New Transaction state 'SENDING'
2022-07-22 11:47:47,336 pymodbus.transaction - DEBUG - Changing transaction state from 'SENDING' to 'WAITING FOR REPLY'
2022-07-22 11:47:47,367 pymodbus.transaction - DEBUG - Changing transaction state from 'WAITING FOR REPLY' to 'PROCESSING REPLY'
2022-07-22 11:47:47,367 pymodbus.transaction - DEBUG - RECV: 0x0 0x4c 0x0 0x0 0x0 0x7 0x2 0x3 0x4 0x0 0x0 0x0 0x0
2022-07-22 11:47:47,367 pymodbus.framer.socket_framer - DEBUG - Processing: 0x0 0x4c 0x0 0x0 0x0 0x7 0x2 0x3 0x4 0x0 0x0 0x0 0x0
2022-07-22 11:47:47,367 pymodbus.factory - DEBUG - Factory Response[ReadHoldingRegistersResponse: 3]
2022-07-22 11:47:47,367 pymodbus.transaction - DEBUG - Adding transaction 76
2022-07-22 11:47:47,368 pymodbus.transaction - DEBUG - Getting transaction 76
2022-07-22 11:47:47,368 pymodbus.transaction - DEBUG - Changing transaction state from 'PROCESSING REPLY' to 'TRANSACTION_COMPLETE'
2022-07-22 11:47:47,368 pymodbus.transaction - DEBUG - Current transaction state - TRANSACTION_COMPLETE
2022-07-22 11:47:47,368 pymodbus.transaction - DEBUG - Running transaction 77
2022-07-22 11:47:47,368 pymodbus.transaction - DEBUG - SEND: 0x0 0x4d 0x0 0x0 0x0 0x6 0x2 0x3 0x0 0x20 0x0 0x2
2022-07-22 11:47:47,368 pymodbus.client.sync - DEBUG - New Transaction state 'SENDING'
2022-07-22 11:47:47,368 pymodbus.transaction - DEBUG - Changing transaction state from 'SENDING' to 'WAITING FOR REPLY'
2022-07-22 11:47:47,397 pymodbus.transaction - DEBUG - Changing transaction state from 'WAITING FOR REPLY' to 'PROCESSING REPLY'
