2022-07-20 10:25:13,097 pymodbus.client.sync - DEBUG - Connection to Modbus server established. Socket ('192.168.1.36', 51276)
2022-07-20 10:25:13,097 root - DEBUG - True
2022-07-20 10:25:13,097 root - DEBUG - Reading Registers
2022-07-20 10:25:13,097 pymodbus.transaction - DEBUG - Current transaction state - IDLE
2022-07-20 10:25:13,097 pymodbus.transaction - DEBUG - Running transaction 1
2022-07-20 10:25:13,097 pymodbus.transaction - DEBUG - SEND: 0x0 0x1 0x0 0x0 0x0 0x6 0x0 0x3 0x0 0x0 0x0 0x2
2022-07-20 10:25:13,097 pymodbus.client.sync - DEBUG - New Transaction state 'SENDING'
2022-07-20 10:25:13,098 pymodbus.transaction - DEBUG - Changing transaction state from 'SENDING' to 'WAITING FOR REPLY'
2022-07-20 10:25:13,112 pymodbus.transaction - DEBUG - Changing transaction state from 'WAITING FOR REPLY' to 'PROCESSING REPLY'
2022-07-20 10:25:13,112 pymodbus.transaction - DEBUG - RECV: 0x0 0x1 0x0 0x0 0x0 0x7 0x0 0x3 0x4 0x0 0x1 0x0 0x1
2022-07-20 10:25:13,113 pymodbus.framer.socket_framer - DEBUG - Processing: 0x0 0x1 0x0 0x0 0x0 0x7 0x0 0x3 0x4 0x0 0x1 0x0 0x1
2022-07-20 10:25:13,113 pymodbus.factory - DEBUG - Factory Response[ReadHoldingRegistersResponse: 3]
2022-07-20 10:25:13,113 pymodbus.transaction - DEBUG - Adding transaction 1
2022-07-20 10:25:13,113 pymodbus.transaction - DEBUG - Getting transaction 1
2022-07-20 10:25:13,113 pymodbus.transaction - DEBUG - Changing transaction state from 'PROCESSING REPLY' to 'TRANSACTION_COMPLETE'
2022-07-20 10:25:13,113 pymodbus.transaction - DEBUG - Current transaction state - TRANSACTION_COMPLETE
2022-07-20 10:25:13,113 pymodbus.transaction - DEBUG - Running transaction 2
2022-07-20 10:25:13,113 pymodbus.transaction - DEBUG - SEND: 0x0 0x2 0x0 0x0 0x0 0x6 0x0 0x3 0x0 0x2 0x0 0x2
2022-07-20 10:25:13,113 pymodbus.client.sync - DEBUG - New Transaction state 'SENDING'
2022-07-20 10:25:13,113 pymodbus.transaction - DEBUG - Changing transaction state from 'SENDING' to 'WAITING FOR REPLY'
2022-07-20 10:25:13,144 pymodbus.transaction - DEBUG - Changing transaction state from 'WAITING FOR REPLY' to 'PROCESSING REPLY'
2022-07-20 10:25:13,144 pymodbus.transaction - DEBUG - RECV: 0x0 0x2 0x0 0x0 0x0 0x7 0x0 0x3 0x4 0x0 0x0 0x0 0x50
2022-07-20 10:25:13,144 pymodbus.framer.socket_framer - DEBUG - Processing: 0x0 0x2 0x0 0x0 0x0 0x7 0x0 0x3 0x4 0x0 0x0 0x0 0x50
2022-07-20 10:25:13,144 pymodbus.factory - DEBUG - Factory Response[ReadHoldingRegistersResponse: 3]
2022-07-20 10:25:13,145 pymodbus.transaction - DEBUG - Adding transaction 2
2022-07-20 10:25:13,145 pymodbus.transaction - DEBUG - Getting transaction 2
2022-07-20 10:25:13,145 pymodbus.transaction - DEBUG - Changing transaction state from 'PROCESSING REPLY' to 'TRANSACTION_COMPLETE'
2022-07-20 10:25:13,145 pymodbus.transaction - DEBUG - Current transaction state - TRANSACTION_COMPLETE
2022-07-20 10:25:13,145 pymodbus.transaction - DEBUG - Running transaction 3
2022-07-20 10:25:13,145 pymodbus.transaction - DEBUG - SEND: 0x0 0x3 0x0 0x0 0x0 0x6 0x0 0x3 0x0 0x4 0x0 0x2
2022-07-20 10:25:13,145 pymodbus.client.sync - DEBUG - New Transaction state 'SENDING'
2022-07-20 10:25:13,145 pymodbus.transaction - DEBUG - Changing transaction state from 'SENDING' to 'WAITING FOR REPLY'
2022-07-20 10:25:13,174 pymodbus.transaction - DEBUG - Changing transaction state from 'WAITING FOR REPLY' to 'PROCESSING REPLY'
2022-07-20 10:25:13,175 pymodbus.transaction - DEBUG - RECV: 0x0 0x3 0x0 0x0 0x0 0x7 0x0 0x3 0x4 0x0 0x0 0x0 0x0
2022-07-20 10:25:13,175 pymodbus.framer.socket_framer - DEBUG - Processing: 0x0 0x3 0x0 0x0 0x0 0x7 0x0 0x3 0x4 0x0 0x0 0x0 0x0
2022-07-20 10:25:13,175 pymodbus.factory - DEBUG - Factory Response[ReadHoldingRegistersResponse: 3]
2022-07-20 10:25:13,175 pymodbus.transaction - DEBUG - Adding transaction 3
2022-07-20 10:25:13,175 pymodbus.transaction - DEBUG - Getting transaction 3
2022-07-20 10:25:13,175 pymodbus.transaction - DEBUG - Changing transaction state from 'PROCESSING REPLY' to 'TRANSACTION_COMPLETE'
2022-07-20 10:25:13,175 pymodbus.transaction - DEBUG - Current transaction state - TRANSACTION_COMPLETE
2022-07-20 10:25:13,175 pymodbus.transaction - DEBUG - Running transaction 4
2022-07-20 10:25:13,175 pymodbus.transaction - DEBUG - SEND: 0x0 0x4 0x0 0x0 0x0 0x6 0x0 0x3 0x0 0x6 0x0 0x2
2022-07-20 10:25:13,175 pymodbus.client.sync - DEBUG - New Transaction state 'SENDING'
2022-07-20 10:25:13,175 pymodbus.transaction - DEBUG - Changing transaction state from 'SENDING' to 'WAITING FOR REPLY'
2022-07-20 10:25:13,205 pymodbus.transaction - DEBUG - Changing transaction state from 'WAITING FOR REPLY' to 'PROCESSING REPLY'
2022-07-20 10:25:13,206 pymodbus.transaction - DEBUG - RECV: 0x0 0x4 0x0 0x0 0x0 0x7 0x0 0x3 0x4 0x0 0x0 0x0 0x0
2022-07-20 10:25:13,206 pymodbus.framer.socket_framer - DEBUG - Processing: 0x0 0x4 0x0 0x0 0x0 0x7 0x0 0x3 0x4 0x0 0x0 0x0 0x0
2022-07-20 10:25:13,206 pymodbus.factory - DEBUG - Factory Response[ReadHoldingRegistersResponse: 3]
2022-07-20 10:25:13,206 pymodbus.transaction - DEBUG - Adding transaction 4
2022-07-20 10:25:13,206 pymodbus.transaction - DEBUG - Getting transaction 4
2022-07-20 10:25:13,206 pymodbus.transaction - DEBUG - Changing transaction state from 'PROCESSING REPLY' to 'TRANSACTION_COMPLETE'
2022-07-20 10:25:13,206 pymodbus.transaction - DEBUG - Current transaction state - TRANSACTION_COMPLETE
2022-07-20 10:25:13,206 pymodbus.transaction - DEBUG - Running transaction 5
2022-07-20 10:25:13,207 pymodbus.transaction - DEBUG - SEND: 0x0 0x5 0x0 0x0 0x0 0x6 0x0 0x3 0x0 0x8 0x0 0x2
2022-07-20 10:25:13,207 pymodbus.client.sync - DEBUG - New Transaction state 'SENDING'
2022-07-20 10:25:13,207 pymodbus.transaction - DEBUG - Changing transaction state from 'SENDING' to 'WAITING FOR REPLY'
2022-07-20 10:25:13,237 pymodbus.transaction - DEBUG - Changing transaction state from 'WAITING FOR REPLY' to 'PROCESSING REPLY'
2022-07-20 10:25:13,238 pymodbus.transaction - DEBUG - RECV: 0x0 0x5 0x0 0x0 0x0 0x7 0x0 0x3 0x4 0x0 0x0 0x0 0x0
2022-07-20 10:25:13,238 pymodbus.framer.socket_framer - DEBUG - Processing: 0x0 0x5 0x0 0x0 0x0 0x7 0x0 0x3 0x4 0x0 0x0 0x0 0x0
2022-07-20 10:25:13,238 pymodbus.factory - DEBUG - Factory Response[ReadHoldingRegistersResponse: 3]
2022-07-20 10:25:13,238 pymodbus.transaction - DEBUG - Adding transaction 5
2022-07-20 10:25:13,238 pymodbus.transaction - DEBUG - Getting transaction 5
2022-07-20 10:25:13,238 pymodbus.transaction - DEBUG - Changing transaction state from 'PROCESSING REPLY' to 'TRANSACTION_COMPLETE'
2022-07-20 10:25:13,238 pymodbus.transaction - DEBUG - Current transaction state - TRANSACTION_COMPLETE
2022-07-20 10:25:13,238 pymodbus.transaction - DEBUG - Running transaction 6
2022-07-20 10:25:13,238 pymodbus.transaction - DEBUG - SEND: 0x0 0x6 0x0 0x0 0x0 0x6 0x0 0x3 0x0 0xa 0x0 0x2
2022-07-20 10:25:13,238 pymodbus.client.sync - DEBUG - New Transaction state 'SENDING'
2022-07-20 10:25:13,239 pymodbus.transaction - DEBUG - Changing transaction state from 'SENDING' to 'WAITING FOR REPLY'
2022-07-20 10:25:13,268 pymodbus.transaction - DEBUG - Changing transaction state from 'WAITING FOR REPLY' to 'PROCESSING REPLY'
2022-07-20 10:25:13,268 pymodbus.transaction - DEBUG - RECV: 0x0 0x6 0x0 0x0 0x0 0x7 0x0 0x3 0x4 0x0 0x0 0x0 0x0
2022-07-20 10:25:13,268 pymodbus.framer.socket_framer - DEBUG - Processing: 0x0 0x6 0x0 0x0 0x0 0x7 0x0 0x3 0x4 0x0 0x0 0x0 0x0
2022-07-20 10:25:13,269 pymodbus.factory - DEBUG - Factory Response[ReadHoldingRegistersResponse: 3]
2022-07-20 10:25:13,269 pymodbus.transaction - DEBUG - Adding transaction 6
2022-07-20 10:25:13,269 pymodbus.transaction - DEBUG - Getting transaction 6
2022-07-20 10:25:13,269 pymodbus.transaction - DEBUG - Changing transaction state from 'PROCESSING REPLY' to 'TRANSACTION_COMPLETE'
2022-07-20 10:25:13,269 pymodbus.transaction - DEBUG - Current transaction state - TRANSACTION_COMPLETE
2022-07-20 10:25:13,269 pymodbus.transaction - DEBUG - Running transaction 7
2022-07-20 10:25:13,269 pymodbus.transaction - DEBUG - SEND: 0x0 0x7 0x0 0x0 0x0 0x6 0x0 0x3 0x0 0xc 0x0 0x2
2022-07-20 10:25:13,269 pymodbus.client.sync - DEBUG - New Transaction state 'SENDING'
2022-07-20 10:25:13,270 pymodbus.transaction - DEBUG - Changing transaction state from 'SENDING' to 'WAITING FOR REPLY'
2022-07-20 10:25:13,299 pymodbus.transaction - DEBUG - Changing transaction state from 'WAITING FOR REPLY' to 'PROCESSING REPLY'
2022-07-20 10:25:13,300 pymodbus.transaction - DEBUG - RECV: 0x0 0x7 0x0 0x0 0x0 0x7 0x0 0x3 0x4 0x0 0x0 0x0 0x0
2022-07-20 10:25:13,300 pymodbus.framer.socket_framer - DEBUG - Processing: 0x0 0x7 0x0 0x0 0x0 0x7 0x0 0x3 0x4 0x0 0x0 0x0 0x0
2022-07-20 10:25:13,300 pymodbus.factory - DEBUG - Factory Response[ReadHoldingRegistersResponse: 3]
2022-07-20 10:25:13,300 pymodbus.transaction - DEBUG - Adding transaction 7
2022-07-20 10:25:13,300 pymodbus.transaction - DEBUG - Getting transaction 7
2022-07-20 10:25:13,301 pymodbus.transaction - DEBUG - Changing transaction state from 'PROCESSING REPLY' to 'TRANSACTION_COMPLETE'
2022-07-20 10:25:13,301 pymodbus.transaction - DEBUG - Current transaction state - TRANSACTION_COMPLETE
2022-07-20 10:25:13,301 pymodbus.transaction - DEBUG - Running transaction 8
2022-07-20 10:25:13,301 pymodbus.transaction - DEBUG - SEND: 0x0 0x8 0x0 0x0 0x0 0x6 0x0 0x3 0x0 0xe 0x0 0x2
2022-07-20 10:25:13,301 pymodbus.client.sync - DEBUG - New Transaction state 'SENDING'
2022-07-20 10:25:13,301 pymodbus.transaction - DEBUG - Changing transaction state from 'SENDING' to 'WAITING FOR REPLY'
2022-07-20 10:25:13,330 pymodbus.transaction - DEBUG - Changing transaction state from 'WAITING FOR REPLY' to 'PROCESSING REPLY'
2022-07-20 10:25:13,330 pymodbus.transaction - DEBUG - RECV: 0x0 0x8 0x0 0x0 0x0 0x7 0x0 0x3 0x4 0x0 0x0 0x0 0x0
2022-07-20 10:25:13,330 pymodbus.framer.socket_framer - DEBUG - Processing: 0x0 0x8 0x0 0x0 0x0 0x7 0x0 0x3 0x4 0x0 0x0 0x0 0x0
2022-07-20 10:25:13,330 pymodbus.factory - DEBUG - Factory Response[ReadHoldingRegistersResponse: 3]
2022-07-20 10:25:13,330 pymodbus.transaction - DEBUG - Adding transaction 8
2022-07-20 10:25:13,330 pymodbus.transaction - DEBUG - Getting transaction 8
2022-07-20 10:25:13,330 pymodbus.transaction - DEBUG - Changing transaction state from 'PROCESSING REPLY' to 'TRANSACTION_COMPLETE'
2022-07-20 10:25:13,330 pymodbus.transaction - DEBUG - Current transaction state - TRANSACTION_COMPLETE
2022-07-20 10:25:13,330 pymodbus.transaction - DEBUG - Running transaction 9
2022-07-20 10:25:13,330 pymodbus.transaction - DEBUG - SEND: 0x0 0x9 0x0 0x0 0x0 0x6 0x0 0x3 0x0 0x10 0x0 0x2
2022-07-20 10:25:13,330 pymodbus.client.sync - DEBUG - New Transaction state 'SENDING'
2022-07-20 10:25:13,330 pymodbus.transaction - DEBUG - Changing transaction state from 'SENDING' to 'WAITING FOR REPLY'
2022-07-20 10:25:13,361 pymodbus.transaction - DEBUG - Changing transaction state from 'WAITING FOR REPLY' to 'PROCESSING REPLY'
2022-07-20 10:25:13,361 pymodbus.transaction - DEBUG - RECV: 0x0 0x9 0x0 0x0 0x0 0x7 0x0 0x3 0x4 0x0 0x0 0x0 0x0
2022-07-20 10:25:13,361 pymodbus.framer.socket_framer - DEBUG - Processing: 0x0 0x9 0x0 0x0 0x0 0x7 0x0 0x3 0x4 0x0 0x0 0x0 0x0
2022-07-20 10:25:13,361 pymodbus.factory - DEBUG - Factory Response[ReadHoldingRegistersResponse: 3]
2022-07-20 10:25:13,361 pymodbus.transaction - DEBUG - Adding transaction 9
2022-07-20 10:25:13,361 pymodbus.transaction - DEBUG - Getting transaction 9
2022-07-20 10:25:13,361 pymodbus.transaction - DEBUG - Changing transaction state from 'PROCESSING REPLY' to 'TRANSACTION_COMPLETE'
2022-07-20 10:25:13,361 pymodbus.transaction - DEBUG - Current transaction state - TRANSACTION_COMPLETE
2022-07-20 10:25:13,361 pymodbus.transaction - DEBUG - Running transaction 10
2022-07-20 10:25:13,361 pymodbus.transaction - DEBUG - SEND: 0x0 0xa 0x0 0x0 0x0 0x6 0x0 0x3 0x0 0x12 0x0 0x2
2022-07-20 10:25:13,362 pymodbus.client.sync - DEBUG - New Transaction state 'SENDING'
2022-07-20 10:25:13,362 pymodbus.transaction - DEBUG - Changing transaction state from 'SENDING' to 'WAITING FOR REPLY'
2022-07-20 10:25:13,392 pymodbus.transaction - DEBUG - Changing transaction state from 'WAITING FOR REPLY' to 'PROCESSING REPLY'
2022-07-20 10:25:13,392 pymodbus.transaction - DEBUG - RECV: 0x0 0xa 0x0 0x0 0x0 0x7 0x0 0x3 0x4 0x0 0x0 0x0 0x0
2022-07-20 10:25:13,392 pymodbus.framer.socket_framer - DEBUG - Processing: 0x0 0xa 0x0 0x0 0x0 0x7 0x0 0x3 0x4 0x0 0x0 0x0 0x0
2022-07-20 10:25:13,392 pymodbus.factory - DEBUG - Factory Response[ReadHoldingRegistersResponse: 3]
2022-07-20 10:25:13,392 pymodbus.transaction - DEBUG - Adding transaction 10
2022-07-20 10:25:13,392 pymodbus.transaction - DEBUG - Getting transaction 10
2022-07-20 10:25:13,392 pymodbus.transaction - DEBUG - Changing transaction state from 'PROCESSING REPLY' to 'TRANSACTION_COMPLETE'
2022-07-20 10:25:13,392 pymodbus.transaction - DEBUG - Current transaction state - TRANSACTION_COMPLETE
2022-07-20 10:25:13,392 pymodbus.transaction - DEBUG - Running transaction 11
2022-07-20 10:25:13,393 pymodbus.transaction - DEBUG - SEND: 0x0 0xb 0x0 0x0 0x0 0x6 0x0 0x3 0x0 0x14 0x0 0x2
2022-07-20 10:25:13,393 pymodbus.client.sync - DEBUG - New Transaction state 'SENDING'
2022-07-20 10:25:13,393 pymodbus.transaction - DEBUG - Changing transaction state from 'SENDING' to 'WAITING FOR REPLY'
2022-07-20 10:25:13,423 pymodbus.transaction - DEBUG - Changing transaction state from 'WAITING FOR REPLY' to 'PROCESSING REPLY'
2022-07-20 10:25:13,423 pymodbus.transaction - DEBUG - RECV: 0x0 0xb 0x0 0x0 0x0 0x7 0x0 0x3 0x4 0x0 0x0 0x0 0x0
2022-07-20 10:25:13,423 pymodbus.framer.socket_framer - DEBUG - Processing: 0x0 0xb 0x0 0x0 0x0 0x7 0x0 0x3 0x4 0x0 0x0 0x0 0x0
2022-07-20 10:25:13,423 pymodbus.factory - DEBUG - Factory Response[ReadHoldingRegistersResponse: 3]
2022-07-20 10:25:13,423 pymodbus.transaction - DEBUG - Adding transaction 11
2022-07-20 10:25:13,424 pymodbus.transaction - DEBUG - Getting transaction 11
2022-07-20 10:25:13,424 pymodbus.transaction - DEBUG - Changing transaction state from 'PROCESSING REPLY' to 'TRANSACTION_COMPLETE'
2022-07-20 10:25:13,424 pymodbus.transaction - DEBUG - Current transaction state - TRANSACTION_COMPLETE
2022-07-20 10:25:13,424 pymodbus.transaction - DEBUG - Running transaction 12
2022-07-20 10:25:13,424 pymodbus.transaction - DEBUG - SEND: 0x0 0xc 0x0 0x0 0x0 0x6 0x0 0x3 0x0 0x16 0x0 0x2
2022-07-20 10:25:13,424 pymodbus.client.sync - DEBUG - New Transaction state 'SENDING'
2022-07-20 10:25:13,425 pymodbus.transaction - DEBUG - Changing transaction state from 'SENDING' to 'WAITING FOR REPLY'
2022-07-20 10:25:13,454 pymodbus.transaction - DEBUG - Changing transaction state from 'WAITING FOR REPLY' to 'PROCESSING REPLY'
2022-07-20 10:25:13,454 pymodbus.transaction - DEBUG - RECV: 0x0 0xc 0x0 0x0 0x0 0x7 0x0 0x3 0x4 0x0 0x0 0x0 0x0
2022-07-20 10:25:13,454 pymodbus.framer.socket_framer - DEBUG - Processing: 0x0 0xc 0x0 0x0 0x0 0x7 0x0 0x3 0x4 0x0 0x0 0x0 0x0
2022-07-20 10:25:13,455 pymodbus.factory - DEBUG - Factory Response[ReadHoldingRegistersResponse: 3]
2022-07-20 10:25:13,455 pymodbus.transaction - DEBUG - Adding transaction 12
2022-07-20 10:25:13,455 pymodbus.transaction - DEBUG - Getting transaction 12
2022-07-20 10:25:13,455 pymodbus.transaction - DEBUG - Changing transaction state from 'PROCESSING REPLY' to 'TRANSACTION_COMPLETE'
2022-07-20 10:25:13,455 pymodbus.transaction - DEBUG - Current transaction state - TRANSACTION_COMPLETE
2022-07-20 10:25:13,455 pymodbus.transaction - DEBUG - Running transaction 13
2022-07-20 10:25:13,455 pymodbus.transaction - DEBUG - SEND: 0x0 0xd 0x0 0x0 0x0 0x6 0x0 0x3 0x0 0x18 0x0 0x2
2022-07-20 10:25:13,456 pymodbus.client.sync - DEBUG - New Transaction state 'SENDING'
2022-07-20 10:25:13,456 pymodbus.transaction - DEBUG - Changing transaction state from 'SENDING' to 'WAITING FOR REPLY'
2022-07-20 10:25:13,486 pymodbus.transaction - DEBUG - Changing transaction state from 'WAITING FOR REPLY' to 'PROCESSING REPLY'
2022-07-20 10:25:13,486 pymodbus.transaction - DEBUG - RECV: 0x0 0xd 0x0 0x0 0x0 0x7 0x0 0x3 0x4 0x0 0x0 0x0 0x0
2022-07-20 10:25:13,486 pymodbus.framer.socket_framer - DEBUG - Processing: 0x0 0xd 0x0 0x0 0x0 0x7 0x0 0x3 0x4 0x0 0x0 0x0 0x0
2022-07-20 10:25:13,486 pymodbus.factory - DEBUG - Factory Response[ReadHoldingRegistersResponse: 3]
2022-07-20 10:25:13,486 pymodbus.transaction - DEBUG - Adding transaction 13
2022-07-20 10:25:13,487 pymodbus.transaction - DEBUG - Getting transaction 13
2022-07-20 10:25:13,487 pymodbus.transaction - DEBUG - Changing transaction state from 'PROCESSING REPLY' to 'TRANSACTION_COMPLETE'
2022-07-20 10:25:13,487 pymodbus.transaction - DEBUG - Current transaction state - TRANSACTION_COMPLETE
2022-07-20 10:25:13,487 pymodbus.transaction - DEBUG - Running transaction 14
2022-07-20 10:25:13,487 pymodbus.transaction - DEBUG - SEND: 0x0 0xe 0x0 0x0 0x0 0x6 0x0 0x3 0x0 0x1a 0x0 0x2
2022-07-20 10:25:13,487 pymodbus.client.sync - DEBUG - New Transaction state 'SENDING'
2022-07-20 10:25:13,487 pymodbus.transaction - DEBUG - Changing transaction state from 'SENDING' to 'WAITING FOR REPLY'
2022-07-20 10:25:13,517 pymodbus.transaction - DEBUG - Changing transaction state from 'WAITING FOR REPLY' to 'PROCESSING REPLY'
2022-07-20 10:25:13,517 pymodbus.transaction - DEBUG - RECV: 0x0 0xe 0x0 0x0 0x0 0x7 0x0 0x3 0x4 0x0 0x0 0x0 0x0
2022-07-20 10:25:13,517 pymodbus.framer.socket_framer - DEBUG - Processing: 0x0 0xe 0x0 0x0 0x0 0x7 0x0 0x3 0x4 0x0 0x0 0x0 0x0
2022-07-20 10:25:13,517 pymodbus.factory - DEBUG - Factory Response[ReadHoldingRegistersResponse: 3]
2022-07-20 10:25:13,517 pymodbus.transaction - DEBUG - Adding transaction 14
2022-07-20 10:25:13,517 pymodbus.transaction - DEBUG - Getting transaction 14
2022-07-20 10:25:13,517 pymodbus.transaction - DEBUG - Changing transaction state from 'PROCESSING REPLY' to 'TRANSACTION_COMPLETE'
2022-07-20 10:25:13,517 pymodbus.transaction - DEBUG - Current transaction state - TRANSACTION_COMPLETE
2022-07-20 10:25:13,517 pymodbus.transaction - DEBUG - Running transaction 15
2022-07-20 10:25:13,517 pymodbus.transaction - DEBUG - SEND: 0x0 0xf 0x0 0x0 0x0 0x6 0x0 0x3 0x0 0x1c 0x0 0x2
2022-07-20 10:25:13,517 pymodbus.client.sync - DEBUG - New Transaction state 'SENDING'
2022-07-20 10:25:13,518 pymodbus.transaction - DEBUG - Changing transaction state from 'SENDING' to 'WAITING FOR REPLY'
2022-07-20 10:25:13,548 pymodbus.transaction - DEBUG - Changing transaction state from 'WAITING FOR REPLY' to 'PROCESSING REPLY'
2022-07-20 10:25:13,548 pymodbus.transaction - DEBUG - RECV: 0x0 0xf 0x0 0x0 0x0 0x7 0x0 0x3 0x4 0x0 0x0 0x0 0x0
2022-07-20 10:25:13,548 pymodbus.framer.socket_framer - DEBUG - Processing: 0x0 0xf 0x0 0x0 0x0 0x7 0x0 0x3 0x4 0x0 0x0 0x0 0x0
2022-07-20 10:25:13,548 pymodbus.factory - DEBUG - Factory Response[ReadHoldingRegistersResponse: 3]
2022-07-20 10:25:13,548 pymodbus.transaction - DEBUG - Adding transaction 15
2022-07-20 10:25:13,548 pymodbus.transaction - DEBUG - Getting transaction 15
2022-07-20 10:25:13,549 pymodbus.transaction - DEBUG - Changing transaction state from 'PROCESSING REPLY' to 'TRANSACTION_COMPLETE'
2022-07-20 10:25:13,549 pymodbus.transaction - DEBUG - Current transaction state - TRANSACTION_COMPLETE
2022-07-20 10:25:13,549 pymodbus.transaction - DEBUG - Running transaction 16
2022-07-20 10:25:13,549 pymodbus.transaction - DEBUG - SEND: 0x0 0x10 0x0 0x0 0x0 0x6 0x0 0x3 0x0 0x1e 0x0 0x2
2022-07-20 10:25:13,549 pymodbus.client.sync - DEBUG - New Transaction state 'SENDING'
2022-07-20 10:25:13,549 pymodbus.transaction - DEBUG - Changing transaction state from 'SENDING' to 'WAITING FOR REPLY'
2022-07-20 10:25:13,581 pymodbus.transaction - DEBUG - Changing transaction state from 'WAITING FOR REPLY' to 'PROCESSING REPLY'
2022-07-20 10:25:13,581 pymodbus.transaction - DEBUG - RECV: 0x0 0x10 0x0 0x0 0x0 0x7 0x0 0x3 0x4 0x0 0x0 0x0 0x0
2022-07-20 10:25:13,581 pymodbus.framer.socket_framer - DEBUG - Processing: 0x0 0x10 0x0 0x0 0x0 0x7 0x0 0x3 0x4 0x0 0x0 0x0 0x0
2022-07-20 10:25:13,581 pymodbus.factory - DEBUG - Factory Response[ReadHoldingRegistersResponse: 3]
2022-07-20 10:25:13,581 pymodbus.transaction - DEBUG - Adding transaction 16
2022-07-20 10:25:13,581 pymodbus.transaction - DEBUG - Getting transaction 16
2022-07-20 10:25:13,582 pymodbus.transaction - DEBUG - Changing transaction state from 'PROCESSING REPLY' to 'TRANSACTION_COMPLETE'
2022-07-20 10:25:13,582 pymodbus.transaction - DEBUG - Current transaction state - TRANSACTION_COMPLETE
2022-07-20 10:25:13,582 pymodbus.transaction - DEBUG - Running transaction 17
2022-07-20 10:25:13,582 pymodbus.transaction - DEBUG - SEND: 0x0 0x11 0x0 0x0 0x0 0x6 0x0 0x3 0x0 0x20 0x0 0x2
2022-07-20 10:25:13,582 pymodbus.client.sync - DEBUG - New Transaction state 'SENDING'
2022-07-20 10:25:13,583 pymodbus.transaction - DEBUG - Changing transaction state from 'SENDING' to 'WAITING FOR REPLY'
2022-07-20 10:25:13,612 pymodbus.transaction - DEBUG - Changing transaction state from 'WAITING FOR REPLY' to 'PROCESSING REPLY'
2022-07-20 10:25:13,612 pymodbus.transaction - DEBUG - RECV: 0x0 0x11 0x0 0x0 0x0 0x7 0x0 0x3 0x4 0x0 0x0 0x0 0x0
2022-07-20 10:25:13,612 pymodbus.framer.socket_framer - DEBUG - Processing: 0x0 0x11 0x0 0x0 0x0 0x7 0x0 0x3 0x4 0x0 0x0 0x0 0x0
2022-07-20 10:25:13,612 pymodbus.factory - DEBUG - Factory Response[ReadHoldingRegistersResponse: 3]
2022-07-20 10:25:13,612 pymodbus.transaction - DEBUG - Adding transaction 17
2022-07-20 10:25:13,612 pymodbus.transaction - DEBUG - Getting transaction 17
2022-07-20 10:25:13,612 pymodbus.transaction - DEBUG - Changing transaction state from 'PROCESSING REPLY' to 'TRANSACTION_COMPLETE'
2022-07-20 10:25:13,612 pymodbus.transaction - DEBUG - Current transaction state - TRANSACTION_COMPLETE
2022-07-20 10:25:13,612 pymodbus.transaction - DEBUG - Running transaction 18
2022-07-20 10:25:13,612 pymodbus.transaction - DEBUG - SEND: 0x0 0x12 0x0 0x0 0x0 0x6 0x0 0x3 0x0 0x22 0x0 0x2
2022-07-20 10:25:13,612 pymodbus.client.sync - DEBUG - New Transaction state 'SENDING'
2022-07-20 10:25:13,612 pymodbus.transaction - DEBUG - Changing transaction state from 'SENDING' to 'WAITING FOR REPLY'
2022-07-20 10:25:13,643 pymodbus.transaction - DEBUG - Changing transaction state from 'WAITING FOR REPLY' to 'PROCESSING REPLY'
2022-07-20 10:25:13,643 pymodbus.transaction - DEBUG - RECV: 0x0 0x12 0x0 0x0 0x0 0x7 0x0 0x3 0x4 0x0 0x0 0x0 0x0
2022-07-20 10:25:13,645 pymodbus.framer.socket_framer - DEBUG - Processing: 0x0 0x12 0x0 0x0 0x0 0x7 0x0 0x3 0x4 0x0 0x0 0x0 0x0
2022-07-20 10:25:13,645 pymodbus.factory - DEBUG - Factory Response[ReadHoldingRegistersResponse: 3]
2022-07-20 10:25:13,645 pymodbus.transaction - DEBUG - Adding transaction 18
2022-07-20 10:25:13,645 pymodbus.transaction - DEBUG - Getting transaction 18
2022-07-20 10:25:13,645 pymodbus.transaction - DEBUG - Changing transaction state from 'PROCESSING REPLY' to 'TRANSACTION_COMPLETE'
2022-07-20 10:25:13,645 pymodbus.transaction - DEBUG - Current transaction state - TRANSACTION_COMPLETE
2022-07-20 10:25:13,645 pymodbus.transaction - DEBUG - Running transaction 19
2022-07-20 10:25:13,645 pymodbus.transaction - DEBUG - SEND: 0x0 0x13 0x0 0x0 0x0 0x6 0x0 0x3 0x0 0x24 0x0 0x2
2022-07-20 10:25:13,646 pymodbus.client.sync - DEBUG - New Transaction state 'SENDING'
2022-07-20 10:25:13,646 pymodbus.transaction - DEBUG - Changing transaction state from 'SENDING' to 'WAITING FOR REPLY'
2022-07-20 10:25:13,673 pymodbus.transaction - DEBUG - Changing transaction state from 'WAITING FOR REPLY' to 'PROCESSING REPLY'
2022-07-20 10:25:13,673 pymodbus.transaction - DEBUG - RECV: 0x0 0x13 0x0 0x0 0x0 0x7 0x0 0x3 0x4 0x0 0x0 0x0 0x0
2022-07-20 10:25:13,673 pymodbus.framer.socket_framer - DEBUG - Processing: 0x0 0x13 0x0 0x0 0x0 0x7 0x0 0x3 0x4 0x0 0x0 0x0 0x0
2022-07-20 10:25:13,673 pymodbus.factory - DEBUG - Factory Response[ReadHoldingRegistersResponse: 3]
2022-07-20 10:25:13,673 pymodbus.transaction - DEBUG - Adding transaction 19
2022-07-20 10:25:13,673 pymodbus.transaction - DEBUG - Getting transaction 19
2022-07-20 10:25:13,673 pymodbus.transaction - DEBUG - Changing transaction state from 'PROCESSING REPLY' to 'TRANSACTION_COMPLETE'
2022-07-20 10:25:13,673 pymodbus.transaction - DEBUG - Current transaction state - TRANSACTION_COMPLETE
2022-07-20 10:25:13,673 pymodbus.transaction - DEBUG - Running transaction 20
2022-07-20 10:25:13,673 pymodbus.transaction - DEBUG - SEND: 0x0 0x14 0x0 0x0 0x0 0x6 0x0 0x3 0x0 0x26 0x0 0x2
2022-07-20 10:25:13,673 pymodbus.client.sync - DEBUG - New Transaction state 'SENDING'
2022-07-20 10:25:13,674 pymodbus.transaction - DEBUG - Changing transaction state from 'SENDING' to 'WAITING FOR REPLY'
2022-07-20 10:25:13,704 pymodbus.transaction - DEBUG - Changing transaction state from 'WAITING FOR REPLY' to 'PROCESSING REPLY'
2022-07-20 10:25:13,705 pymodbus.transaction - DEBUG - RECV: 0x0 0x14 0x0 0x0 0x0 0x7 0x0 0x3 0x4 0x0 0x0 0x0 0x0
2022-07-20 10:25:13,705 pymodbus.framer.socket_framer - DEBUG - Processing: 0x0 0x14 0x0 0x0 0x0 0x7 0x0 0x3 0x4 0x0 0x0 0x0 0x0
2022-07-20 10:25:13,705 pymodbus.factory - DEBUG - Factory Response[ReadHoldingRegistersResponse: 3]
2022-07-20 10:25:13,705 pymodbus.transaction - DEBUG - Adding transaction 20
2022-07-20 10:25:13,706 pymodbus.transaction - DEBUG - Getting transaction 20
2022-07-20 10:25:13,706 pymodbus.transaction - DEBUG - Changing transaction state from 'PROCESSING REPLY' to 'TRANSACTION_COMPLETE'
2022-07-20 10:25:13,706 pymodbus.transaction - DEBUG - Current transaction state - TRANSACTION_COMPLETE
2022-07-20 10:25:13,706 pymodbus.transaction - DEBUG - Running transaction 21
2022-07-20 10:25:13,706 pymodbus.transaction - DEBUG - SEND: 0x0 0x15 0x0 0x0 0x0 0x6 0x0 0x3 0x0 0x28 0x0 0x2
2022-07-20 10:25:13,707 pymodbus.client.sync - DEBUG - New Transaction state 'SENDING'
2022-07-20 10:25:13,707 pymodbus.transaction - DEBUG - Changing transaction state from 'SENDING' to 'WAITING FOR REPLY'
2022-07-20 10:25:13,736 pymodbus.transaction - DEBUG - Changing transaction state from 'WAITING FOR REPLY' to 'PROCESSING REPLY'
2022-07-20 10:25:13,742 pymodbus.transaction - DEBUG - RECV: 0x0 0x15 0x0 0x0 0x0 0x7 0x0 0x3 0x4 0x0 0x0 0x0 0x0
2022-07-20 10:25:13,743 pymodbus.framer.socket_framer - DEBUG - Processing: 0x0 0x15 0x0 0x0 0x0 0x7 0x0 0x3 0x4 0x0 0x0 0x0 0x0
2022-07-20 10:25:13,743 pymodbus.factory - DEBUG - Factory Response[ReadHoldingRegistersResponse: 3]
2022-07-20 10:25:13,743 pymodbus.transaction - DEBUG - Adding transaction 21
2022-07-20 10:25:13,743 pymodbus.transaction - DEBUG - Getting transaction 21
2022-07-20 10:25:13,744 pymodbus.transaction - DEBUG - Changing transaction state from 'PROCESSING REPLY' to 'TRANSACTION_COMPLETE'
2022-07-20 10:25:13,744 pymodbus.transaction - DEBUG - Current transaction state - TRANSACTION_COMPLETE
2022-07-20 10:25:13,744 pymodbus.transaction - DEBUG - Running transaction 22
2022-07-20 10:25:13,744 pymodbus.transaction - DEBUG - SEND: 0x0 0x16 0x0 0x0 0x0 0x6 0x0 0x3 0x0 0x2a 0x0 0x2
2022-07-20 10:25:13,744 pymodbus.client.sync - DEBUG - New Transaction state 'SENDING'
2022-07-20 10:25:13,744 pymodbus.transaction - DEBUG - Changing transaction state from 'SENDING' to 'WAITING FOR REPLY'
2022-07-20 10:25:13,767 pymodbus.transaction - DEBUG - Changing transaction state from 'WAITING FOR REPLY' to 'PROCESSING REPLY'
2022-07-20 10:25:13,768 pymodbus.transaction - DEBUG - RECV: 0x0 0x16 0x0 0x0 0x0 0x7 0x0 0x3 0x4 0x0 0x0 0x0 0x0
2022-07-20 10:25:13,768 pymodbus.framer.socket_framer - DEBUG - Processing: 0x0 0x16 0x0 0x0 0x0 0x7 0x0 0x3 0x4 0x0 0x0 0x0 0x0
2022-07-20 10:25:13,768 pymodbus.factory - DEBUG - Factory Response[ReadHoldingRegistersResponse: 3]
2022-07-20 10:25:13,768 pymodbus.transaction - DEBUG - Adding transaction 22
2022-07-20 10:25:13,768 pymodbus.transaction - DEBUG - Getting transaction 22
2022-07-20 10:25:13,768 pymodbus.transaction - DEBUG - Changing transaction state from 'PROCESSING REPLY' to 'TRANSACTION_COMPLETE'
2022-07-20 10:25:13,768 pymodbus.transaction - DEBUG - Current transaction state - TRANSACTION_COMPLETE
2022-07-20 10:25:13,768 pymodbus.transaction - DEBUG - Running transaction 23
2022-07-20 10:25:13,768 pymodbus.transaction - DEBUG - SEND: 0x0 0x17 0x0 0x0 0x0 0x6 0x0 0x3 0x0 0x2c 0x0 0x2
2022-07-20 10:25:13,768 pymodbus.client.sync - DEBUG - New Transaction state 'SENDING'
2022-07-20 10:25:13,768 pymodbus.transaction - DEBUG - Changing transaction state from 'SENDING' to 'WAITING FOR REPLY'
2022-07-20 10:25:13,799 pymodbus.transaction - DEBUG - Changing transaction state from 'WAITING FOR REPLY' to 'PROCESSING REPLY'
2022-07-20 10:25:13,799 pymodbus.transaction - DEBUG - RECV: 0x0 0x17 0x0 0x0 0x0 0x7 0x0 0x3 0x4 0x0 0x0 0x0 0x0
2022-07-20 10:25:13,799 pymodbus.framer.socket_framer - DEBUG - Processing: 0x0 0x17 0x0 0x0 0x0 0x7 0x0 0x3 0x4 0x0 0x0 0x0 0x0
2022-07-20 10:25:13,799 pymodbus.factory - DEBUG - Factory Response[ReadHoldingRegistersResponse: 3]
2022-07-20 10:25:13,799 pymodbus.transaction - DEBUG - Adding transaction 23
2022-07-20 10:25:13,799 pymodbus.transaction - DEBUG - Getting transaction 23
2022-07-20 10:25:13,799 pymodbus.transaction - DEBUG - Changing transaction state from 'PROCESSING REPLY' to 'TRANSACTION_COMPLETE'
2022-07-20 10:25:13,799 pymodbus.transaction - DEBUG - Current transaction state - TRANSACTION_COMPLETE
2022-07-20 10:25:13,799 pymodbus.transaction - DEBUG - Running transaction 24
2022-07-20 10:25:13,800 pymodbus.transaction - DEBUG - SEND: 0x0 0x18 0x0 0x0 0x0 0x6 0x0 0x3 0x0 0x30 0x0 0x2
2022-07-20 10:25:13,800 pymodbus.client.sync - DEBUG - New Transaction state 'SENDING'
2022-07-20 10:25:13,800 pymodbus.transaction - DEBUG - Changing transaction state from 'SENDING' to 'WAITING FOR REPLY'
2022-07-20 10:25:13,830 pymodbus.transaction - DEBUG - Changing transaction state from 'WAITING FOR REPLY' to 'PROCESSING REPLY'
2022-07-20 10:25:13,830 pymodbus.transaction - DEBUG - RECV: 0x0 0x18 0x0 0x0 0x0 0x7 0x0 0x3 0x4 0x0 0x0 0x0 0x0
2022-07-20 10:25:13,830 pymodbus.framer.socket_framer - DEBUG - Processing: 0x0 0x18 0x0 0x0 0x0 0x7 0x0 0x3 0x4 0x0 0x0 0x0 0x0
2022-07-20 10:25:13,830 pymodbus.factory - DEBUG - Factory Response[ReadHoldingRegistersResponse: 3]
2022-07-20 10:25:13,830 pymodbus.transaction - DEBUG - Adding transaction 24
2022-07-20 10:25:13,831 pymodbus.transaction - DEBUG - Getting transaction 24
2022-07-20 10:25:13,831 pymodbus.transaction - DEBUG - Changing transaction state from 'PROCESSING REPLY' to 'TRANSACTION_COMPLETE'
2022-07-20 10:25:13,831 pymodbus.transaction - DEBUG - Current transaction state - TRANSACTION_COMPLETE
2022-07-20 10:25:13,831 pymodbus.transaction - DEBUG - Running transaction 25
2022-07-20 10:25:13,831 pymodbus.transaction - DEBUG - SEND: 0x0 0x19 0x0 0x0 0x0 0x6 0x0 0x3 0x0 0x2e 0x0 0x2
2022-07-20 10:25:13,831 pymodbus.client.sync - DEBUG - New Transaction state 'SENDING'
2022-07-20 10:25:13,831 pymodbus.transaction - DEBUG - Changing transaction state from 'SENDING' to 'WAITING FOR REPLY'
2022-07-20 10:25:13,861 pymodbus.transaction - DEBUG - Changing transaction state from 'WAITING FOR REPLY' to 'PROCESSING REPLY'
2022-07-20 10:25:13,861 pymodbus.transaction - DEBUG - RECV: 0x0 0x19 0x0 0x0 0x0 0x7 0x0 0x3 0x4 0x0 0x0 0x0 0x0
2022-07-20 10:25:13,861 pymodbus.framer.socket_framer - DEBUG - Processing: 0x0 0x19 0x0 0x0 0x0 0x7 0x0 0x3 0x4 0x0 0x0 0x0 0x0
2022-07-20 10:25:13,861 pymodbus.factory - DEBUG - Factory Response[ReadHoldingRegistersResponse: 3]
2022-07-20 10:25:13,861 pymodbus.transaction - DEBUG - Adding transaction 25
2022-07-20 10:25:13,861 pymodbus.transaction - DEBUG - Getting transaction 25
2022-07-20 10:25:13,861 pymodbus.transaction - DEBUG - Changing transaction state from 'PROCESSING REPLY' to 'TRANSACTION_COMPLETE'
2022-07-20 10:25:13,861 pymodbus.transaction - DEBUG - Current transaction state - TRANSACTION_COMPLETE
2022-07-20 10:25:13,861 pymodbus.transaction - DEBUG - Running transaction 26
2022-07-20 10:25:13,861 pymodbus.transaction - DEBUG - SEND: 0x0 0x1a 0x0 0x0 0x0 0x6 0x0 0x3 0x0 0x30 0x0 0x2
2022-07-20 10:25:13,862 pymodbus.client.sync - DEBUG - New Transaction state 'SENDING'
2022-07-20 10:25:13,862 pymodbus.transaction - DEBUG - Changing transaction state from 'SENDING' to 'WAITING FOR REPLY'
2022-07-20 10:25:13,892 pymodbus.transaction - DEBUG - Changing transaction state from 'WAITING FOR REPLY' to 'PROCESSING REPLY'
2022-07-20 10:25:13,893 pymodbus.transaction - DEBUG - RECV: 0x0 0x1a 0x0 0x0 0x0 0x7 0x0 0x3 0x4 0x0 0x0 0x0 0x0
2022-07-20 10:25:13,893 pymodbus.framer.socket_framer - DEBUG - Processing: 0x0 0x1a 0x0 0x0 0x0 0x7 0x0 0x3 0x4 0x0 0x0 0x0 0x0
2022-07-20 10:25:13,893 pymodbus.factory - DEBUG - Factory Response[ReadHoldingRegistersResponse: 3]
2022-07-20 10:25:13,893 pymodbus.transaction - DEBUG - Adding transaction 26
2022-07-20 10:25:13,893 pymodbus.transaction - DEBUG - Getting transaction 26
2022-07-20 10:25:13,893 pymodbus.transaction - DEBUG - Changing transaction state from 'PROCESSING REPLY' to 'TRANSACTION_COMPLETE'
2022-07-20 10:25:13,893 pymodbus.transaction - DEBUG - Current transaction state - TRANSACTION_COMPLETE
2022-07-20 10:25:13,893 pymodbus.transaction - DEBUG - Running transaction 27
2022-07-20 10:25:13,893 pymodbus.transaction - DEBUG - SEND: 0x0 0x1b 0x0 0x0 0x0 0x6 0x0 0x3 0x0 0x32 0x0 0x2
2022-07-20 10:25:13,893 pymodbus.client.sync - DEBUG - New Transaction state 'SENDING'
2022-07-20 10:25:13,893 pymodbus.transaction - DEBUG - Changing transaction state from 'SENDING' to 'WAITING FOR REPLY'
2022-07-20 10:25:13,923 pymodbus.transaction - DEBUG - Changing transaction state from 'WAITING FOR REPLY' to 'PROCESSING REPLY'
2022-07-20 10:25:13,923 pymodbus.transaction - DEBUG - RECV: 0x0 0x1b 0x0 0x0 0x0 0x7 0x0 0x3 0x4 0x0 0x0 0x0 0x0
2022-07-20 10:25:13,923 pymodbus.framer.socket_framer - DEBUG - Processing: 0x0 0x1b 0x0 0x0 0x0 0x7 0x0 0x3 0x4 0x0 0x0 0x0 0x0
2022-07-20 10:25:13,923 pymodbus.factory - DEBUG - Factory Response[ReadHoldingRegistersResponse: 3]
2022-07-20 10:25:13,924 pymodbus.transaction - DEBUG - Adding transaction 27
2022-07-20 10:25:13,924 pymodbus.transaction - DEBUG - Getting transaction 27
2022-07-20 10:25:13,924 pymodbus.transaction - DEBUG - Changing transaction state from 'PROCESSING REPLY' to 'TRANSACTION_COMPLETE'
2022-07-20 10:25:13,924 pymodbus.transaction - DEBUG - Current transaction state - TRANSACTION_COMPLETE
2022-07-20 10:25:13,924 pymodbus.transaction - DEBUG - Running transaction 28
2022-07-20 10:25:13,924 pymodbus.transaction - DEBUG - SEND: 0x0 0x1c 0x0 0x0 0x0 0x6 0x0 0x3 0x0 0x34 0x0 0x2
2022-07-20 10:25:13,924 pymodbus.client.sync - DEBUG - New Transaction state 'SENDING'
2022-07-20 10:25:13,924 pymodbus.transaction - DEBUG - Changing transaction state from 'SENDING' to 'WAITING FOR REPLY'
2022-07-20 10:25:13,954 pymodbus.transaction - DEBUG - Changing transaction state from 'WAITING FOR REPLY' to 'PROCESSING REPLY'
2022-07-20 10:25:13,955 pymodbus.transaction - DEBUG - RECV: 0x0 0x1c 0x0 0x0 0x0 0x7 0x0 0x3 0x4 0x0 0x0 0x0 0x0
2022-07-20 10:25:13,955 pymodbus.framer.socket_framer - DEBUG - Processing: 0x0 0x1c 0x0 0x0 0x0 0x7 0x0 0x3 0x4 0x0 0x0 0x0 0x0
2022-07-20 10:25:13,955 pymodbus.factory - DEBUG - Factory Response[ReadHoldingRegistersResponse: 3]
2022-07-20 10:25:13,955 pymodbus.transaction - DEBUG - Adding transaction 28
2022-07-20 10:25:13,955 pymodbus.transaction - DEBUG - Getting transaction 28
2022-07-20 10:25:13,956 pymodbus.transaction - DEBUG - Changing transaction state from 'PROCESSING REPLY' to 'TRANSACTION_COMPLETE'
2022-07-20 10:25:13,956 pymodbus.transaction - DEBUG - Current transaction state - TRANSACTION_COMPLETE
2022-07-20 10:25:13,956 pymodbus.transaction - DEBUG - Running transaction 29
2022-07-20 10:25:13,956 pymodbus.transaction - DEBUG - SEND: 0x0 0x1d 0x0 0x0 0x0 0x6 0x0 0x3 0x0 0x36 0x0 0x2
2022-07-20 10:25:13,956 pymodbus.client.sync - DEBUG - New Transaction state 'SENDING'
2022-07-20 10:25:13,956 pymodbus.transaction - DEBUG - Changing transaction state from 'SENDING' to 'WAITING FOR REPLY'
2022-07-20 10:25:13,985 pymodbus.transaction - DEBUG - Changing transaction state from 'WAITING FOR REPLY' to 'PROCESSING REPLY'
2022-07-20 10:25:13,985 pymodbus.transaction - DEBUG - RECV: 0x0 0x1d 0x0 0x0 0x0 0x7 0x0 0x3 0x4 0x0 0x0 0x0 0x0
2022-07-20 10:25:13,985 pymodbus.framer.socket_framer - DEBUG - Processing: 0x0 0x1d 0x0 0x0 0x0 0x7 0x0 0x3 0x4 0x0 0x0 0x0 0x0
2022-07-20 10:25:13,985 pymodbus.factory - DEBUG - Factory Response[ReadHoldingRegistersResponse: 3]
2022-07-20 10:25:13,986 pymodbus.transaction - DEBUG - Adding transaction 29
2022-07-20 10:25:13,986 pymodbus.transaction - DEBUG - Getting transaction 29
2022-07-20 10:25:13,986 pymodbus.transaction - DEBUG - Changing transaction state from 'PROCESSING REPLY' to 'TRANSACTION_COMPLETE'
2022-07-20 10:25:13,986 pymodbus.transaction - DEBUG - Current transaction state - TRANSACTION_COMPLETE
2022-07-20 10:25:13,986 pymodbus.transaction - DEBUG - Running transaction 30
2022-07-20 10:25:13,986 pymodbus.transaction - DEBUG - SEND: 0x0 0x1e 0x0 0x0 0x0 0x6 0x0 0x3 0x0 0x38 0x0 0x2
2022-07-20 10:25:13,986 pymodbus.client.sync - DEBUG - New Transaction state 'SENDING'
2022-07-20 10:25:13,987 pymodbus.transaction - DEBUG - Changing transaction state from 'SENDING' to 'WAITING FOR REPLY'
2022-07-20 10:25:14,016 pymodbus.transaction - DEBUG - Changing transaction state from 'WAITING FOR REPLY' to 'PROCESSING REPLY'
2022-07-20 10:25:14,016 pymodbus.transaction - DEBUG - RECV: 0x0 0x1e 0x0 0x0 0x0 0x7 0x0 0x3 0x4 0x0 0x0 0x0 0x0
2022-07-20 10:25:14,016 pymodbus.framer.socket_framer - DEBUG - Processing: 0x0 0x1e 0x0 0x0 0x0 0x7 0x0 0x3 0x4 0x0 0x0 0x0 0x0
2022-07-20 10:25:14,016 pymodbus.factory - DEBUG - Factory Response[ReadHoldingRegistersResponse: 3]
2022-07-20 10:25:14,016 pymodbus.transaction - DEBUG - Adding transaction 30
2022-07-20 10:25:14,016 pymodbus.transaction - DEBUG - Getting transaction 30
2022-07-20 10:25:14,016 pymodbus.transaction - DEBUG - Changing transaction state from 'PROCESSING REPLY' to 'TRANSACTION_COMPLETE'
2022-07-20 10:25:14,016 pymodbus.transaction - DEBUG - Current transaction state - TRANSACTION_COMPLETE
2022-07-20 10:25:14,016 pymodbus.transaction - DEBUG - Running transaction 31
2022-07-20 10:25:14,016 pymodbus.transaction - DEBUG - SEND: 0x0 0x1f 0x0 0x0 0x0 0x6 0x0 0x3 0x0 0x3a 0x0 0x2
2022-07-20 10:25:14,016 pymodbus.client.sync - DEBUG - New Transaction state 'SENDING'
2022-07-20 10:25:14,016 pymodbus.transaction - DEBUG - Changing transaction state from 'SENDING' to 'WAITING FOR REPLY'
2022-07-20 10:25:14,046 pymodbus.transaction - DEBUG - Changing transaction state from 'WAITING FOR REPLY' to 'PROCESSING REPLY'
2022-07-20 10:25:14,046 pymodbus.transaction - DEBUG - RECV: 0x0 0x1f 0x0 0x0 0x0 0x7 0x0 0x3 0x4 0x0 0x0 0x0 0x0
2022-07-20 10:25:14,046 pymodbus.framer.socket_framer - DEBUG - Processing: 0x0 0x1f 0x0 0x0 0x0 0x7 0x0 0x3 0x4 0x0 0x0 0x0 0x0
2022-07-20 10:25:14,047 pymodbus.factory - DEBUG - Factory Response[ReadHoldingRegistersResponse: 3]
2022-07-20 10:25:14,047 pymodbus.transaction - DEBUG - Adding transaction 31
2022-07-20 10:25:14,047 pymodbus.transaction - DEBUG - Getting transaction 31
2022-07-20 10:25:14,047 pymodbus.transaction - DEBUG - Changing transaction state from 'PROCESSING REPLY' to 'TRANSACTION_COMPLETE'
2022-07-20 10:25:14,047 pymodbus.transaction - DEBUG - Current transaction state - TRANSACTION_COMPLETE
2022-07-20 10:25:14,047 pymodbus.transaction - DEBUG - Running transaction 32
2022-07-20 10:25:14,047 pymodbus.transaction - DEBUG - SEND: 0x0 0x20 0x0 0x0 0x0 0x6 0x0 0x3 0x0 0x3c 0x0 0x2
2022-07-20 10:25:14,047 pymodbus.client.sync - DEBUG - New Transaction state 'SENDING'
2022-07-20 10:25:14,047 pymodbus.transaction - DEBUG - Changing transaction state from 'SENDING' to 'WAITING FOR REPLY'
2022-07-20 10:25:14,078 pymodbus.transaction - DEBUG - Changing transaction state from 'WAITING FOR REPLY' to 'PROCESSING REPLY'
2022-07-20 10:25:14,079 pymodbus.transaction - DEBUG - RECV: 0x0 0x20 0x0 0x0 0x0 0x7 0x0 0x3 0x4 0x0 0x0 0x0 0x0
2022-07-20 10:25:14,079 pymodbus.framer.socket_framer - DEBUG - Processing: 0x0 0x20 0x0 0x0 0x0 0x7 0x0 0x3 0x4 0x0 0x0 0x0 0x0
2022-07-20 10:25:14,079 pymodbus.factory - DEBUG - Factory Response[ReadHoldingRegistersResponse: 3]
2022-07-20 10:25:14,079 pymodbus.transaction - DEBUG - Adding transaction 32
2022-07-20 10:25:14,079 pymodbus.transaction - DEBUG - Getting transaction 32
2022-07-20 10:25:14,079 pymodbus.transaction - DEBUG - Changing transaction state from 'PROCESSING REPLY' to 'TRANSACTION_COMPLETE'
2022-07-20 10:25:14,079 pymodbus.transaction - DEBUG - Current transaction state - TRANSACTION_COMPLETE
2022-07-20 10:25:14,079 pymodbus.transaction - DEBUG - Running transaction 33
2022-07-20 10:25:14,079 pymodbus.transaction - DEBUG - SEND: 0x0 0x21 0x0 0x0 0x0 0x6 0x0 0x3 0x0 0x3e 0x0 0x2
2022-07-20 10:25:14,079 pymodbus.client.sync - DEBUG - New Transaction state 'SENDING'
2022-07-20 10:25:14,079 pymodbus.transaction - DEBUG - Changing transaction state from 'SENDING' to 'WAITING FOR REPLY'
2022-07-20 10:25:14,110 pymodbus.transaction - DEBUG - Changing transaction state from 'WAITING FOR REPLY' to 'PROCESSING REPLY'
2022-07-20 10:25:14,111 pymodbus.transaction - DEBUG - RECV: 0x0 0x21 0x0 0x0 0x0 0x7 0x0 0x3 0x4 0x0 0x0 0x0 0x0
2022-07-20 10:25:14,111 pymodbus.framer.socket_framer - DEBUG - Processing: 0x0 0x21 0x0 0x0 0x0 0x7 0x0 0x3 0x4 0x0 0x0 0x0 0x0
2022-07-20 10:25:14,111 pymodbus.factory - DEBUG - Factory Response[ReadHoldingRegistersResponse: 3]
2022-07-20 10:25:14,111 pymodbus.transaction - DEBUG - Adding transaction 33
2022-07-20 10:25:14,111 pymodbus.transaction - DEBUG - Getting transaction 33
2022-07-20 10:25:14,111 pymodbus.transaction - DEBUG - Changing transaction state from 'PROCESSING REPLY' to 'TRANSACTION_COMPLETE'
2022-07-20 10:25:14,111 pymodbus.transaction - DEBUG - Current transaction state - TRANSACTION_COMPLETE
2022-07-20 10:25:14,111 pymodbus.transaction - DEBUG - Running transaction 34
2022-07-20 10:25:14,111 pymodbus.transaction - DEBUG - SEND: 0x0 0x22 0x0 0x0 0x0 0x6 0x0 0x3 0x0 0x40 0x0 0x2
2022-07-20 10:25:14,111 pymodbus.client.sync - DEBUG - New Transaction state 'SENDING'
2022-07-20 10:25:14,111 pymodbus.transaction - DEBUG - Changing transaction state from 'SENDING' to 'WAITING FOR REPLY'
2022-07-20 10:25:14,142 pymodbus.transaction - DEBUG - Changing transaction state from 'WAITING FOR REPLY' to 'PROCESSING REPLY'
2022-07-20 10:25:14,142 pymodbus.transaction - DEBUG - RECV: 0x0 0x22 0x0 0x0 0x0 0x7 0x0 0x3 0x4 0x0 0x0 0x0 0x0
2022-07-20 10:25:14,142 pymodbus.framer.socket_framer - DEBUG - Processing: 0x0 0x22 0x0 0x0 0x0 0x7 0x0 0x3 0x4 0x0 0x0 0x0 0x0
2022-07-20 10:25:14,142 pymodbus.factory - DEBUG - Factory Response[ReadHoldingRegistersResponse: 3]
2022-07-20 10:25:14,142 pymodbus.transaction - DEBUG - Adding transaction 34
2022-07-20 10:25:14,142 pymodbus.transaction - DEBUG - Getting transaction 34
2022-07-20 10:25:14,142 pymodbus.transaction - DEBUG - Changing transaction state from 'PROCESSING REPLY' to 'TRANSACTION_COMPLETE'
2022-07-20 10:25:14,142 pymodbus.transaction - DEBUG - Current transaction state - TRANSACTION_COMPLETE
2022-07-20 10:25:14,142 pymodbus.transaction - DEBUG - Running transaction 35
2022-07-20 10:25:14,142 pymodbus.transaction - DEBUG - SEND: 0x0 0x23 0x0 0x0 0x0 0x6 0x0 0x3 0x0 0x42 0x0 0x2
2022-07-20 10:25:14,142 pymodbus.client.sync - DEBUG - New Transaction state 'SENDING'
2022-07-20 10:25:14,142 pymodbus.transaction - DEBUG - Changing transaction state from 'SENDING' to 'WAITING FOR REPLY'
2022-07-20 10:25:14,173 pymodbus.transaction - DEBUG - Changing transaction state from 'WAITING FOR REPLY' to 'PROCESSING REPLY'
2022-07-20 10:25:14,173 pymodbus.transaction - DEBUG - RECV: 0x0 0x23 0x0 0x0 0x0 0x7 0x0 0x3 0x4 0x0 0x0 0x0 0x0
2022-07-20 10:25:14,173 pymodbus.framer.socket_framer - DEBUG - Processing: 0x0 0x23 0x0 0x0 0x0 0x7 0x0 0x3 0x4 0x0 0x0 0x0 0x0
2022-07-20 10:25:14,173 pymodbus.factory - DEBUG - Factory Response[ReadHoldingRegistersResponse: 3]
2022-07-20 10:25:14,174 pymodbus.transaction - DEBUG - Adding transaction 35
2022-07-20 10:25:14,174 pymodbus.transaction - DEBUG - Getting transaction 35
2022-07-20 10:25:14,174 pymodbus.transaction - DEBUG - Changing transaction state from 'PROCESSING REPLY' to 'TRANSACTION_COMPLETE'
2022-07-20 10:25:14,174 pymodbus.transaction - DEBUG - Current transaction state - TRANSACTION_COMPLETE
2022-07-20 10:25:14,174 pymodbus.transaction - DEBUG - Running transaction 36
2022-07-20 10:25:14,174 pymodbus.transaction - DEBUG - SEND: 0x0 0x24 0x0 0x0 0x0 0x6 0x0 0x3 0x0 0x44 0x0 0x2
2022-07-20 10:25:14,175 pymodbus.client.sync - DEBUG - New Transaction state 'SENDING'
2022-07-20 10:25:14,175 pymodbus.transaction - DEBUG - Changing transaction state from 'SENDING' to 'WAITING FOR REPLY'
2022-07-20 10:25:14,204 pymodbus.transaction - DEBUG - Changing transaction state from 'WAITING FOR REPLY' to 'PROCESSING REPLY'
2022-07-20 10:25:14,204 pymodbus.transaction - DEBUG - RECV: 0x0 0x24 0x0 0x0 0x0 0x7 0x0 0x3 0x4 0x0 0x0 0x0 0x0
2022-07-20 10:25:14,204 pymodbus.framer.socket_framer - DEBUG - Processing: 0x0 0x24 0x0 0x0 0x0 0x7 0x0 0x3 0x4 0x0 0x0 0x0 0x0
2022-07-20 10:25:14,204 pymodbus.factory - DEBUG - Factory Response[ReadHoldingRegistersResponse: 3]
2022-07-20 10:25:14,204 pymodbus.transaction - DEBUG - Adding transaction 36
2022-07-20 10:25:14,205 pymodbus.transaction - DEBUG - Getting transaction 36
2022-07-20 10:25:14,205 pymodbus.transaction - DEBUG - Changing transaction state from 'PROCESSING REPLY' to 'TRANSACTION_COMPLETE'
2022-07-20 10:25:14,205 pymodbus.transaction - DEBUG - Current transaction state - TRANSACTION_COMPLETE
2022-07-20 10:25:14,205 pymodbus.transaction - DEBUG - Running transaction 37
2022-07-20 10:25:14,205 pymodbus.transaction - DEBUG - SEND: 0x0 0x25 0x0 0x0 0x0 0x6 0x0 0x3 0x0 0x46 0x0 0x2
2022-07-20 10:25:14,205 pymodbus.client.sync - DEBUG - New Transaction state 'SENDING'
2022-07-20 10:25:14,205 pymodbus.transaction - DEBUG - Changing transaction state from 'SENDING' to 'WAITING FOR REPLY'
2022-07-20 10:25:14,235 pymodbus.transaction - DEBUG - Changing transaction state from 'WAITING FOR REPLY' to 'PROCESSING REPLY'
2022-07-20 10:25:14,235 pymodbus.transaction - DEBUG - RECV: 0x0 0x25 0x0 0x0 0x0 0x7 0x0 0x3 0x4 0x0 0x0 0x0 0x0
2022-07-20 10:25:14,235 pymodbus.framer.socket_framer - DEBUG - Processing: 0x0 0x25 0x0 0x0 0x0 0x7 0x0 0x3 0x4 0x0 0x0 0x0 0x0
2022-07-20 10:25:14,235 pymodbus.factory - DEBUG - Factory Response[ReadHoldingRegistersResponse: 3]
2022-07-20 10:25:14,235 pymodbus.transaction - DEBUG - Adding transaction 37
2022-07-20 10:25:14,235 pymodbus.transaction - DEBUG - Getting transaction 37
2022-07-20 10:25:14,236 pymodbus.transaction - DEBUG - Changing transaction state from 'PROCESSING REPLY' to 'TRANSACTION_COMPLETE'
2022-07-20 10:25:14,236 pymodbus.transaction - DEBUG - Current transaction state - TRANSACTION_COMPLETE
2022-07-20 10:25:14,236 pymodbus.transaction - DEBUG - Running transaction 38
2022-07-20 10:25:14,236 pymodbus.transaction - DEBUG - SEND: 0x0 0x26 0x0 0x0 0x0 0x6 0x0 0x3 0x0 0x48 0x0 0x2
2022-07-20 10:25:14,236 pymodbus.client.sync - DEBUG - New Transaction state 'SENDING'
2022-07-20 10:25:14,236 pymodbus.transaction - DEBUG - Changing transaction state from 'SENDING' to 'WAITING FOR REPLY'
2022-07-20 10:25:14,266 pymodbus.transaction - DEBUG - Changing transaction state from 'WAITING FOR REPLY' to 'PROCESSING REPLY'
2022-07-20 10:25:14,266 pymodbus.transaction - DEBUG - RECV: 0x0 0x26 0x0 0x0 0x0 0x7 0x0 0x3 0x4 0x0 0x0 0x0 0x0
2022-07-20 10:25:14,266 pymodbus.framer.socket_framer - DEBUG - Processing: 0x0 0x26 0x0 0x0 0x0 0x7 0x0 0x3 0x4 0x0 0x0 0x0 0x0
2022-07-20 10:25:14,266 pymodbus.factory - DEBUG - Factory Response[ReadHoldingRegistersResponse: 3]
2022-07-20 10:25:14,266 pymodbus.transaction - DEBUG - Adding transaction 38
2022-07-20 10:25:14,266 pymodbus.transaction - DEBUG - Getting transaction 38
2022-07-20 10:25:14,266 pymodbus.transaction - DEBUG - Changing transaction state from 'PROCESSING REPLY' to 'TRANSACTION_COMPLETE'
2022-07-20 10:25:14,266 pymodbus.transaction - DEBUG - Current transaction state - TRANSACTION_COMPLETE
2022-07-20 10:25:14,266 pymodbus.transaction - DEBUG - Running transaction 39
2022-07-20 10:25:14,266 pymodbus.transaction - DEBUG - SEND: 0x0 0x27 0x0 0x0 0x0 0x6 0x0 0x3 0x0 0x4a 0x0 0x2
2022-07-20 10:25:14,266 pymodbus.client.sync - DEBUG - New Transaction state 'SENDING'
2022-07-20 10:25:14,266 pymodbus.transaction - DEBUG - Changing transaction state from 'SENDING' to 'WAITING FOR REPLY'
2022-07-20 10:25:14,296 pymodbus.transaction - DEBUG - Changing transaction state from 'WAITING FOR REPLY' to 'PROCESSING REPLY'
2022-07-20 10:25:14,296 pymodbus.transaction - DEBUG - RECV: 0x0 0x27 0x0 0x0 0x0 0x7 0x0 0x3 0x4 0x0 0x0 0x0 0x0
2022-07-20 10:25:14,297 pymodbus.framer.socket_framer - DEBUG - Processing: 0x0 0x27 0x0 0x0 0x0 0x7 0x0 0x3 0x4 0x0 0x0 0x0 0x0
2022-07-20 10:25:14,297 pymodbus.factory - DEBUG - Factory Response[ReadHoldingRegistersResponse: 3]
2022-07-20 10:25:14,297 pymodbus.transaction - DEBUG - Adding transaction 39
2022-07-20 10:25:14,297 pymodbus.transaction - DEBUG - Getting transaction 39
2022-07-20 10:25:14,297 pymodbus.transaction - DEBUG - Changing transaction state from 'PROCESSING REPLY' to 'TRANSACTION_COMPLETE'
2022-07-20 10:25:14,297 pymodbus.transaction - DEBUG - Current transaction state - TRANSACTION_COMPLETE
2022-07-20 10:25:14,297 pymodbus.transaction - DEBUG - Running transaction 40
2022-07-20 10:25:14,298 pymodbus.transaction - DEBUG - SEND: 0x0 0x28 0x0 0x0 0x0 0x6 0x0 0x3 0x0 0x4c 0x0 0x2
2022-07-20 10:25:14,299 pymodbus.client.sync - DEBUG - New Transaction state 'SENDING'
2022-07-20 10:25:14,299 pymodbus.transaction - DEBUG - Changing transaction state from 'SENDING' to 'WAITING FOR REPLY'
2022-07-20 10:25:14,328 pymodbus.transaction - DEBUG - Changing transaction state from 'WAITING FOR REPLY' to 'PROCESSING REPLY'
2022-07-20 10:25:14,328 pymodbus.transaction - DEBUG - RECV: 0x0 0x28 0x0 0x0 0x0 0x7 0x0 0x3 0x4 0x0 0x0 0x0 0x0
2022-07-20 10:25:14,328 pymodbus.framer.socket_framer - DEBUG - Processing: 0x0 0x28 0x0 0x0 0x0 0x7 0x0 0x3 0x4 0x0 0x0 0x0 0x0
2022-07-20 10:25:14,328 pymodbus.factory - DEBUG - Factory Response[ReadHoldingRegistersResponse: 3]
2022-07-20 10:25:14,328 pymodbus.transaction - DEBUG - Adding transaction 40
2022-07-20 10:25:14,328 pymodbus.transaction - DEBUG - Getting transaction 40
2022-07-20 10:25:14,328 pymodbus.transaction - DEBUG - Changing transaction state from 'PROCESSING REPLY' to 'TRANSACTION_COMPLETE'
2022-07-20 10:25:14,328 pymodbus.transaction - DEBUG - Current transaction state - TRANSACTION_COMPLETE
2022-07-20 10:25:14,328 pymodbus.transaction - DEBUG - Running transaction 41
2022-07-20 10:25:14,328 pymodbus.transaction - DEBUG - SEND: 0x0 0x29 0x0 0x0 0x0 0x6 0x0 0x3 0x0 0x4e 0x0 0x2
2022-07-20 10:25:14,328 pymodbus.client.sync - DEBUG - New Transaction state 'SENDING'
2022-07-20 10:25:14,328 pymodbus.transaction - DEBUG - Changing transaction state from 'SENDING' to 'WAITING FOR REPLY'
2022-07-20 10:25:14,359 pymodbus.transaction - DEBUG - Changing transaction state from 'WAITING FOR REPLY' to 'PROCESSING REPLY'
2022-07-20 10:25:14,360 pymodbus.transaction - DEBUG - RECV: 0x0 0x29 0x0 0x0 0x0 0x7 0x0 0x3 0x4 0x0 0x0 0x0 0x0
2022-07-20 10:25:14,360 pymodbus.framer.socket_framer - DEBUG - Processing: 0x0 0x29 0x0 0x0 0x0 0x7 0x0 0x3 0x4 0x0 0x0 0x0 0x0
2022-07-20 10:25:14,360 pymodbus.factory - DEBUG - Factory Response[ReadHoldingRegistersResponse: 3]
2022-07-20 10:25:14,361 pymodbus.transaction - DEBUG - Adding transaction 41
2022-07-20 10:25:14,361 pymodbus.transaction - DEBUG - Getting transaction 41
2022-07-20 10:25:14,361 pymodbus.transaction - DEBUG - Changing transaction state from 'PROCESSING REPLY' to 'TRANSACTION_COMPLETE'
2022-07-20 10:25:14,361 pymodbus.transaction - DEBUG - Current transaction state - TRANSACTION_COMPLETE
2022-07-20 10:25:14,361 pymodbus.transaction - DEBUG - Running transaction 42
2022-07-20 10:25:14,362 pymodbus.transaction - DEBUG - SEND: 0x0 0x2a 0x0 0x0 0x0 0x6 0x0 0x3 0x0 0x50 0x0 0x2
2022-07-20 10:25:14,362 pymodbus.client.sync - DEBUG - New Transaction state 'SENDING'
2022-07-20 10:25:14,362 pymodbus.transaction - DEBUG - Changing transaction state from 'SENDING' to 'WAITING FOR REPLY'
2022-07-20 10:25:14,391 pymodbus.transaction - DEBUG - Changing transaction state from 'WAITING FOR REPLY' to 'PROCESSING REPLY'
2022-07-20 10:25:14,391 pymodbus.transaction - DEBUG - RECV: 0x0 0x2a 0x0 0x0 0x0 0x7 0x0 0x3 0x4 0x0 0x0 0x0 0x0
2022-07-20 10:25:14,391 pymodbus.framer.socket_framer - DEBUG - Processing: 0x0 0x2a 0x0 0x0 0x0 0x7 0x0 0x3 0x4 0x0 0x0 0x0 0x0
2022-07-20 10:25:14,391 pymodbus.factory - DEBUG - Factory Response[ReadHoldingRegistersResponse: 3]
2022-07-20 10:25:14,391 pymodbus.transaction - DEBUG - Adding transaction 42
2022-07-20 10:25:14,391 pymodbus.transaction - DEBUG - Getting transaction 42
2022-07-20 10:25:14,391 pymodbus.transaction - DEBUG - Changing transaction state from 'PROCESSING REPLY' to 'TRANSACTION_COMPLETE'
2022-07-20 10:25:14,391 pymodbus.transaction - DEBUG - Current transaction state - TRANSACTION_COMPLETE
2022-07-20 10:25:14,391 pymodbus.transaction - DEBUG - Running transaction 43
2022-07-20 10:25:14,391 pymodbus.transaction - DEBUG - SEND: 0x0 0x2b 0x0 0x0 0x0 0x6 0x0 0x3 0x0 0x52 0x0 0x2
2022-07-20 10:25:14,392 pymodbus.client.sync - DEBUG - New Transaction state 'SENDING'
2022-07-20 10:25:14,392 pymodbus.transaction - DEBUG - Changing transaction state from 'SENDING' to 'WAITING FOR REPLY'
2022-07-20 10:25:14,422 pymodbus.transaction - DEBUG - Changing transaction state from 'WAITING FOR REPLY' to 'PROCESSING REPLY'
2022-07-20 10:25:14,422 pymodbus.transaction - DEBUG - RECV: 0x0 0x2b 0x0 0x0 0x0 0x7 0x0 0x3 0x4 0x0 0x0 0x0 0x0
2022-07-20 10:25:14,422 pymodbus.framer.socket_framer - DEBUG - Processing: 0x0 0x2b 0x0 0x0 0x0 0x7 0x0 0x3 0x4 0x0 0x0 0x0 0x0
2022-07-20 10:25:14,422 pymodbus.factory - DEBUG - Factory Response[ReadHoldingRegistersResponse: 3]
2022-07-20 10:25:14,422 pymodbus.transaction - DEBUG - Adding transaction 43
2022-07-20 10:25:14,422 pymodbus.transaction - DEBUG - Getting transaction 43
2022-07-20 10:25:14,422 pymodbus.transaction - DEBUG - Changing transaction state from 'PROCESSING REPLY' to 'TRANSACTION_COMPLETE'
2022-07-20 10:25:14,423 pymodbus.transaction - DEBUG - Current transaction state - TRANSACTION_COMPLETE
2022-07-20 10:25:14,423 pymodbus.transaction - DEBUG - Running transaction 44
2022-07-20 10:25:14,423 pymodbus.transaction - DEBUG - SEND: 0x0 0x2c 0x0 0x0 0x0 0x6 0x0 0x3 0x0 0x54 0x0 0x2
2022-07-20 10:25:14,423 pymodbus.client.sync - DEBUG - New Transaction state 'SENDING'
2022-07-20 10:25:14,423 pymodbus.transaction - DEBUG - Changing transaction state from 'SENDING' to 'WAITING FOR REPLY'
2022-07-20 10:25:14,452 pymodbus.transaction - DEBUG - Changing transaction state from 'WAITING FOR REPLY' to 'PROCESSING REPLY'
2022-07-20 10:25:14,452 pymodbus.transaction - DEBUG - RECV: 0x0 0x2c 0x0 0x0 0x0 0x7 0x0 0x3 0x4 0x0 0x0 0x0 0x0
2022-07-20 10:25:14,452 pymodbus.framer.socket_framer - DEBUG - Processing: 0x0 0x2c 0x0 0x0 0x0 0x7 0x0 0x3 0x4 0x0 0x0 0x0 0x0
2022-07-20 10:25:14,452 pymodbus.factory - DEBUG - Factory Response[ReadHoldingRegistersResponse: 3]
2022-07-20 10:25:14,452 pymodbus.transaction - DEBUG - Adding transaction 44
2022-07-20 10:25:14,452 pymodbus.transaction - DEBUG - Getting transaction 44
2022-07-20 10:25:14,453 pymodbus.transaction - DEBUG - Changing transaction state from 'PROCESSING REPLY' to 'TRANSACTION_COMPLETE'
2022-07-20 10:25:14,453 pymodbus.transaction - DEBUG - Current transaction state - TRANSACTION_COMPLETE
2022-07-20 10:25:14,453 pymodbus.transaction - DEBUG - Running transaction 45
2022-07-20 10:25:14,453 pymodbus.transaction - DEBUG - SEND: 0x0 0x2d 0x0 0x0 0x0 0x6 0x0 0x3 0x0 0x56 0x0 0x2
2022-07-20 10:25:14,453 pymodbus.client.sync - DEBUG - New Transaction state 'SENDING'
2022-07-20 10:25:14,453 pymodbus.transaction - DEBUG - Changing transaction state from 'SENDING' to 'WAITING FOR REPLY'
2022-07-20 10:25:14,484 pymodbus.transaction - DEBUG - Changing transaction state from 'WAITING FOR REPLY' to 'PROCESSING REPLY'
2022-07-20 10:25:14,484 pymodbus.transaction - DEBUG - RECV: 0x0 0x2d 0x0 0x0 0x0 0x7 0x0 0x3 0x4 0x0 0x0 0x0 0x0
2022-07-20 10:25:14,484 pymodbus.framer.socket_framer - DEBUG - Processing: 0x0 0x2d 0x0 0x0 0x0 0x7 0x0 0x3 0x4 0x0 0x0 0x0 0x0
2022-07-20 10:25:14,485 pymodbus.factory - DEBUG - Factory Response[ReadHoldingRegistersResponse: 3]
2022-07-20 10:25:14,485 pymodbus.transaction - DEBUG - Adding transaction 45
2022-07-20 10:25:14,485 pymodbus.transaction - DEBUG - Getting transaction 45
2022-07-20 10:25:14,485 pymodbus.transaction - DEBUG - Changing transaction state from 'PROCESSING REPLY' to 'TRANSACTION_COMPLETE'
2022-07-20 10:25:14,485 pymodbus.transaction - DEBUG - Current transaction state - TRANSACTION_COMPLETE
2022-07-20 10:25:14,485 pymodbus.transaction - DEBUG - Running transaction 46
2022-07-20 10:25:14,486 pymodbus.transaction - DEBUG - SEND: 0x0 0x2e 0x0 0x0 0x0 0x6 0x0 0x3 0x0 0x58 0x0 0x2
2022-07-20 10:25:14,486 pymodbus.client.sync - DEBUG - New Transaction state 'SENDING'
2022-07-20 10:25:14,486 pymodbus.transaction - DEBUG - Changing transaction state from 'SENDING' to 'WAITING FOR REPLY'
2022-07-20 10:25:14,515 pymodbus.transaction - DEBUG - Changing transaction state from 'WAITING FOR REPLY' to 'PROCESSING REPLY'
2022-07-20 10:25:14,515 pymodbus.transaction - DEBUG - RECV: 0x0 0x2e 0x0 0x0 0x0 0x7 0x0 0x3 0x4 0x0 0x0 0x0 0x0
2022-07-20 10:25:14,515 pymodbus.framer.socket_framer - DEBUG - Processing: 0x0 0x2e 0x0 0x0 0x0 0x7 0x0 0x3 0x4 0x0 0x0 0x0 0x0
2022-07-20 10:25:14,515 pymodbus.factory - DEBUG - Factory Response[ReadHoldingRegistersResponse: 3]
2022-07-20 10:25:14,515 pymodbus.transaction - DEBUG - Adding transaction 46
2022-07-20 10:25:14,515 pymodbus.transaction - DEBUG - Getting transaction 46
2022-07-20 10:25:14,515 pymodbus.transaction - DEBUG - Changing transaction state from 'PROCESSING REPLY' to 'TRANSACTION_COMPLETE'
2022-07-20 10:25:14,515 pymodbus.transaction - DEBUG - Current transaction state - TRANSACTION_COMPLETE
2022-07-20 10:25:14,515 pymodbus.transaction - DEBUG - Running transaction 47
2022-07-20 10:25:14,515 pymodbus.transaction - DEBUG - SEND: 0x0 0x2f 0x0 0x0 0x0 0x6 0x0 0x3 0x0 0x5a 0x0 0x2
2022-07-20 10:25:14,515 pymodbus.client.sync - DEBUG - New Transaction state 'SENDING'
2022-07-20 10:25:14,515 pymodbus.transaction - DEBUG - Changing transaction state from 'SENDING' to 'WAITING FOR REPLY'
2022-07-20 10:25:14,546 pymodbus.transaction - DEBUG - Changing transaction state from 'WAITING FOR REPLY' to 'PROCESSING REPLY'
2022-07-20 10:25:14,546 pymodbus.transaction - DEBUG - RECV: 0x0 0x2f 0x0 0x0 0x0 0x7 0x0 0x3 0x4 0x0 0x0 0x0 0x0
2022-07-20 10:25:14,546 pymodbus.framer.socket_framer - DEBUG - Processing: 0x0 0x2f 0x0 0x0 0x0 0x7 0x0 0x3 0x4 0x0 0x0 0x0 0x0
2022-07-20 10:25:14,546 pymodbus.factory - DEBUG - Factory Response[ReadHoldingRegistersResponse: 3]
2022-07-20 10:25:14,546 pymodbus.transaction - DEBUG - Adding transaction 47
2022-07-20 10:25:14,546 pymodbus.transaction - DEBUG - Getting transaction 47
2022-07-20 10:25:14,546 pymodbus.transaction - DEBUG - Changing transaction state from 'PROCESSING REPLY' to 'TRANSACTION_COMPLETE'
2022-07-20 10:25:14,546 pymodbus.transaction - DEBUG - Current transaction state - TRANSACTION_COMPLETE
2022-07-20 10:25:14,546 pymodbus.transaction - DEBUG - Running transaction 48
2022-07-20 10:25:14,547 pymodbus.transaction - DEBUG - SEND: 0x0 0x30 0x0 0x0 0x0 0x6 0x0 0x3 0x0 0x5c 0x0 0x2
2022-07-20 10:25:14,547 pymodbus.client.sync - DEBUG - New Transaction state 'SENDING'
2022-07-20 10:25:14,547 pymodbus.transaction - DEBUG - Changing transaction state from 'SENDING' to 'WAITING FOR REPLY'
2022-07-20 10:25:14,577 pymodbus.transaction - DEBUG - Changing transaction state from 'WAITING FOR REPLY' to 'PROCESSING REPLY'
2022-07-20 10:25:14,577 pymodbus.transaction - DEBUG - RECV: 0x0 0x30 0x0 0x0 0x0 0x7 0x0 0x3 0x4 0x0 0x0 0x0 0x0
2022-07-20 10:25:14,577 pymodbus.framer.socket_framer - DEBUG - Processing: 0x0 0x30 0x0 0x0 0x0 0x7 0x0 0x3 0x4 0x0 0x0 0x0 0x0
2022-07-20 10:25:14,577 pymodbus.factory - DEBUG - Factory Response[ReadHoldingRegistersResponse: 3]
2022-07-20 10:25:14,577 pymodbus.transaction - DEBUG - Adding transaction 48
2022-07-20 10:25:14,577 pymodbus.transaction - DEBUG - Getting transaction 48
2022-07-20 10:25:14,577 pymodbus.transaction - DEBUG - Changing transaction state from 'PROCESSING REPLY' to 'TRANSACTION_COMPLETE'
2022-07-20 10:25:14,577 pymodbus.transaction - DEBUG - Current transaction state - TRANSACTION_COMPLETE
2022-07-20 10:25:14,578 pymodbus.transaction - DEBUG - Running transaction 49
2022-07-20 10:25:14,578 pymodbus.transaction - DEBUG - SEND: 0x0 0x31 0x0 0x0 0x0 0x6 0x0 0x3 0x0 0x5e 0x0 0x2
2022-07-20 10:25:14,578 pymodbus.client.sync - DEBUG - New Transaction state 'SENDING'
2022-07-20 10:25:14,578 pymodbus.transaction - DEBUG - Changing transaction state from 'SENDING' to 'WAITING FOR REPLY'
2022-07-20 10:25:14,608 pymodbus.transaction - DEBUG - Changing transaction state from 'WAITING FOR REPLY' to 'PROCESSING REPLY'
2022-07-20 10:25:14,608 pymodbus.transaction - DEBUG - RECV: 0x0 0x31 0x0 0x0 0x0 0x7 0x0 0x3 0x4 0x0 0x0 0x0 0x0
2022-07-20 10:25:14,609 pymodbus.framer.socket_framer - DEBUG - Processing: 0x0 0x31 0x0 0x0 0x0 0x7 0x0 0x3 0x4 0x0 0x0 0x0 0x0
2022-07-20 10:25:14,609 pymodbus.factory - DEBUG - Factory Response[ReadHoldingRegistersResponse: 3]
2022-07-20 10:25:14,609 pymodbus.transaction - DEBUG - Adding transaction 49
2022-07-20 10:25:14,609 pymodbus.transaction - DEBUG - Getting transaction 49
2022-07-20 10:25:14,609 pymodbus.transaction - DEBUG - Changing transaction state from 'PROCESSING REPLY' to 'TRANSACTION_COMPLETE'
2022-07-20 10:25:14,609 pymodbus.transaction - DEBUG - Current transaction state - TRANSACTION_COMPLETE
2022-07-20 10:25:14,609 pymodbus.transaction - DEBUG - Running transaction 50
2022-07-20 10:25:14,609 pymodbus.transaction - DEBUG - SEND: 0x0 0x32 0x0 0x0 0x0 0x6 0x0 0x3 0x0 0x60 0x0 0x2
2022-07-20 10:25:14,609 pymodbus.client.sync - DEBUG - New Transaction state 'SENDING'
2022-07-20 10:25:14,609 pymodbus.transaction - DEBUG - Changing transaction state from 'SENDING' to 'WAITING FOR REPLY'
2022-07-20 10:25:14,640 pymodbus.transaction - DEBUG - Changing transaction state from 'WAITING FOR REPLY' to 'PROCESSING REPLY'
2022-07-20 10:25:14,640 pymodbus.transaction - DEBUG - RECV: 0x0 0x32 0x0 0x0 0x0 0x7 0x0 0x3 0x4 0x0 0x0 0x0 0x0
2022-07-20 10:25:14,640 pymodbus.framer.socket_framer - DEBUG - Processing: 0x0 0x32 0x0 0x0 0x0 0x7 0x0 0x3 0x4 0x0 0x0 0x0 0x0
2022-07-20 10:25:14,640 pymodbus.factory - DEBUG - Factory Response[ReadHoldingRegistersResponse: 3]
2022-07-20 10:25:14,641 pymodbus.transaction - DEBUG - Adding transaction 50
2022-07-20 10:25:14,641 pymodbus.transaction - DEBUG - Getting transaction 50
2022-07-20 10:25:14,641 pymodbus.transaction - DEBUG - Changing transaction state from 'PROCESSING REPLY' to 'TRANSACTION_COMPLETE'
2022-07-20 10:25:14,644 urllib3.connectionpool - DEBUG - Starting new HTTP connection (1): 192.168.1.36:4000
2022-07-20 10:25:14,694 urllib3.connectionpool - DEBUG - http://192.168.1.36:4000 "POST /data HTTP/1.1" 200 1252
2022-07-20 10:25:14,694 root - DEBUG - {"timestamp":"2022-07-20T02:25:13.097Z","primary_charging_relay":1,"primary_discharge_relay":80,"primary_positive_pump":0,"primary_negative_pump":0,"system_mode":0,"system_alarm_status":0,"balancing_valve":0,"positive_valve":0,"negative_valve":0,"state_of_charge":0,"bcu_mode_status":0,"bcu_voltage":0,"bcu_current":0,"bcu_power":0,"bcu_state_of_charge":0,"bcu_hydrogen_sensor":0,"bcu_leakage_sensor":0,"smoke_sensor":0,"bcu_ocv":0,"bcu_positive_tank_temp":0,"bcu_negative_tank_temp":0,"positive_tank_high_level_float":0,"negative_tank_high_level_float":0,"positive_tank_low_level_float":0,"negative_tank_low_level_float":0,"primary_stack_voltage":0,"primary_stack_current":0,"primary_stack_positive_pressure_sensor":0,"primary_stack_negative_pressure_sensor":0,"positive_stack_pressure_delta":0,"b1_primary_stack_pressure_delta":0,"sensor_temp":0,"humidity":0,"pcs1_dc_volts":0,"pcs1_dc_batt_current":0,"pcs1_dc_inverter_power":0,"pcs1_voltage":0,"pcs1_current":0,"pcs1_reactive_power":0,"pcs1_load_power":0,"pcs1_ac_supply_power":0,"pcs1_ac_out_status":0,"pcs1_fault_status":0,"pcs1_fan_speed":0,"system0PVEnable":0,"system0PVChargePower":0,"system0PVTotalPower":0,"pcs1InvFreq":0,"pcs1InternalTemperature":0,"_id":"62d7678a564a8cb8b2f98bd6","__v":0}
2022-07-20 10:25:14,698 urllib3.connectionpool - DEBUG - http://192.168.1.36:4000 "DELETE /data HTTP/1.1" 404 146
