2022-07-21 11:18:02,336 pymodbus.client.sync - DEBUG - Connection to Modbus server established. Socket ('192.168.1.36', 62872)
2022-07-21 11:18:02,337 root - DEBUG - True
2022-07-21 11:18:02,337 root - DEBUG - Reading Registers
2022-07-21 11:18:02,337 log1 - DEBUG - Reading Registers
2022-07-21 11:18:02,337 pymodbus.transaction - DEBUG - Current transaction state - IDLE
2022-07-21 11:18:02,338 pymodbus.transaction - DEBUG - Running transaction 1
2022-07-21 11:18:02,338 pymodbus.transaction - DEBUG - SEND: 0x0 0x1 0x0 0x0 0x0 0x6 0x0 0x3 0x0 0x0 0x0 0x2
2022-07-21 11:18:02,338 pymodbus.client.sync - DEBUG - New Transaction state 'SENDING'
2022-07-21 11:18:02,338 pymodbus.transaction - DEBUG - Changing transaction state from 'SENDING' to 'WAITING FOR REPLY'
2022-07-21 11:18:02,373 pymodbus.transaction - DEBUG - Changing transaction state from 'WAITING FOR REPLY' to 'PROCESSING REPLY'
2022-07-21 11:18:02,373 pymodbus.transaction - DEBUG - RECV: 0x0 0x1 0x0 0x0 0x0 0x7 0x0 0x3 0x4 0x0 0x1 0x0 0x1
2022-07-21 11:18:02,373 pymodbus.framer.socket_framer - DEBUG - Processing: 0x0 0x1 0x0 0x0 0x0 0x7 0x0 0x3 0x4 0x0 0x1 0x0 0x1
2022-07-21 11:18:02,373 pymodbus.factory - DEBUG - Factory Response[ReadHoldingRegistersResponse: 3]
2022-07-21 11:18:02,373 pymodbus.transaction - DEBUG - Adding transaction 1
2022-07-21 11:18:02,373 pymodbus.transaction - DEBUG - Getting transaction 1
2022-07-21 11:18:02,373 pymodbus.transaction - DEBUG - Changing transaction state from 'PROCESSING REPLY' to 'TRANSACTION_COMPLETE'
2022-07-21 11:18:02,373 pymodbus.transaction - DEBUG - Current transaction state - TRANSACTION_COMPLETE
2022-07-21 11:18:02,374 pymodbus.transaction - DEBUG - Running transaction 2
2022-07-21 11:18:02,374 pymodbus.transaction - DEBUG - SEND: 0x0 0x2 0x0 0x0 0x0 0x6 0x0 0x3 0x0 0x2 0x0 0x2
2022-07-21 11:18:02,374 pymodbus.client.sync - DEBUG - New Transaction state 'SENDING'
2022-07-21 11:18:02,374 pymodbus.transaction - DEBUG - Changing transaction state from 'SENDING' to 'WAITING FOR REPLY'
2022-07-21 11:18:02,404 pymodbus.transaction - DEBUG - Changing transaction state from 'WAITING FOR REPLY' to 'PROCESSING REPLY'
2022-07-21 11:18:02,404 pymodbus.transaction - DEBUG - RECV: 0x0 0x2 0x0 0x0 0x0 0x7 0x0 0x3 0x4 0x0 0x0 0x0 0x50
2022-07-21 11:18:02,405 pymodbus.framer.socket_framer - DEBUG - Processing: 0x0 0x2 0x0 0x0 0x0 0x7 0x0 0x3 0x4 0x0 0x0 0x0 0x50
2022-07-21 11:18:02,405 pymodbus.factory - DEBUG - Factory Response[ReadHoldingRegistersResponse: 3]
2022-07-21 11:18:02,405 pymodbus.transaction - DEBUG - Adding transaction 2
2022-07-21 11:18:02,405 pymodbus.transaction - DEBUG - Getting transaction 2
2022-07-21 11:18:02,405 pymodbus.transaction - DEBUG - Changing transaction state from 'PROCESSING REPLY' to 'TRANSACTION_COMPLETE'
2022-07-21 11:18:02,405 pymodbus.transaction - DEBUG - Current transaction state - TRANSACTION_COMPLETE
2022-07-21 11:18:02,405 pymodbus.transaction - DEBUG - Running transaction 3
2022-07-21 11:18:02,405 pymodbus.transaction - DEBUG - SEND: 0x0 0x3 0x0 0x0 0x0 0x6 0x0 0x3 0x0 0x4 0x0 0x2
2022-07-21 11:18:02,405 pymodbus.client.sync - DEBUG - New Transaction state 'SENDING'
2022-07-21 11:18:02,406 pymodbus.transaction - DEBUG - Changing transaction state from 'SENDING' to 'WAITING FOR REPLY'
2022-07-21 11:18:02,436 pymodbus.transaction - DEBUG - Changing transaction state from 'WAITING FOR REPLY' to 'PROCESSING REPLY'
2022-07-21 11:18:02,437 pymodbus.transaction - DEBUG - RECV: 0x0 0x3 0x0 0x0 0x0 0x7 0x0 0x3 0x4 0x0 0x0 0x0 0x17
2022-07-21 11:18:02,437 pymodbus.framer.socket_framer - DEBUG - Processing: 0x0 0x3 0x0 0x0 0x0 0x7 0x0 0x3 0x4 0x0 0x0 0x0 0x17
2022-07-21 11:18:02,437 pymodbus.factory - DEBUG - Factory Response[ReadHoldingRegistersResponse: 3]
2022-07-21 11:18:02,438 pymodbus.transaction - DEBUG - Adding transaction 3
2022-07-21 11:18:02,438 pymodbus.transaction - DEBUG - Getting transaction 3
2022-07-21 11:18:02,438 pymodbus.transaction - DEBUG - Changing transaction state from 'PROCESSING REPLY' to 'TRANSACTION_COMPLETE'
2022-07-21 11:18:02,438 pymodbus.transaction - DEBUG - Current transaction state - TRANSACTION_COMPLETE
2022-07-21 11:18:02,438 pymodbus.transaction - DEBUG - Running transaction 4
2022-07-21 11:18:02,439 pymodbus.transaction - DEBUG - SEND: 0x0 0x4 0x0 0x0 0x0 0x6 0x0 0x3 0x0 0x6 0x0 0x2
2022-07-21 11:18:02,439 pymodbus.client.sync - DEBUG - New Transaction state 'SENDING'
2022-07-21 11:18:02,439 pymodbus.transaction - DEBUG - Changing transaction state from 'SENDING' to 'WAITING FOR REPLY'
2022-07-21 11:18:02,466 pymodbus.transaction - DEBUG - Changing transaction state from 'WAITING FOR REPLY' to 'PROCESSING REPLY'
2022-07-21 11:18:02,466 pymodbus.transaction - DEBUG - RECV: 0x0 0x4 0x0 0x0 0x0 0x7 0x0 0x3 0x4 0x0 0x0 0x0 0x4
2022-07-21 11:18:02,467 pymodbus.framer.socket_framer - DEBUG - Processing: 0x0 0x4 0x0 0x0 0x0 0x7 0x0 0x3 0x4 0x0 0x0 0x0 0x4
2022-07-21 11:18:02,467 pymodbus.factory - DEBUG - Factory Response[ReadHoldingRegistersResponse: 3]
2022-07-21 11:18:02,467 pymodbus.transaction - DEBUG - Adding transaction 4
2022-07-21 11:18:02,467 pymodbus.transaction - DEBUG - Getting transaction 4
2022-07-21 11:18:02,467 pymodbus.transaction - DEBUG - Changing transaction state from 'PROCESSING REPLY' to 'TRANSACTION_COMPLETE'
2022-07-21 11:18:02,467 pymodbus.transaction - DEBUG - Current transaction state - TRANSACTION_COMPLETE
2022-07-21 11:18:02,467 pymodbus.transaction - DEBUG - Running transaction 5
2022-07-21 11:18:02,467 pymodbus.transaction - DEBUG - SEND: 0x0 0x5 0x0 0x0 0x0 0x6 0x0 0x3 0x0 0x8 0x0 0x2
2022-07-21 11:18:02,468 pymodbus.client.sync - DEBUG - New Transaction state 'SENDING'
2022-07-21 11:18:02,468 pymodbus.transaction - DEBUG - Changing transaction state from 'SENDING' to 'WAITING FOR REPLY'
2022-07-21 11:18:02,498 pymodbus.transaction - DEBUG - Changing transaction state from 'WAITING FOR REPLY' to 'PROCESSING REPLY'
2022-07-21 11:18:02,498 pymodbus.transaction - DEBUG - RECV: 0x0 0x5 0x0 0x0 0x0 0x7 0x0 0x3 0x4 0x0 0x0 0x0 0x9
2022-07-21 11:18:02,498 pymodbus.framer.socket_framer - DEBUG - Processing: 0x0 0x5 0x0 0x0 0x0 0x7 0x0 0x3 0x4 0x0 0x0 0x0 0x9
2022-07-21 11:18:02,499 pymodbus.factory - DEBUG - Factory Response[ReadHoldingRegistersResponse: 3]
2022-07-21 11:18:02,499 pymodbus.transaction - DEBUG - Adding transaction 5
2022-07-21 11:18:02,499 pymodbus.transaction - DEBUG - Getting transaction 5
2022-07-21 11:18:02,499 pymodbus.transaction - DEBUG - Changing transaction state from 'PROCESSING REPLY' to 'TRANSACTION_COMPLETE'
2022-07-21 11:18:02,499 pymodbus.transaction - DEBUG - Current transaction state - TRANSACTION_COMPLETE
2022-07-21 11:18:02,499 pymodbus.transaction - DEBUG - Running transaction 6
2022-07-21 11:18:02,499 pymodbus.transaction - DEBUG - SEND: 0x0 0x6 0x0 0x0 0x0 0x6 0x0 0x3 0x0 0xa 0x0 0x2
2022-07-21 11:18:02,499 pymodbus.client.sync - DEBUG - New Transaction state 'SENDING'
2022-07-21 11:18:02,499 pymodbus.transaction - DEBUG - Changing transaction state from 'SENDING' to 'WAITING FOR REPLY'
2022-07-21 11:18:02,529 pymodbus.transaction - DEBUG - Changing transaction state from 'WAITING FOR REPLY' to 'PROCESSING REPLY'
2022-07-21 11:18:02,529 pymodbus.transaction - DEBUG - RECV: 0x0 0x6 0x0 0x0 0x0 0x7 0x0 0x3 0x4 0x0 0x0 0x0 0x0
2022-07-21 11:18:02,529 pymodbus.framer.socket_framer - DEBUG - Processing: 0x0 0x6 0x0 0x0 0x0 0x7 0x0 0x3 0x4 0x0 0x0 0x0 0x0
2022-07-21 11:18:02,529 pymodbus.factory - DEBUG - Factory Response[ReadHoldingRegistersResponse: 3]
2022-07-21 11:18:02,529 pymodbus.transaction - DEBUG - Adding transaction 6
2022-07-21 11:18:02,529 pymodbus.transaction - DEBUG - Getting transaction 6
2022-07-21 11:18:02,529 pymodbus.transaction - DEBUG - Changing transaction state from 'PROCESSING REPLY' to 'TRANSACTION_COMPLETE'
2022-07-21 11:18:02,529 pymodbus.transaction - DEBUG - Current transaction state - TRANSACTION_COMPLETE
2022-07-21 11:18:02,529 pymodbus.transaction - DEBUG - Running transaction 7
2022-07-21 11:18:02,529 pymodbus.transaction - DEBUG - SEND: 0x0 0x7 0x0 0x0 0x0 0x6 0x0 0x3 0x0 0xc 0x0 0x2
2022-07-21 11:18:02,530 pymodbus.client.sync - DEBUG - New Transaction state 'SENDING'
2022-07-21 11:18:02,530 pymodbus.transaction - DEBUG - Changing transaction state from 'SENDING' to 'WAITING FOR REPLY'
2022-07-21 11:18:02,559 pymodbus.transaction - DEBUG - Changing transaction state from 'WAITING FOR REPLY' to 'PROCESSING REPLY'
2022-07-21 11:18:02,560 pymodbus.transaction - DEBUG - RECV: 0x0 0x7 0x0 0x0 0x0 0x7 0x0 0x3 0x4 0x0 0x0 0x0 0x0
2022-07-21 11:18:02,560 pymodbus.framer.socket_framer - DEBUG - Processing: 0x0 0x7 0x0 0x0 0x0 0x7 0x0 0x3 0x4 0x0 0x0 0x0 0x0
2022-07-21 11:18:02,560 pymodbus.factory - DEBUG - Factory Response[ReadHoldingRegistersResponse: 3]
2022-07-21 11:18:02,560 pymodbus.transaction - DEBUG - Adding transaction 7
2022-07-21 11:18:02,560 pymodbus.transaction - DEBUG - Getting transaction 7
2022-07-21 11:18:02,560 pymodbus.transaction - DEBUG - Changing transaction state from 'PROCESSING REPLY' to 'TRANSACTION_COMPLETE'
2022-07-21 11:18:02,560 pymodbus.transaction - DEBUG - Current transaction state - TRANSACTION_COMPLETE
2022-07-21 11:18:02,560 pymodbus.transaction - DEBUG - Running transaction 8
2022-07-21 11:18:02,560 pymodbus.transaction - DEBUG - SEND: 0x0 0x8 0x0 0x0 0x0 0x6 0x0 0x3 0x0 0xe 0x0 0x2
2022-07-21 11:18:02,560 pymodbus.client.sync - DEBUG - New Transaction state 'SENDING'
2022-07-21 11:18:02,560 pymodbus.transaction - DEBUG - Changing transaction state from 'SENDING' to 'WAITING FOR REPLY'
2022-07-21 11:18:02,590 pymodbus.transaction - DEBUG - Changing transaction state from 'WAITING FOR REPLY' to 'PROCESSING REPLY'
2022-07-21 11:18:02,590 pymodbus.transaction - DEBUG - RECV: 0x0 0x8 0x0 0x0 0x0 0x7 0x0 0x3 0x4 0x0 0x0 0x0 0x0
2022-07-21 11:18:02,590 pymodbus.framer.socket_framer - DEBUG - Processing: 0x0 0x8 0x0 0x0 0x0 0x7 0x0 0x3 0x4 0x0 0x0 0x0 0x0
2022-07-21 11:18:02,590 pymodbus.factory - DEBUG - Factory Response[ReadHoldingRegistersResponse: 3]
2022-07-21 11:18:02,590 pymodbus.transaction - DEBUG - Adding transaction 8
2022-07-21 11:18:02,590 pymodbus.transaction - DEBUG - Getting transaction 8
2022-07-21 11:18:02,590 pymodbus.transaction - DEBUG - Changing transaction state from 'PROCESSING REPLY' to 'TRANSACTION_COMPLETE'
2022-07-21 11:18:02,590 pymodbus.transaction - DEBUG - Current transaction state - TRANSACTION_COMPLETE
2022-07-21 11:18:02,590 pymodbus.transaction - DEBUG - Running transaction 9
2022-07-21 11:18:02,590 pymodbus.transaction - DEBUG - SEND: 0x0 0x9 0x0 0x0 0x0 0x6 0x0 0x3 0x0 0x10 0x0 0x2
2022-07-21 11:18:02,590 pymodbus.client.sync - DEBUG - New Transaction state 'SENDING'
2022-07-21 11:18:02,591 pymodbus.transaction - DEBUG - Changing transaction state from 'SENDING' to 'WAITING FOR REPLY'
2022-07-21 11:18:02,621 pymodbus.transaction - DEBUG - Changing transaction state from 'WAITING FOR REPLY' to 'PROCESSING REPLY'
2022-07-21 11:18:02,621 pymodbus.transaction - DEBUG - RECV: 0x0 0x9 0x0 0x0 0x0 0x7 0x0 0x3 0x4 0x0 0x0 0x0 0x0
2022-07-21 11:18:02,621 pymodbus.framer.socket_framer - DEBUG - Processing: 0x0 0x9 0x0 0x0 0x0 0x7 0x0 0x3 0x4 0x0 0x0 0x0 0x0
2022-07-21 11:18:02,622 pymodbus.factory - DEBUG - Factory Response[ReadHoldingRegistersResponse: 3]
2022-07-21 11:18:02,622 pymodbus.transaction - DEBUG - Adding transaction 9
2022-07-21 11:18:02,622 pymodbus.transaction - DEBUG - Getting transaction 9
2022-07-21 11:18:02,622 pymodbus.transaction - DEBUG - Changing transaction state from 'PROCESSING REPLY' to 'TRANSACTION_COMPLETE'
2022-07-21 11:18:02,622 pymodbus.transaction - DEBUG - Current transaction state - TRANSACTION_COMPLETE
2022-07-21 11:18:02,622 pymodbus.transaction - DEBUG - Running transaction 10
2022-07-21 11:18:02,622 pymodbus.transaction - DEBUG - SEND: 0x0 0xa 0x0 0x0 0x0 0x6 0x0 0x3 0x0 0x12 0x0 0x2
2022-07-21 11:18:02,622 pymodbus.client.sync - DEBUG - New Transaction state 'SENDING'
2022-07-21 11:18:02,622 pymodbus.transaction - DEBUG - Changing transaction state from 'SENDING' to 'WAITING FOR REPLY'
2022-07-21 11:18:02,652 pymodbus.transaction - DEBUG - Changing transaction state from 'WAITING FOR REPLY' to 'PROCESSING REPLY'
2022-07-21 11:18:02,652 pymodbus.transaction - DEBUG - RECV: 0x0 0xa 0x0 0x0 0x0 0x7 0x0 0x3 0x4 0x0 0x0 0x0 0x0
2022-07-21 11:18:02,652 pymodbus.framer.socket_framer - DEBUG - Processing: 0x0 0xa 0x0 0x0 0x0 0x7 0x0 0x3 0x4 0x0 0x0 0x0 0x0
2022-07-21 11:18:02,653 pymodbus.factory - DEBUG - Factory Response[ReadHoldingRegistersResponse: 3]
2022-07-21 11:18:02,653 pymodbus.transaction - DEBUG - Adding transaction 10
2022-07-21 11:18:02,653 pymodbus.transaction - DEBUG - Getting transaction 10
2022-07-21 11:18:02,653 pymodbus.transaction - DEBUG - Changing transaction state from 'PROCESSING REPLY' to 'TRANSACTION_COMPLETE'
2022-07-21 11:18:02,653 pymodbus.transaction - DEBUG - Current transaction state - TRANSACTION_COMPLETE
2022-07-21 11:18:02,653 pymodbus.transaction - DEBUG - Running transaction 11
2022-07-21 11:18:02,653 pymodbus.transaction - DEBUG - SEND: 0x0 0xb 0x0 0x0 0x0 0x6 0x0 0x3 0x0 0x14 0x0 0x2
2022-07-21 11:18:02,653 pymodbus.client.sync - DEBUG - New Transaction state 'SENDING'
2022-07-21 11:18:02,654 pymodbus.transaction - DEBUG - Changing transaction state from 'SENDING' to 'WAITING FOR REPLY'
2022-07-21 11:18:02,684 pymodbus.transaction - DEBUG - Changing transaction state from 'WAITING FOR REPLY' to 'PROCESSING REPLY'
2022-07-21 11:18:02,684 pymodbus.transaction - DEBUG - RECV: 0x0 0xb 0x0 0x0 0x0 0x7 0x0 0x3 0x4 0x0 0x0 0x0 0x0
2022-07-21 11:18:02,684 pymodbus.framer.socket_framer - DEBUG - Processing: 0x0 0xb 0x0 0x0 0x0 0x7 0x0 0x3 0x4 0x0 0x0 0x0 0x0
2022-07-21 11:18:02,684 pymodbus.factory - DEBUG - Factory Response[ReadHoldingRegistersResponse: 3]
2022-07-21 11:18:02,684 pymodbus.transaction - DEBUG - Adding transaction 11
2022-07-21 11:18:02,684 pymodbus.transaction - DEBUG - Getting transaction 11
2022-07-21 11:18:02,684 pymodbus.transaction - DEBUG - Changing transaction state from 'PROCESSING REPLY' to 'TRANSACTION_COMPLETE'
2022-07-21 11:18:02,684 pymodbus.transaction - DEBUG - Current transaction state - TRANSACTION_COMPLETE
2022-07-21 11:18:02,684 pymodbus.transaction - DEBUG - Running transaction 12
2022-07-21 11:18:02,684 pymodbus.transaction - DEBUG - SEND: 0x0 0xc 0x0 0x0 0x0 0x6 0x0 0x3 0x0 0x16 0x0 0x2
2022-07-21 11:18:02,684 pymodbus.client.sync - DEBUG - New Transaction state 'SENDING'
2022-07-21 11:18:02,684 pymodbus.transaction - DEBUG - Changing transaction state from 'SENDING' to 'WAITING FOR REPLY'
2022-07-21 11:18:02,715 pymodbus.transaction - DEBUG - Changing transaction state from 'WAITING FOR REPLY' to 'PROCESSING REPLY'
2022-07-21 11:18:02,715 pymodbus.transaction - DEBUG - RECV: 0x0 0xc 0x0 0x0 0x0 0x7 0x0 0x3 0x4 0x0 0x0 0x0 0x0
2022-07-21 11:18:02,715 pymodbus.framer.socket_framer - DEBUG - Processing: 0x0 0xc 0x0 0x0 0x0 0x7 0x0 0x3 0x4 0x0 0x0 0x0 0x0
2022-07-21 11:18:02,715 pymodbus.factory - DEBUG - Factory Response[ReadHoldingRegistersResponse: 3]
2022-07-21 11:18:02,715 pymodbus.transaction - DEBUG - Adding transaction 12
2022-07-21 11:18:02,715 pymodbus.transaction - DEBUG - Getting transaction 12
2022-07-21 11:18:02,715 pymodbus.transaction - DEBUG - Changing transaction state from 'PROCESSING REPLY' to 'TRANSACTION_COMPLETE'
2022-07-21 11:18:02,715 pymodbus.transaction - DEBUG - Current transaction state - TRANSACTION_COMPLETE
2022-07-21 11:18:02,716 pymodbus.transaction - DEBUG - Running transaction 13
2022-07-21 11:18:02,716 pymodbus.transaction - DEBUG - SEND: 0x0 0xd 0x0 0x0 0x0 0x6 0x0 0x3 0x0 0x18 0x0 0x2
2022-07-21 11:18:02,716 pymodbus.client.sync - DEBUG - New Transaction state 'SENDING'
2022-07-21 11:18:02,716 pymodbus.transaction - DEBUG - Changing transaction state from 'SENDING' to 'WAITING FOR REPLY'
2022-07-21 11:18:02,747 pymodbus.transaction - DEBUG - Changing transaction state from 'WAITING FOR REPLY' to 'PROCESSING REPLY'
2022-07-21 11:18:02,747 pymodbus.transaction - DEBUG - RECV: 0x0 0xd 0x0 0x0 0x0 0x7 0x0 0x3 0x4 0x0 0x0 0x0 0x0
2022-07-21 11:18:02,747 pymodbus.framer.socket_framer - DEBUG - Processing: 0x0 0xd 0x0 0x0 0x0 0x7 0x0 0x3 0x4 0x0 0x0 0x0 0x0
2022-07-21 11:18:02,747 pymodbus.factory - DEBUG - Factory Response[ReadHoldingRegistersResponse: 3]
2022-07-21 11:18:02,748 pymodbus.transaction - DEBUG - Adding transaction 13
2022-07-21 11:18:02,748 pymodbus.transaction - DEBUG - Getting transaction 13
2022-07-21 11:18:02,748 pymodbus.transaction - DEBUG - Changing transaction state from 'PROCESSING REPLY' to 'TRANSACTION_COMPLETE'
2022-07-21 11:18:02,748 pymodbus.transaction - DEBUG - Current transaction state - TRANSACTION_COMPLETE
2022-07-21 11:18:02,748 pymodbus.transaction - DEBUG - Running transaction 14
2022-07-21 11:18:02,748 pymodbus.transaction - DEBUG - SEND: 0x0 0xe 0x0 0x0 0x0 0x6 0x0 0x3 0x0 0x1a 0x0 0x2
2022-07-21 11:18:02,748 pymodbus.client.sync - DEBUG - New Transaction state 'SENDING'
2022-07-21 11:18:02,748 pymodbus.transaction - DEBUG - Changing transaction state from 'SENDING' to 'WAITING FOR REPLY'
2022-07-21 11:18:02,777 pymodbus.transaction - DEBUG - Changing transaction state from 'WAITING FOR REPLY' to 'PROCESSING REPLY'
2022-07-21 11:18:02,777 pymodbus.transaction - DEBUG - RECV: 0x0 0xe 0x0 0x0 0x0 0x7 0x0 0x3 0x4 0x0 0x0 0x0 0x0
2022-07-21 11:18:02,777 pymodbus.framer.socket_framer - DEBUG - Processing: 0x0 0xe 0x0 0x0 0x0 0x7 0x0 0x3 0x4 0x0 0x0 0x0 0x0
2022-07-21 11:18:02,778 pymodbus.factory - DEBUG - Factory Response[ReadHoldingRegistersResponse: 3]
2022-07-21 11:18:02,778 pymodbus.transaction - DEBUG - Adding transaction 14
2022-07-21 11:18:02,778 pymodbus.transaction - DEBUG - Getting transaction 14
2022-07-21 11:18:02,778 pymodbus.transaction - DEBUG - Changing transaction state from 'PROCESSING REPLY' to 'TRANSACTION_COMPLETE'
2022-07-21 11:18:02,778 pymodbus.transaction - DEBUG - Current transaction state - TRANSACTION_COMPLETE
2022-07-21 11:18:02,778 pymodbus.transaction - DEBUG - Running transaction 15
2022-07-21 11:18:02,778 pymodbus.transaction - DEBUG - SEND: 0x0 0xf 0x0 0x0 0x0 0x6 0x0 0x3 0x0 0x1c 0x0 0x2
2022-07-21 11:18:02,778 pymodbus.client.sync - DEBUG - New Transaction state 'SENDING'
2022-07-21 11:18:02,779 pymodbus.transaction - DEBUG - Changing transaction state from 'SENDING' to 'WAITING FOR REPLY'
2022-07-21 11:18:02,808 pymodbus.transaction - DEBUG - Changing transaction state from 'WAITING FOR REPLY' to 'PROCESSING REPLY'
2022-07-21 11:18:02,808 pymodbus.transaction - DEBUG - RECV: 0x0 0xf 0x0 0x0 0x0 0x7 0x0 0x3 0x4 0x0 0x0 0x0 0x0
2022-07-21 11:18:02,808 pymodbus.framer.socket_framer - DEBUG - Processing: 0x0 0xf 0x0 0x0 0x0 0x7 0x0 0x3 0x4 0x0 0x0 0x0 0x0
2022-07-21 11:18:02,809 pymodbus.factory - DEBUG - Factory Response[ReadHoldingRegistersResponse: 3]
2022-07-21 11:18:02,809 pymodbus.transaction - DEBUG - Adding transaction 15
2022-07-21 11:18:02,809 pymodbus.transaction - DEBUG - Getting transaction 15
2022-07-21 11:18:02,809 pymodbus.transaction - DEBUG - Changing transaction state from 'PROCESSING REPLY' to 'TRANSACTION_COMPLETE'
2022-07-21 11:18:02,809 pymodbus.transaction - DEBUG - Current transaction state - TRANSACTION_COMPLETE
2022-07-21 11:18:02,809 pymodbus.transaction - DEBUG - Running transaction 16
2022-07-21 11:18:02,809 pymodbus.transaction - DEBUG - SEND: 0x0 0x10 0x0 0x0 0x0 0x6 0x0 0x3 0x0 0x1e 0x0 0x2
2022-07-21 11:18:02,809 pymodbus.client.sync - DEBUG - New Transaction state 'SENDING'
2022-07-21 11:18:02,809 pymodbus.transaction - DEBUG - Changing transaction state from 'SENDING' to 'WAITING FOR REPLY'
2022-07-21 11:18:02,838 pymodbus.transaction - DEBUG - Changing transaction state from 'WAITING FOR REPLY' to 'PROCESSING REPLY'
2022-07-21 11:18:02,839 pymodbus.transaction - DEBUG - RECV: 0x0 0x10 0x0 0x0 0x0 0x7 0x0 0x3 0x4 0x0 0x0 0x0 0x0
2022-07-21 11:18:02,839 pymodbus.framer.socket_framer - DEBUG - Processing: 0x0 0x10 0x0 0x0 0x0 0x7 0x0 0x3 0x4 0x0 0x0 0x0 0x0
2022-07-21 11:18:02,839 pymodbus.factory - DEBUG - Factory Response[ReadHoldingRegistersResponse: 3]
2022-07-21 11:18:02,839 pymodbus.transaction - DEBUG - Adding transaction 16
2022-07-21 11:18:02,839 pymodbus.transaction - DEBUG - Getting transaction 16
2022-07-21 11:18:02,839 pymodbus.transaction - DEBUG - Changing transaction state from 'PROCESSING REPLY' to 'TRANSACTION_COMPLETE'
2022-07-21 11:18:02,839 pymodbus.transaction - DEBUG - Current transaction state - TRANSACTION_COMPLETE
2022-07-21 11:18:02,839 pymodbus.transaction - DEBUG - Running transaction 17
2022-07-21 11:18:02,839 pymodbus.transaction - DEBUG - SEND: 0x0 0x11 0x0 0x0 0x0 0x6 0x0 0x3 0x0 0x20 0x0 0x2
2022-07-21 11:18:02,839 pymodbus.client.sync - DEBUG - New Transaction state 'SENDING'
2022-07-21 11:18:02,840 pymodbus.transaction - DEBUG - Changing transaction state from 'SENDING' to 'WAITING FOR REPLY'
2022-07-21 11:18:02,870 pymodbus.transaction - DEBUG - Changing transaction state from 'WAITING FOR REPLY' to 'PROCESSING REPLY'
2022-07-21 11:18:02,870 pymodbus.transaction - DEBUG - RECV: 0x0 0x11 0x0 0x0 0x0 0x7 0x0 0x3 0x4 0x0 0x0 0x0 0x0
2022-07-21 11:18:02,870 pymodbus.framer.socket_framer - DEBUG - Processing: 0x0 0x11 0x0 0x0 0x0 0x7 0x0 0x3 0x4 0x0 0x0 0x0 0x0
2022-07-21 11:18:02,870 pymodbus.factory - DEBUG - Factory Response[ReadHoldingRegistersResponse: 3]
2022-07-21 11:18:02,870 pymodbus.transaction - DEBUG - Adding transaction 17
2022-07-21 11:18:02,870 pymodbus.transaction - DEBUG - Getting transaction 17
2022-07-21 11:18:02,870 pymodbus.transaction - DEBUG - Changing transaction state from 'PROCESSING REPLY' to 'TRANSACTION_COMPLETE'
2022-07-21 11:18:02,870 pymodbus.transaction - DEBUG - Current transaction state - TRANSACTION_COMPLETE
2022-07-21 11:18:02,870 pymodbus.transaction - DEBUG - Running transaction 18
2022-07-21 11:18:02,870 pymodbus.transaction - DEBUG - SEND: 0x0 0x12 0x0 0x0 0x0 0x6 0x0 0x3 0x0 0x22 0x0 0x2
2022-07-21 11:18:02,870 pymodbus.client.sync - DEBUG - New Transaction state 'SENDING'
2022-07-21 11:18:02,871 pymodbus.transaction - DEBUG - Changing transaction state from 'SENDING' to 'WAITING FOR REPLY'
2022-07-21 11:18:02,901 pymodbus.transaction - DEBUG - Changing transaction state from 'WAITING FOR REPLY' to 'PROCESSING REPLY'
2022-07-21 11:18:02,901 pymodbus.transaction - DEBUG - RECV: 0x0 0x12 0x0 0x0 0x0 0x7 0x0 0x3 0x4 0x0 0x0 0x0 0x0
2022-07-21 11:18:02,901 pymodbus.framer.socket_framer - DEBUG - Processing: 0x0 0x12 0x0 0x0 0x0 0x7 0x0 0x3 0x4 0x0 0x0 0x0 0x0
2022-07-21 11:18:02,901 pymodbus.factory - DEBUG - Factory Response[ReadHoldingRegistersResponse: 3]
2022-07-21 11:18:02,901 pymodbus.transaction - DEBUG - Adding transaction 18
2022-07-21 11:18:02,901 pymodbus.transaction - DEBUG - Getting transaction 18
2022-07-21 11:18:02,901 pymodbus.transaction - DEBUG - Changing transaction state from 'PROCESSING REPLY' to 'TRANSACTION_COMPLETE'
2022-07-21 11:18:02,902 pymodbus.transaction - DEBUG - Current transaction state - TRANSACTION_COMPLETE
2022-07-21 11:18:02,902 pymodbus.transaction - DEBUG - Running transaction 19
2022-07-21 11:18:02,902 pymodbus.transaction - DEBUG - SEND: 0x0 0x13 0x0 0x0 0x0 0x6 0x0 0x3 0x0 0x24 0x0 0x2
2022-07-21 11:18:02,902 pymodbus.client.sync - DEBUG - New Transaction state 'SENDING'
2022-07-21 11:18:02,902 pymodbus.transaction - DEBUG - Changing transaction state from 'SENDING' to 'WAITING FOR REPLY'
2022-07-21 11:18:02,933 pymodbus.transaction - DEBUG - Changing transaction state from 'WAITING FOR REPLY' to 'PROCESSING REPLY'
2022-07-21 11:18:02,933 pymodbus.transaction - DEBUG - RECV: 0x0 0x13 0x0 0x0 0x0 0x7 0x0 0x3 0x4 0x0 0x0 0x0 0x0
2022-07-21 11:18:02,933 pymodbus.framer.socket_framer - DEBUG - Processing: 0x0 0x13 0x0 0x0 0x0 0x7 0x0 0x3 0x4 0x0 0x0 0x0 0x0
2022-07-21 11:18:02,933 pymodbus.factory - DEBUG - Factory Response[ReadHoldingRegistersResponse: 3]
2022-07-21 11:18:02,934 pymodbus.transaction - DEBUG - Adding transaction 19
2022-07-21 11:18:02,934 pymodbus.transaction - DEBUG - Getting transaction 19
2022-07-21 11:18:02,934 pymodbus.transaction - DEBUG - Changing transaction state from 'PROCESSING REPLY' to 'TRANSACTION_COMPLETE'
2022-07-21 11:18:02,934 pymodbus.transaction - DEBUG - Current transaction state - TRANSACTION_COMPLETE
2022-07-21 11:18:02,934 pymodbus.transaction - DEBUG - Running transaction 20
2022-07-21 11:18:02,934 pymodbus.transaction - DEBUG - SEND: 0x0 0x14 0x0 0x0 0x0 0x6 0x0 0x3 0x0 0x26 0x0 0x2
2022-07-21 11:18:02,934 pymodbus.client.sync - DEBUG - New Transaction state 'SENDING'
2022-07-21 11:18:02,934 pymodbus.transaction - DEBUG - Changing transaction state from 'SENDING' to 'WAITING FOR REPLY'
2022-07-21 11:18:02,965 pymodbus.transaction - DEBUG - Changing transaction state from 'WAITING FOR REPLY' to 'PROCESSING REPLY'
2022-07-21 11:18:02,965 pymodbus.transaction - DEBUG - RECV: 0x0 0x14 0x0 0x0 0x0 0x7 0x0 0x3 0x4 0x0 0x0 0x0 0x0
2022-07-21 11:18:02,965 pymodbus.framer.socket_framer - DEBUG - Processing: 0x0 0x14 0x0 0x0 0x0 0x7 0x0 0x3 0x4 0x0 0x0 0x0 0x0
2022-07-21 11:18:02,965 pymodbus.factory - DEBUG - Factory Response[ReadHoldingRegistersResponse: 3]
2022-07-21 11:18:02,965 pymodbus.transaction - DEBUG - Adding transaction 20
2022-07-21 11:18:02,965 pymodbus.transaction - DEBUG - Getting transaction 20
2022-07-21 11:18:02,965 pymodbus.transaction - DEBUG - Changing transaction state from 'PROCESSING REPLY' to 'TRANSACTION_COMPLETE'
2022-07-21 11:18:02,965 pymodbus.transaction - DEBUG - Current transaction state - TRANSACTION_COMPLETE
2022-07-21 11:18:02,966 pymodbus.transaction - DEBUG - Running transaction 21
2022-07-21 11:18:02,966 pymodbus.transaction - DEBUG - SEND: 0x0 0x15 0x0 0x0 0x0 0x6 0x0 0x3 0x0 0x28 0x0 0x2
2022-07-21 11:18:02,966 pymodbus.client.sync - DEBUG - New Transaction state 'SENDING'
2022-07-21 11:18:02,966 pymodbus.transaction - DEBUG - Changing transaction state from 'SENDING' to 'WAITING FOR REPLY'
2022-07-21 11:18:02,996 pymodbus.transaction - DEBUG - Changing transaction state from 'WAITING FOR REPLY' to 'PROCESSING REPLY'
2022-07-21 11:18:02,996 pymodbus.transaction - DEBUG - RECV: 0x0 0x15 0x0 0x0 0x0 0x7 0x0 0x3 0x4 0x0 0x0 0x0 0x0
2022-07-21 11:18:02,996 pymodbus.framer.socket_framer - DEBUG - Processing: 0x0 0x15 0x0 0x0 0x0 0x7 0x0 0x3 0x4 0x0 0x0 0x0 0x0
2022-07-21 11:18:02,996 pymodbus.factory - DEBUG - Factory Response[ReadHoldingRegistersResponse: 3]
2022-07-21 11:18:02,996 pymodbus.transaction - DEBUG - Adding transaction 21
2022-07-21 11:18:02,996 pymodbus.transaction - DEBUG - Getting transaction 21
2022-07-21 11:18:02,997 pymodbus.transaction - DEBUG - Changing transaction state from 'PROCESSING REPLY' to 'TRANSACTION_COMPLETE'
2022-07-21 11:18:02,997 pymodbus.transaction - DEBUG - Current transaction state - TRANSACTION_COMPLETE
2022-07-21 11:18:02,997 pymodbus.transaction - DEBUG - Running transaction 22
2022-07-21 11:18:02,997 pymodbus.transaction - DEBUG - SEND: 0x0 0x16 0x0 0x0 0x0 0x6 0x0 0x3 0x0 0x2a 0x0 0x2
2022-07-21 11:18:02,997 pymodbus.client.sync - DEBUG - New Transaction state 'SENDING'
2022-07-21 11:18:02,997 pymodbus.transaction - DEBUG - Changing transaction state from 'SENDING' to 'WAITING FOR REPLY'
2022-07-21 11:18:03,026 pymodbus.transaction - DEBUG - Changing transaction state from 'WAITING FOR REPLY' to 'PROCESSING REPLY'
2022-07-21 11:18:03,026 pymodbus.transaction - DEBUG - RECV: 0x0 0x16 0x0 0x0 0x0 0x7 0x0 0x3 0x4 0x0 0x0 0x0 0x0
2022-07-21 11:18:03,026 pymodbus.framer.socket_framer - DEBUG - Processing: 0x0 0x16 0x0 0x0 0x0 0x7 0x0 0x3 0x4 0x0 0x0 0x0 0x0
2022-07-21 11:18:03,026 pymodbus.factory - DEBUG - Factory Response[ReadHoldingRegistersResponse: 3]
2022-07-21 11:18:03,026 pymodbus.transaction - DEBUG - Adding transaction 22
2022-07-21 11:18:03,026 pymodbus.transaction - DEBUG - Getting transaction 22
2022-07-21 11:18:03,026 pymodbus.transaction - DEBUG - Changing transaction state from 'PROCESSING REPLY' to 'TRANSACTION_COMPLETE'
2022-07-21 11:18:03,026 pymodbus.transaction - DEBUG - Current transaction state - TRANSACTION_COMPLETE
2022-07-21 11:18:03,027 pymodbus.transaction - DEBUG - Running transaction 23
2022-07-21 11:18:03,027 pymodbus.transaction - DEBUG - SEND: 0x0 0x17 0x0 0x0 0x0 0x6 0x0 0x3 0x0 0x2c 0x0 0x2
2022-07-21 11:18:03,027 pymodbus.client.sync - DEBUG - New Transaction state 'SENDING'
2022-07-21 11:18:03,027 pymodbus.transaction - DEBUG - Changing transaction state from 'SENDING' to 'WAITING FOR REPLY'
2022-07-21 11:18:03,057 pymodbus.transaction - DEBUG - Changing transaction state from 'WAITING FOR REPLY' to 'PROCESSING REPLY'
2022-07-21 11:18:03,057 pymodbus.transaction - DEBUG - RECV: 0x0 0x17 0x0 0x0 0x0 0x7 0x0 0x3 0x4 0x0 0x0 0x0 0x0
2022-07-21 11:18:03,057 pymodbus.framer.socket_framer - DEBUG - Processing: 0x0 0x17 0x0 0x0 0x0 0x7 0x0 0x3 0x4 0x0 0x0 0x0 0x0
2022-07-21 11:18:03,057 pymodbus.factory - DEBUG - Factory Response[ReadHoldingRegistersResponse: 3]
2022-07-21 11:18:03,057 pymodbus.transaction - DEBUG - Adding transaction 23
2022-07-21 11:18:03,057 pymodbus.transaction - DEBUG - Getting transaction 23
2022-07-21 11:18:03,059 pymodbus.transaction - DEBUG - Changing transaction state from 'PROCESSING REPLY' to 'TRANSACTION_COMPLETE'
2022-07-21 11:18:03,059 pymodbus.transaction - DEBUG - Current transaction state - TRANSACTION_COMPLETE
2022-07-21 11:18:03,059 pymodbus.transaction - DEBUG - Running transaction 24
2022-07-21 11:18:03,059 pymodbus.transaction - DEBUG - SEND: 0x0 0x18 0x0 0x0 0x0 0x6 0x0 0x3 0x0 0x30 0x0 0x2
2022-07-21 11:18:03,059 pymodbus.client.sync - DEBUG - New Transaction state 'SENDING'
2022-07-21 11:18:03,059 pymodbus.transaction - DEBUG - Changing transaction state from 'SENDING' to 'WAITING FOR REPLY'
2022-07-21 11:18:03,089 pymodbus.transaction - DEBUG - Changing transaction state from 'WAITING FOR REPLY' to 'PROCESSING REPLY'
2022-07-21 11:18:03,090 pymodbus.transaction - DEBUG - RECV: 0x0 0x18 0x0 0x0 0x0 0x7 0x0 0x3 0x4 0x0 0x0 0x0 0x0
2022-07-21 11:18:03,090 pymodbus.framer.socket_framer - DEBUG - Processing: 0x0 0x18 0x0 0x0 0x0 0x7 0x0 0x3 0x4 0x0 0x0 0x0 0x0
2022-07-21 11:18:03,090 pymodbus.factory - DEBUG - Factory Response[ReadHoldingRegistersResponse: 3]
2022-07-21 11:18:03,090 pymodbus.transaction - DEBUG - Adding transaction 24
2022-07-21 11:18:03,090 pymodbus.transaction - DEBUG - Getting transaction 24
2022-07-21 11:18:03,090 pymodbus.transaction - DEBUG - Changing transaction state from 'PROCESSING REPLY' to 'TRANSACTION_COMPLETE'
2022-07-21 11:18:03,090 pymodbus.transaction - DEBUG - Current transaction state - TRANSACTION_COMPLETE
2022-07-21 11:18:03,091 pymodbus.transaction - DEBUG - Running transaction 25
2022-07-21 11:18:03,091 pymodbus.transaction - DEBUG - SEND: 0x0 0x19 0x0 0x0 0x0 0x6 0x0 0x3 0x0 0x2e 0x0 0x2
2022-07-21 11:18:03,091 pymodbus.client.sync - DEBUG - New Transaction state 'SENDING'
2022-07-21 11:18:03,091 pymodbus.transaction - DEBUG - Changing transaction state from 'SENDING' to 'WAITING FOR REPLY'
2022-07-21 11:18:03,120 pymodbus.transaction - DEBUG - Changing transaction state from 'WAITING FOR REPLY' to 'PROCESSING REPLY'
2022-07-21 11:18:03,120 pymodbus.transaction - DEBUG - RECV: 0x0 0x19 0x0 0x0 0x0 0x7 0x0 0x3 0x4 0x0 0x0 0x0 0x0
2022-07-21 11:18:03,120 pymodbus.framer.socket_framer - DEBUG - Processing: 0x0 0x19 0x0 0x0 0x0 0x7 0x0 0x3 0x4 0x0 0x0 0x0 0x0
2022-07-21 11:18:03,120 pymodbus.factory - DEBUG - Factory Response[ReadHoldingRegistersResponse: 3]
2022-07-21 11:18:03,120 pymodbus.transaction - DEBUG - Adding transaction 25
2022-07-21 11:18:03,120 pymodbus.transaction - DEBUG - Getting transaction 25
2022-07-21 11:18:03,120 pymodbus.transaction - DEBUG - Changing transaction state from 'PROCESSING REPLY' to 'TRANSACTION_COMPLETE'
2022-07-21 11:18:03,120 pymodbus.transaction - DEBUG - Current transaction state - TRANSACTION_COMPLETE
2022-07-21 11:18:03,121 pymodbus.transaction - DEBUG - Running transaction 26
2022-07-21 11:18:03,121 pymodbus.transaction - DEBUG - SEND: 0x0 0x1a 0x0 0x0 0x0 0x6 0x0 0x3 0x0 0x30 0x0 0x2
2022-07-21 11:18:03,121 pymodbus.client.sync - DEBUG - New Transaction state 'SENDING'
2022-07-21 11:18:03,121 pymodbus.transaction - DEBUG - Changing transaction state from 'SENDING' to 'WAITING FOR REPLY'
2022-07-21 11:18:03,150 pymodbus.transaction - DEBUG - Changing transaction state from 'WAITING FOR REPLY' to 'PROCESSING REPLY'
2022-07-21 11:18:03,150 pymodbus.transaction - DEBUG - RECV: 0x0 0x1a 0x0 0x0 0x0 0x7 0x0 0x3 0x4 0x0 0x0 0x0 0x0
2022-07-21 11:18:03,150 pymodbus.framer.socket_framer - DEBUG - Processing: 0x0 0x1a 0x0 0x0 0x0 0x7 0x0 0x3 0x4 0x0 0x0 0x0 0x0
2022-07-21 11:18:03,151 pymodbus.factory - DEBUG - Factory Response[ReadHoldingRegistersResponse: 3]
2022-07-21 11:18:03,151 pymodbus.transaction - DEBUG - Adding transaction 26
2022-07-21 11:18:03,151 pymodbus.transaction - DEBUG - Getting transaction 26
2022-07-21 11:18:03,151 pymodbus.transaction - DEBUG - Changing transaction state from 'PROCESSING REPLY' to 'TRANSACTION_COMPLETE'
2022-07-21 11:18:03,151 pymodbus.transaction - DEBUG - Current transaction state - TRANSACTION_COMPLETE
2022-07-21 11:18:03,151 pymodbus.transaction - DEBUG - Running transaction 27
2022-07-21 11:18:03,151 pymodbus.transaction - DEBUG - SEND: 0x0 0x1b 0x0 0x0 0x0 0x6 0x0 0x3 0x0 0x32 0x0 0x2
2022-07-21 11:18:03,151 pymodbus.client.sync - DEBUG - New Transaction state 'SENDING'
2022-07-21 11:18:03,151 pymodbus.transaction - DEBUG - Changing transaction state from 'SENDING' to 'WAITING FOR REPLY'
2022-07-21 11:18:03,182 pymodbus.transaction - DEBUG - Changing transaction state from 'WAITING FOR REPLY' to 'PROCESSING REPLY'
2022-07-21 11:18:03,182 pymodbus.transaction - DEBUG - RECV: 0x0 0x1b 0x0 0x0 0x0 0x7 0x0 0x3 0x4 0x0 0x0 0x0 0x0
2022-07-21 11:18:03,182 pymodbus.framer.socket_framer - DEBUG - Processing: 0x0 0x1b 0x0 0x0 0x0 0x7 0x0 0x3 0x4 0x0 0x0 0x0 0x0
2022-07-21 11:18:03,182 pymodbus.factory - DEBUG - Factory Response[ReadHoldingRegistersResponse: 3]
2022-07-21 11:18:03,182 pymodbus.transaction - DEBUG - Adding transaction 27
2022-07-21 11:18:03,183 pymodbus.transaction - DEBUG - Getting transaction 27
2022-07-21 11:18:03,183 pymodbus.transaction - DEBUG - Changing transaction state from 'PROCESSING REPLY' to 'TRANSACTION_COMPLETE'
2022-07-21 11:18:03,183 pymodbus.transaction - DEBUG - Current transaction state - TRANSACTION_COMPLETE
2022-07-21 11:18:03,183 pymodbus.transaction - DEBUG - Running transaction 28
2022-07-21 11:18:03,183 pymodbus.transaction - DEBUG - SEND: 0x0 0x1c 0x0 0x0 0x0 0x6 0x0 0x3 0x0 0x34 0x0 0x2
2022-07-21 11:18:03,183 pymodbus.client.sync - DEBUG - New Transaction state 'SENDING'
2022-07-21 11:18:03,183 pymodbus.transaction - DEBUG - Changing transaction state from 'SENDING' to 'WAITING FOR REPLY'
2022-07-21 11:18:03,214 pymodbus.transaction - DEBUG - Changing transaction state from 'WAITING FOR REPLY' to 'PROCESSING REPLY'
2022-07-21 11:18:03,214 pymodbus.transaction - DEBUG - RECV: 0x0 0x1c 0x0 0x0 0x0 0x7 0x0 0x3 0x4 0x0 0x0 0x0 0x0
2022-07-21 11:18:03,215 pymodbus.framer.socket_framer - DEBUG - Processing: 0x0 0x1c 0x0 0x0 0x0 0x7 0x0 0x3 0x4 0x0 0x0 0x0 0x0
2022-07-21 11:18:03,215 pymodbus.factory - DEBUG - Factory Response[ReadHoldingRegistersResponse: 3]
2022-07-21 11:18:03,215 pymodbus.transaction - DEBUG - Adding transaction 28
2022-07-21 11:18:03,215 pymodbus.transaction - DEBUG - Getting transaction 28
2022-07-21 11:18:03,215 pymodbus.transaction - DEBUG - Changing transaction state from 'PROCESSING REPLY' to 'TRANSACTION_COMPLETE'
2022-07-21 11:18:03,215 pymodbus.transaction - DEBUG - Current transaction state - TRANSACTION_COMPLETE
2022-07-21 11:18:03,215 pymodbus.transaction - DEBUG - Running transaction 29
2022-07-21 11:18:03,215 pymodbus.transaction - DEBUG - SEND: 0x0 0x1d 0x0 0x0 0x0 0x6 0x0 0x3 0x0 0x36 0x0 0x2
2022-07-21 11:18:03,215 pymodbus.client.sync - DEBUG - New Transaction state 'SENDING'
2022-07-21 11:18:03,215 pymodbus.transaction - DEBUG - Changing transaction state from 'SENDING' to 'WAITING FOR REPLY'
2022-07-21 11:18:03,246 pymodbus.transaction - DEBUG - Changing transaction state from 'WAITING FOR REPLY' to 'PROCESSING REPLY'
2022-07-21 11:18:03,246 pymodbus.transaction - DEBUG - RECV: 0x0 0x1d 0x0 0x0 0x0 0x7 0x0 0x3 0x4 0x0 0x0 0x0 0x0
2022-07-21 11:18:03,246 pymodbus.framer.socket_framer - DEBUG - Processing: 0x0 0x1d 0x0 0x0 0x0 0x7 0x0 0x3 0x4 0x0 0x0 0x0 0x0
2022-07-21 11:18:03,246 pymodbus.factory - DEBUG - Factory Response[ReadHoldingRegistersResponse: 3]
2022-07-21 11:18:03,246 pymodbus.transaction - DEBUG - Adding transaction 29
2022-07-21 11:18:03,247 pymodbus.transaction - DEBUG - Getting transaction 29
2022-07-21 11:18:03,247 pymodbus.transaction - DEBUG - Changing transaction state from 'PROCESSING REPLY' to 'TRANSACTION_COMPLETE'
2022-07-21 11:18:03,247 pymodbus.transaction - DEBUG - Current transaction state - TRANSACTION_COMPLETE
2022-07-21 11:18:03,247 pymodbus.transaction - DEBUG - Running transaction 30
2022-07-21 11:18:03,247 pymodbus.transaction - DEBUG - SEND: 0x0 0x1e 0x0 0x0 0x0 0x6 0x0 0x3 0x0 0x38 0x0 0x2
2022-07-21 11:18:03,247 pymodbus.client.sync - DEBUG - New Transaction state 'SENDING'
2022-07-21 11:18:03,247 pymodbus.transaction - DEBUG - Changing transaction state from 'SENDING' to 'WAITING FOR REPLY'
2022-07-21 11:18:03,277 pymodbus.transaction - DEBUG - Changing transaction state from 'WAITING FOR REPLY' to 'PROCESSING REPLY'
2022-07-21 11:18:03,277 pymodbus.transaction - DEBUG - RECV: 0x0 0x1e 0x0 0x0 0x0 0x7 0x0 0x3 0x4 0x0 0x0 0x0 0x0
2022-07-21 11:18:03,277 pymodbus.framer.socket_framer - DEBUG - Processing: 0x0 0x1e 0x0 0x0 0x0 0x7 0x0 0x3 0x4 0x0 0x0 0x0 0x0
2022-07-21 11:18:03,277 pymodbus.factory - DEBUG - Factory Response[ReadHoldingRegistersResponse: 3]
2022-07-21 11:18:03,277 pymodbus.transaction - DEBUG - Adding transaction 30
2022-07-21 11:18:03,278 pymodbus.transaction - DEBUG - Getting transaction 30
2022-07-21 11:18:03,278 pymodbus.transaction - DEBUG - Changing transaction state from 'PROCESSING REPLY' to 'TRANSACTION_COMPLETE'
2022-07-21 11:18:03,278 pymodbus.transaction - DEBUG - Current transaction state - TRANSACTION_COMPLETE
2022-07-21 11:18:03,278 pymodbus.transaction - DEBUG - Running transaction 31
2022-07-21 11:18:03,278 pymodbus.transaction - DEBUG - SEND: 0x0 0x1f 0x0 0x0 0x0 0x6 0x0 0x3 0x0 0x3a 0x0 0x2
2022-07-21 11:18:03,278 pymodbus.client.sync - DEBUG - New Transaction state 'SENDING'
2022-07-21 11:18:03,278 pymodbus.transaction - DEBUG - Changing transaction state from 'SENDING' to 'WAITING FOR REPLY'
2022-07-21 11:18:03,308 pymodbus.transaction - DEBUG - Changing transaction state from 'WAITING FOR REPLY' to 'PROCESSING REPLY'
2022-07-21 11:18:03,308 pymodbus.transaction - DEBUG - RECV: 0x0 0x1f 0x0 0x0 0x0 0x7 0x0 0x3 0x4 0x0 0x0 0x0 0x0
2022-07-21 11:18:03,308 pymodbus.framer.socket_framer - DEBUG - Processing: 0x0 0x1f 0x0 0x0 0x0 0x7 0x0 0x3 0x4 0x0 0x0 0x0 0x0
2022-07-21 11:18:03,308 pymodbus.factory - DEBUG - Factory Response[ReadHoldingRegistersResponse: 3]
2022-07-21 11:18:03,309 pymodbus.transaction - DEBUG - Adding transaction 31
2022-07-21 11:18:03,309 pymodbus.transaction - DEBUG - Getting transaction 31
2022-07-21 11:18:03,309 pymodbus.transaction - DEBUG - Changing transaction state from 'PROCESSING REPLY' to 'TRANSACTION_COMPLETE'
2022-07-21 11:18:03,309 pymodbus.transaction - DEBUG - Current transaction state - TRANSACTION_COMPLETE
2022-07-21 11:18:03,309 pymodbus.transaction - DEBUG - Running transaction 32
2022-07-21 11:18:03,310 pymodbus.transaction - DEBUG - SEND: 0x0 0x20 0x0 0x0 0x0 0x6 0x0 0x3 0x0 0x3c 0x0 0x2
2022-07-21 11:18:03,310 pymodbus.client.sync - DEBUG - New Transaction state 'SENDING'
2022-07-21 11:18:03,310 pymodbus.transaction - DEBUG - Changing transaction state from 'SENDING' to 'WAITING FOR REPLY'
2022-07-21 11:18:03,338 pymodbus.transaction - DEBUG - Changing transaction state from 'WAITING FOR REPLY' to 'PROCESSING REPLY'
2022-07-21 11:18:03,338 pymodbus.transaction - DEBUG - RECV: 0x0 0x20 0x0 0x0 0x0 0x7 0x0 0x3 0x4 0x0 0x0 0x0 0x0
2022-07-21 11:18:03,338 pymodbus.framer.socket_framer - DEBUG - Processing: 0x0 0x20 0x0 0x0 0x0 0x7 0x0 0x3 0x4 0x0 0x0 0x0 0x0
2022-07-21 11:18:03,339 pymodbus.factory - DEBUG - Factory Response[ReadHoldingRegistersResponse: 3]
2022-07-21 11:18:03,339 pymodbus.transaction - DEBUG - Adding transaction 32
2022-07-21 11:18:03,339 pymodbus.transaction - DEBUG - Getting transaction 32
2022-07-21 11:18:03,339 pymodbus.transaction - DEBUG - Changing transaction state from 'PROCESSING REPLY' to 'TRANSACTION_COMPLETE'
2022-07-21 11:18:03,339 pymodbus.transaction - DEBUG - Current transaction state - TRANSACTION_COMPLETE
2022-07-21 11:18:03,339 pymodbus.transaction - DEBUG - Running transaction 33
2022-07-21 11:18:03,339 pymodbus.transaction - DEBUG - SEND: 0x0 0x21 0x0 0x0 0x0 0x6 0x0 0x3 0x0 0x3e 0x0 0x2
2022-07-21 11:18:03,339 pymodbus.client.sync - DEBUG - New Transaction state 'SENDING'
2022-07-21 11:18:03,339 pymodbus.transaction - DEBUG - Changing transaction state from 'SENDING' to 'WAITING FOR REPLY'
2022-07-21 11:18:03,371 pymodbus.transaction - DEBUG - Changing transaction state from 'WAITING FOR REPLY' to 'PROCESSING REPLY'
2022-07-21 11:18:03,371 pymodbus.transaction - DEBUG - RECV: 0x0 0x21 0x0 0x0 0x0 0x7 0x0 0x3 0x4 0x0 0x0 0x0 0x0
2022-07-21 11:18:03,371 pymodbus.framer.socket_framer - DEBUG - Processing: 0x0 0x21 0x0 0x0 0x0 0x7 0x0 0x3 0x4 0x0 0x0 0x0 0x0
2022-07-21 11:18:03,371 pymodbus.factory - DEBUG - Factory Response[ReadHoldingRegistersResponse: 3]
2022-07-21 11:18:03,371 pymodbus.transaction - DEBUG - Adding transaction 33
2022-07-21 11:18:03,371 pymodbus.transaction - DEBUG - Getting transaction 33
2022-07-21 11:18:03,371 pymodbus.transaction - DEBUG - Changing transaction state from 'PROCESSING REPLY' to 'TRANSACTION_COMPLETE'
2022-07-21 11:18:03,372 pymodbus.transaction - DEBUG - Current transaction state - TRANSACTION_COMPLETE
2022-07-21 11:18:03,372 pymodbus.transaction - DEBUG - Running transaction 34
2022-07-21 11:18:03,372 pymodbus.transaction - DEBUG - SEND: 0x0 0x22 0x0 0x0 0x0 0x6 0x0 0x3 0x0 0x40 0x0 0x2
2022-07-21 11:18:03,372 pymodbus.client.sync - DEBUG - New Transaction state 'SENDING'
2022-07-21 11:18:03,372 pymodbus.transaction - DEBUG - Changing transaction state from 'SENDING' to 'WAITING FOR REPLY'
2022-07-21 11:18:03,402 pymodbus.transaction - DEBUG - Changing transaction state from 'WAITING FOR REPLY' to 'PROCESSING REPLY'
2022-07-21 11:18:03,402 pymodbus.transaction - DEBUG - RECV: 0x0 0x22 0x0 0x0 0x0 0x7 0x0 0x3 0x4 0x0 0x0 0x0 0x0
2022-07-21 11:18:03,402 pymodbus.framer.socket_framer - DEBUG - Processing: 0x0 0x22 0x0 0x0 0x0 0x7 0x0 0x3 0x4 0x0 0x0 0x0 0x0
2022-07-21 11:18:03,402 pymodbus.factory - DEBUG - Factory Response[ReadHoldingRegistersResponse: 3]
2022-07-21 11:18:03,403 pymodbus.transaction - DEBUG - Adding transaction 34
2022-07-21 11:18:03,403 pymodbus.transaction - DEBUG - Getting transaction 34
2022-07-21 11:18:03,403 pymodbus.transaction - DEBUG - Changing transaction state from 'PROCESSING REPLY' to 'TRANSACTION_COMPLETE'
2022-07-21 11:18:03,403 log1 - DEBUG - Reading Complete
2022-07-21 11:18:03,404 log1 - DEBUG - Posting Data to DB
2022-07-21 11:18:03,408 urllib3.connectionpool - DEBUG - Starting new HTTP connection (1): 192.168.1.36:4000
2022-07-21 11:18:03,518 urllib3.connectionpool - DEBUG - http://192.168.1.36:4000 "POST /data HTTP/1.1" 200 903
2022-07-21 11:18:03,519 root - DEBUG - {"timestamp":"2022-07-21T03:18:02.337Z","primary_charging_relay":1,"primary_discharge_relay":80,"primary_positive_pump":23,"primary_negative_pump":4,"system_mode":9,"system_alarm_status":0,"balancing_valve":0,"positive_valve":0,"negative_valve":0,"state_of_charge":0,"bcu_mode_status":0,"bcu_voltage":0,"bcu_current":0,"bcu_power":0,"bcu_state_of_charge":0,"bcu_hydrogen_sensor":0,"bcu_leakage_sensor":0,"smoke_sensor":0,"bcu_ocv":0,"bcu_positive_tank_temp":0,"bcu_negative_tank_temp":0,"positive_tank_high_level_float":0,"negative_tank_high_level_float":0,"positive_tank_low_level_float":0,"negative_tank_low_level_float":0,"primary_stack_voltage":0,"primary_stack_current":0,"primary_stack_positive_pressure_sensor":0,"primary_stack_negative_pressure_sensor":0,"positive_stack_pressure_delta":0,"b1_primary_stack_pressure_delta":0,"sensor_temp":0,"humidity":0,"_id":"62d8c56bad3a3eac12b5d097","__v":0}
2022-07-21 11:18:03,519 log1 - DEBUG - {'timestamp': '2022-07-21 11:18:02.337344', 'dc_main_contactor': 0, 'stk1_contactor': 0, 'primary_positive_pump': 23.0, 'primary_negative_pump': 4.0, 'system_mode': 9.0, 'system_alarm_status': 0.0, 'balancing_valve': 0.0, 'positive_valve': 0.0, 'negative_valve': 0.0, 'state_of_charge': 0.0, 'bcu_mode_status': 0.0, 'bcu_voltage': 0.0, 'bcu_current': 0.0, 'bcu_power': 0.0, 'bcu_state_of_charge': 0.0, 'bcu_hydrogen_sensor': 0.0, 'bcu_leakage_sensor': 0.0, 'smoke_sensor': 0.0, 'bcu_ocv': 0.0, 'bcu_positive_tank_temp': 0.0, 'bcu_negative_tank_temp': 0.0, 'positive_tank_high_level_float': 0.0, 'negative_tank_high_level_float': 0.0, 'positive_tank_low_level_float': 0.0, 'negative_tank_low_level_float': 0, 'primary_stack_voltage': 0.0, 'primary_stack_current': 0.0, 'primary_stack_positive_pressure_sensor': 0.0, 'primary_stack_negative_pressure_sensor': 0.0, 'positive_stack_pressure_delta': 0.0, 'b1_primary_stack_pressure_delta': 0.0, 'sensor_temp': 0.0, 'humidity': 0.0, 'bms_timestamp': 0, 'plc_alarm_status_1': 0, 'primary_charging_relay': 1.0, 'primary_discharge_relay': 80.0}
2022-07-21 11:18:08,535 root - DEBUG - Reading Registers
2022-07-21 11:18:08,535 log1 - DEBUG - Reading Registers
2022-07-21 11:18:08,536 pymodbus.transaction - DEBUG - Current transaction state - TRANSACTION_COMPLETE
2022-07-21 11:18:08,536 pymodbus.transaction - DEBUG - Running transaction 35
2022-07-21 11:18:08,536 pymodbus.transaction - DEBUG - SEND: 0x0 0x23 0x0 0x0 0x0 0x6 0x0 0x3 0x0 0x0 0x0 0x2
2022-07-21 11:18:08,537 pymodbus.client.sync - DEBUG - New Transaction state 'SENDING'
2022-07-21 11:18:08,537 pymodbus.transaction - DEBUG - Changing transaction state from 'SENDING' to 'WAITING FOR REPLY'
2022-07-21 11:18:08,550 pymodbus.transaction - DEBUG - Changing transaction state from 'WAITING FOR REPLY' to 'PROCESSING REPLY'
2022-07-21 11:18:08,550 pymodbus.transaction - DEBUG - RECV: 0x0 0x23 0x0 0x0 0x0 0x7 0x0 0x3 0x4 0x0 0x1 0x0 0x1
2022-07-21 11:18:08,550 pymodbus.framer.socket_framer - DEBUG - Processing: 0x0 0x23 0x0 0x0 0x0 0x7 0x0 0x3 0x4 0x0 0x1 0x0 0x1
2022-07-21 11:18:08,550 pymodbus.factory - DEBUG - Factory Response[ReadHoldingRegistersResponse: 3]
2022-07-21 11:18:08,550 pymodbus.transaction - DEBUG - Adding transaction 35
2022-07-21 11:18:08,550 pymodbus.transaction - DEBUG - Getting transaction 35
2022-07-21 11:18:08,551 pymodbus.transaction - DEBUG - Changing transaction state from 'PROCESSING REPLY' to 'TRANSACTION_COMPLETE'
2022-07-21 11:18:08,551 pymodbus.transaction - DEBUG - Current transaction state - TRANSACTION_COMPLETE
2022-07-21 11:18:08,551 pymodbus.transaction - DEBUG - Running transaction 36
2022-07-21 11:18:08,551 pymodbus.transaction - DEBUG - SEND: 0x0 0x24 0x0 0x0 0x0 0x6 0x0 0x3 0x0 0x2 0x0 0x2
2022-07-21 11:18:08,551 pymodbus.client.sync - DEBUG - New Transaction state 'SENDING'
2022-07-21 11:18:08,551 pymodbus.transaction - DEBUG - Changing transaction state from 'SENDING' to 'WAITING FOR REPLY'
2022-07-21 11:18:08,582 pymodbus.transaction - DEBUG - Changing transaction state from 'WAITING FOR REPLY' to 'PROCESSING REPLY'
2022-07-21 11:18:08,582 pymodbus.transaction - DEBUG - RECV: 0x0 0x24 0x0 0x0 0x0 0x7 0x0 0x3 0x4 0x0 0x0 0x0 0x50
2022-07-21 11:18:08,582 pymodbus.framer.socket_framer - DEBUG - Processing: 0x0 0x24 0x0 0x0 0x0 0x7 0x0 0x3 0x4 0x0 0x0 0x0 0x50
2022-07-21 11:18:08,582 pymodbus.factory - DEBUG - Factory Response[ReadHoldingRegistersResponse: 3]
2022-07-21 11:18:08,582 pymodbus.transaction - DEBUG - Adding transaction 36
2022-07-21 11:18:08,582 pymodbus.transaction - DEBUG - Getting transaction 36
2022-07-21 11:18:08,582 pymodbus.transaction - DEBUG - Changing transaction state from 'PROCESSING REPLY' to 'TRANSACTION_COMPLETE'
2022-07-21 11:18:08,582 pymodbus.transaction - DEBUG - Current transaction state - TRANSACTION_COMPLETE
2022-07-21 11:18:08,582 pymodbus.transaction - DEBUG - Running transaction 37
2022-07-21 11:18:08,582 pymodbus.transaction - DEBUG - SEND: 0x0 0x25 0x0 0x0 0x0 0x6 0x0 0x3 0x0 0x4 0x0 0x2
2022-07-21 11:18:08,582 pymodbus.client.sync - DEBUG - New Transaction state 'SENDING'
2022-07-21 11:18:08,582 pymodbus.transaction - DEBUG - Changing transaction state from 'SENDING' to 'WAITING FOR REPLY'
2022-07-21 11:18:08,613 pymodbus.transaction - DEBUG - Changing transaction state from 'WAITING FOR REPLY' to 'PROCESSING REPLY'
2022-07-21 11:18:08,613 pymodbus.transaction - DEBUG - RECV: 0x0 0x25 0x0 0x0 0x0 0x7 0x0 0x3 0x4 0x0 0x0 0x0 0x17
2022-07-21 11:18:08,614 pymodbus.framer.socket_framer - DEBUG - Processing: 0x0 0x25 0x0 0x0 0x0 0x7 0x0 0x3 0x4 0x0 0x0 0x0 0x17
2022-07-21 11:18:08,614 pymodbus.factory - DEBUG - Factory Response[ReadHoldingRegistersResponse: 3]
2022-07-21 11:18:08,614 pymodbus.transaction - DEBUG - Adding transaction 37
2022-07-21 11:18:08,614 pymodbus.transaction - DEBUG - Getting transaction 37
2022-07-21 11:18:08,614 pymodbus.transaction - DEBUG - Changing transaction state from 'PROCESSING REPLY' to 'TRANSACTION_COMPLETE'
2022-07-21 11:18:08,614 pymodbus.transaction - DEBUG - Current transaction state - TRANSACTION_COMPLETE
2022-07-21 11:18:08,614 pymodbus.transaction - DEBUG - Running transaction 38
2022-07-21 11:18:08,614 pymodbus.transaction - DEBUG - SEND: 0x0 0x26 0x0 0x0 0x0 0x6 0x0 0x3 0x0 0x6 0x0 0x2
2022-07-21 11:18:08,614 pymodbus.client.sync - DEBUG - New Transaction state 'SENDING'
2022-07-21 11:18:08,614 pymodbus.transaction - DEBUG - Changing transaction state from 'SENDING' to 'WAITING FOR REPLY'
2022-07-21 11:18:08,645 pymodbus.transaction - DEBUG - Changing transaction state from 'WAITING FOR REPLY' to 'PROCESSING REPLY'
2022-07-21 11:18:08,646 pymodbus.transaction - DEBUG - RECV: 0x0 0x26 0x0 0x0 0x0 0x7 0x0 0x3 0x4 0x0 0x0 0x0 0x4
2022-07-21 11:18:08,646 pymodbus.framer.socket_framer - DEBUG - Processing: 0x0 0x26 0x0 0x0 0x0 0x7 0x0 0x3 0x4 0x0 0x0 0x0 0x4
2022-07-21 11:18:08,646 pymodbus.factory - DEBUG - Factory Response[ReadHoldingRegistersResponse: 3]
2022-07-21 11:18:08,646 pymodbus.transaction - DEBUG - Adding transaction 38
2022-07-21 11:18:08,646 pymodbus.transaction - DEBUG - Getting transaction 38
2022-07-21 11:18:08,646 pymodbus.transaction - DEBUG - Changing transaction state from 'PROCESSING REPLY' to 'TRANSACTION_COMPLETE'
2022-07-21 11:18:08,646 pymodbus.transaction - DEBUG - Current transaction state - TRANSACTION_COMPLETE
2022-07-21 11:18:08,646 pymodbus.transaction - DEBUG - Running transaction 39
2022-07-21 11:18:08,646 pymodbus.transaction - DEBUG - SEND: 0x0 0x27 0x0 0x0 0x0 0x6 0x0 0x3 0x0 0x8 0x0 0x2
2022-07-21 11:18:08,646 pymodbus.client.sync - DEBUG - New Transaction state 'SENDING'
2022-07-21 11:18:08,647 pymodbus.transaction - DEBUG - Changing transaction state from 'SENDING' to 'WAITING FOR REPLY'
2022-07-21 11:18:08,676 pymodbus.transaction - DEBUG - Changing transaction state from 'WAITING FOR REPLY' to 'PROCESSING REPLY'
2022-07-21 11:18:08,676 pymodbus.transaction - DEBUG - RECV: 0x0 0x27 0x0 0x0 0x0 0x7 0x0 0x3 0x4 0x0 0x0 0x0 0x9
2022-07-21 11:18:08,676 pymodbus.framer.socket_framer - DEBUG - Processing: 0x0 0x27 0x0 0x0 0x0 0x7 0x0 0x3 0x4 0x0 0x0 0x0 0x9
2022-07-21 11:18:08,676 pymodbus.factory - DEBUG - Factory Response[ReadHoldingRegistersResponse: 3]
2022-07-21 11:18:08,676 pymodbus.transaction - DEBUG - Adding transaction 39
2022-07-21 11:18:08,676 pymodbus.transaction - DEBUG - Getting transaction 39
2022-07-21 11:18:08,676 pymodbus.transaction - DEBUG - Changing transaction state from 'PROCESSING REPLY' to 'TRANSACTION_COMPLETE'
2022-07-21 11:18:08,676 pymodbus.transaction - DEBUG - Current transaction state - TRANSACTION_COMPLETE
2022-07-21 11:18:08,676 pymodbus.transaction - DEBUG - Running transaction 40
2022-07-21 11:18:08,676 pymodbus.transaction - DEBUG - SEND: 0x0 0x28 0x0 0x0 0x0 0x6 0x0 0x3 0x0 0xa 0x0 0x2
2022-07-21 11:18:08,676 pymodbus.client.sync - DEBUG - New Transaction state 'SENDING'
2022-07-21 11:18:08,676 pymodbus.transaction - DEBUG - Changing transaction state from 'SENDING' to 'WAITING FOR REPLY'
2022-07-21 11:18:08,708 pymodbus.transaction - DEBUG - Changing transaction state from 'WAITING FOR REPLY' to 'PROCESSING REPLY'
2022-07-21 11:18:08,708 pymodbus.transaction - DEBUG - RECV: 0x0 0x28 0x0 0x0 0x0 0x7 0x0 0x3 0x4 0x0 0x0 0x0 0x0
2022-07-21 11:18:08,708 pymodbus.framer.socket_framer - DEBUG - Processing: 0x0 0x28 0x0 0x0 0x0 0x7 0x0 0x3 0x4 0x0 0x0 0x0 0x0
2022-07-21 11:18:08,709 pymodbus.factory - DEBUG - Factory Response[ReadHoldingRegistersResponse: 3]
2022-07-21 11:18:08,709 pymodbus.transaction - DEBUG - Adding transaction 40
2022-07-21 11:18:08,709 pymodbus.transaction - DEBUG - Getting transaction 40
2022-07-21 11:18:08,709 pymodbus.transaction - DEBUG - Changing transaction state from 'PROCESSING REPLY' to 'TRANSACTION_COMPLETE'
2022-07-21 11:18:08,709 pymodbus.transaction - DEBUG - Current transaction state - TRANSACTION_COMPLETE
2022-07-21 11:18:08,709 pymodbus.transaction - DEBUG - Running transaction 41
2022-07-21 11:18:08,709 pymodbus.transaction - DEBUG - SEND: 0x0 0x29 0x0 0x0 0x0 0x6 0x0 0x3 0x0 0xc 0x0 0x2
2022-07-21 11:18:08,710 pymodbus.client.sync - DEBUG - New Transaction state 'SENDING'
2022-07-21 11:18:08,710 pymodbus.transaction - DEBUG - Changing transaction state from 'SENDING' to 'WAITING FOR REPLY'
2022-07-21 11:18:08,738 pymodbus.transaction - DEBUG - Changing transaction state from 'WAITING FOR REPLY' to 'PROCESSING REPLY'
2022-07-21 11:18:08,738 pymodbus.transaction - DEBUG - RECV: 0x0 0x29 0x0 0x0 0x0 0x7 0x0 0x3 0x4 0x0 0x0 0x0 0x0
2022-07-21 11:18:08,739 pymodbus.framer.socket_framer - DEBUG - Processing: 0x0 0x29 0x0 0x0 0x0 0x7 0x0 0x3 0x4 0x0 0x0 0x0 0x0
2022-07-21 11:18:08,739 pymodbus.factory - DEBUG - Factory Response[ReadHoldingRegistersResponse: 3]
2022-07-21 11:18:08,739 pymodbus.transaction - DEBUG - Adding transaction 41
2022-07-21 11:18:08,739 pymodbus.transaction - DEBUG - Getting transaction 41
2022-07-21 11:18:08,739 pymodbus.transaction - DEBUG - Changing transaction state from 'PROCESSING REPLY' to 'TRANSACTION_COMPLETE'
2022-07-21 11:18:08,740 pymodbus.transaction - DEBUG - Current transaction state - TRANSACTION_COMPLETE
2022-07-21 11:18:08,740 pymodbus.transaction - DEBUG - Running transaction 42
2022-07-21 11:18:08,740 pymodbus.transaction - DEBUG - SEND: 0x0 0x2a 0x0 0x0 0x0 0x6 0x0 0x3 0x0 0xe 0x0 0x2
2022-07-21 11:18:08,740 pymodbus.client.sync - DEBUG - New Transaction state 'SENDING'
2022-07-21 11:18:08,740 pymodbus.transaction - DEBUG - Changing transaction state from 'SENDING' to 'WAITING FOR REPLY'
2022-07-21 11:18:08,769 pymodbus.transaction - DEBUG - Changing transaction state from 'WAITING FOR REPLY' to 'PROCESSING REPLY'
2022-07-21 11:18:08,769 pymodbus.transaction - DEBUG - RECV: 0x0 0x2a 0x0 0x0 0x0 0x7 0x0 0x3 0x4 0x0 0x0 0x0 0x0
2022-07-21 11:18:08,770 pymodbus.framer.socket_framer - DEBUG - Processing: 0x0 0x2a 0x0 0x0 0x0 0x7 0x0 0x3 0x4 0x0 0x0 0x0 0x0
2022-07-21 11:18:08,770 pymodbus.factory - DEBUG - Factory Response[ReadHoldingRegistersResponse: 3]
2022-07-21 11:18:08,770 pymodbus.transaction - DEBUG - Adding transaction 42
2022-07-21 11:18:08,770 pymodbus.transaction - DEBUG - Getting transaction 42
2022-07-21 11:18:08,770 pymodbus.transaction - DEBUG - Changing transaction state from 'PROCESSING REPLY' to 'TRANSACTION_COMPLETE'
2022-07-21 11:18:08,770 pymodbus.transaction - DEBUG - Current transaction state - TRANSACTION_COMPLETE
2022-07-21 11:18:08,770 pymodbus.transaction - DEBUG - Running transaction 43
2022-07-21 11:18:08,770 pymodbus.transaction - DEBUG - SEND: 0x0 0x2b 0x0 0x0 0x0 0x6 0x0 0x3 0x0 0x10 0x0 0x2
2022-07-21 11:18:08,771 pymodbus.client.sync - DEBUG - New Transaction state 'SENDING'
2022-07-21 11:18:08,771 pymodbus.transaction - DEBUG - Changing transaction state from 'SENDING' to 'WAITING FOR REPLY'
2022-07-21 11:18:08,800 pymodbus.transaction - DEBUG - Changing transaction state from 'WAITING FOR REPLY' to 'PROCESSING REPLY'
2022-07-21 11:18:08,800 pymodbus.transaction - DEBUG - RECV: 0x0 0x2b 0x0 0x0 0x0 0x7 0x0 0x3 0x4 0x0 0x0 0x0 0x0
2022-07-21 11:18:08,800 pymodbus.framer.socket_framer - DEBUG - Processing: 0x0 0x2b 0x0 0x0 0x0 0x7 0x0 0x3 0x4 0x0 0x0 0x0 0x0
2022-07-21 11:18:08,801 pymodbus.factory - DEBUG - Factory Response[ReadHoldingRegistersResponse: 3]
2022-07-21 11:18:08,801 pymodbus.transaction - DEBUG - Adding transaction 43
2022-07-21 11:18:08,801 pymodbus.transaction - DEBUG - Getting transaction 43
2022-07-21 11:18:08,801 pymodbus.transaction - DEBUG - Changing transaction state from 'PROCESSING REPLY' to 'TRANSACTION_COMPLETE'
2022-07-21 11:18:08,801 pymodbus.transaction - DEBUG - Current transaction state - TRANSACTION_COMPLETE
2022-07-21 11:18:08,801 pymodbus.transaction - DEBUG - Running transaction 44
2022-07-21 11:18:08,801 pymodbus.transaction - DEBUG - SEND: 0x0 0x2c 0x0 0x0 0x0 0x6 0x0 0x3 0x0 0x12 0x0 0x2
2022-07-21 11:18:08,801 pymodbus.client.sync - DEBUG - New Transaction state 'SENDING'
2022-07-21 11:18:08,801 pymodbus.transaction - DEBUG - Changing transaction state from 'SENDING' to 'WAITING FOR REPLY'
2022-07-21 11:18:08,831 pymodbus.transaction - DEBUG - Changing transaction state from 'WAITING FOR REPLY' to 'PROCESSING REPLY'
2022-07-21 11:18:08,832 pymodbus.transaction - DEBUG - RECV: 0x0 0x2c 0x0 0x0 0x0 0x7 0x0 0x3 0x4 0x0 0x0 0x0 0x0
2022-07-21 11:18:08,832 pymodbus.framer.socket_framer - DEBUG - Processing: 0x0 0x2c 0x0 0x0 0x0 0x7 0x0 0x3 0x4 0x0 0x0 0x0 0x0
2022-07-21 11:18:08,832 pymodbus.factory - DEBUG - Factory Response[ReadHoldingRegistersResponse: 3]
2022-07-21 11:18:08,833 pymodbus.transaction - DEBUG - Adding transaction 44
2022-07-21 11:18:08,833 pymodbus.transaction - DEBUG - Getting transaction 44
2022-07-21 11:18:08,833 pymodbus.transaction - DEBUG - Changing transaction state from 'PROCESSING REPLY' to 'TRANSACTION_COMPLETE'
2022-07-21 11:18:08,833 pymodbus.transaction - DEBUG - Current transaction state - TRANSACTION_COMPLETE
2022-07-21 11:18:08,833 pymodbus.transaction - DEBUG - Running transaction 45
2022-07-21 11:18:08,834 pymodbus.transaction - DEBUG - SEND: 0x0 0x2d 0x0 0x0 0x0 0x6 0x0 0x3 0x0 0x14 0x0 0x2
2022-07-21 11:18:08,834 pymodbus.client.sync - DEBUG - New Transaction state 'SENDING'
2022-07-21 11:18:08,834 pymodbus.transaction - DEBUG - Changing transaction state from 'SENDING' to 'WAITING FOR REPLY'
2022-07-21 11:18:08,862 pymodbus.transaction - DEBUG - Changing transaction state from 'WAITING FOR REPLY' to 'PROCESSING REPLY'
2022-07-21 11:18:08,862 pymodbus.transaction - DEBUG - RECV: 0x0 0x2d 0x0 0x0 0x0 0x7 0x0 0x3 0x4 0x0 0x0 0x0 0x0
2022-07-21 11:18:08,862 pymodbus.framer.socket_framer - DEBUG - Processing: 0x0 0x2d 0x0 0x0 0x0 0x7 0x0 0x3 0x4 0x0 0x0 0x0 0x0
2022-07-21 11:18:08,862 pymodbus.factory - DEBUG - Factory Response[ReadHoldingRegistersResponse: 3]
2022-07-21 11:18:08,863 pymodbus.transaction - DEBUG - Adding transaction 45
2022-07-21 11:18:08,863 pymodbus.transaction - DEBUG - Getting transaction 45
2022-07-21 11:18:08,863 pymodbus.transaction - DEBUG - Changing transaction state from 'PROCESSING REPLY' to 'TRANSACTION_COMPLETE'
2022-07-21 11:18:08,863 pymodbus.transaction - DEBUG - Current transaction state - TRANSACTION_COMPLETE
2022-07-21 11:18:08,863 pymodbus.transaction - DEBUG - Running transaction 46
2022-07-21 11:18:08,863 pymodbus.transaction - DEBUG - SEND: 0x0 0x2e 0x0 0x0 0x0 0x6 0x0 0x3 0x0 0x16 0x0 0x2
2022-07-21 11:18:08,863 pymodbus.client.sync - DEBUG - New Transaction state 'SENDING'
2022-07-21 11:18:08,863 pymodbus.transaction - DEBUG - Changing transaction state from 'SENDING' to 'WAITING FOR REPLY'
2022-07-21 11:18:08,894 pymodbus.transaction - DEBUG - Changing transaction state from 'WAITING FOR REPLY' to 'PROCESSING REPLY'
2022-07-21 11:18:08,894 pymodbus.transaction - DEBUG - RECV: 0x0 0x2e 0x0 0x0 0x0 0x7 0x0 0x3 0x4 0x0 0x0 0x0 0x0
2022-07-21 11:18:08,895 pymodbus.framer.socket_framer - DEBUG - Processing: 0x0 0x2e 0x0 0x0 0x0 0x7 0x0 0x3 0x4 0x0 0x0 0x0 0x0
2022-07-21 11:18:08,895 pymodbus.factory - DEBUG - Factory Response[ReadHoldingRegistersResponse: 3]
2022-07-21 11:18:08,895 pymodbus.transaction - DEBUG - Adding transaction 46
2022-07-21 11:18:08,895 pymodbus.transaction - DEBUG - Getting transaction 46
2022-07-21 11:18:08,895 pymodbus.transaction - DEBUG - Changing transaction state from 'PROCESSING REPLY' to 'TRANSACTION_COMPLETE'
2022-07-21 11:18:08,895 pymodbus.transaction - DEBUG - Current transaction state - TRANSACTION_COMPLETE
2022-07-21 11:18:08,895 pymodbus.transaction - DEBUG - Running transaction 47
2022-07-21 11:18:08,896 pymodbus.transaction - DEBUG - SEND: 0x0 0x2f 0x0 0x0 0x0 0x6 0x0 0x3 0x0 0x18 0x0 0x2
2022-07-21 11:18:08,896 pymodbus.client.sync - DEBUG - New Transaction state 'SENDING'
2022-07-21 11:18:08,896 pymodbus.transaction - DEBUG - Changing transaction state from 'SENDING' to 'WAITING FOR REPLY'
2022-07-21 11:18:08,926 pymodbus.transaction - DEBUG - Changing transaction state from 'WAITING FOR REPLY' to 'PROCESSING REPLY'
2022-07-21 11:18:08,926 pymodbus.transaction - DEBUG - RECV: 0x0 0x2f 0x0 0x0 0x0 0x7 0x0 0x3 0x4 0x0 0x0 0x0 0x0
2022-07-21 11:18:08,927 pymodbus.framer.socket_framer - DEBUG - Processing: 0x0 0x2f 0x0 0x0 0x0 0x7 0x0 0x3 0x4 0x0 0x0 0x0 0x0
2022-07-21 11:18:08,927 pymodbus.factory - DEBUG - Factory Response[ReadHoldingRegistersResponse: 3]
2022-07-21 11:18:08,927 pymodbus.transaction - DEBUG - Adding transaction 47
2022-07-21 11:18:08,927 pymodbus.transaction - DEBUG - Getting transaction 47
2022-07-21 11:18:08,927 pymodbus.transaction - DEBUG - Changing transaction state from 'PROCESSING REPLY' to 'TRANSACTION_COMPLETE'
2022-07-21 11:18:08,927 pymodbus.transaction - DEBUG - Current transaction state - TRANSACTION_COMPLETE
2022-07-21 11:18:08,927 pymodbus.transaction - DEBUG - Running transaction 48
2022-07-21 11:18:08,928 pymodbus.transaction - DEBUG - SEND: 0x0 0x30 0x0 0x0 0x0 0x6 0x0 0x3 0x0 0x1a 0x0 0x2
2022-07-21 11:18:08,928 pymodbus.client.sync - DEBUG - New Transaction state 'SENDING'
2022-07-21 11:18:08,928 pymodbus.transaction - DEBUG - Changing transaction state from 'SENDING' to 'WAITING FOR REPLY'
2022-07-21 11:18:08,958 pymodbus.transaction - DEBUG - Changing transaction state from 'WAITING FOR REPLY' to 'PROCESSING REPLY'
2022-07-21 11:18:08,959 pymodbus.transaction - DEBUG - RECV: 0x0 0x30 0x0 0x0 0x0 0x7 0x0 0x3 0x4 0x0 0x0 0x0 0x0
2022-07-21 11:18:08,959 pymodbus.framer.socket_framer - DEBUG - Processing: 0x0 0x30 0x0 0x0 0x0 0x7 0x0 0x3 0x4 0x0 0x0 0x0 0x0
2022-07-21 11:18:08,959 pymodbus.factory - DEBUG - Factory Response[ReadHoldingRegistersResponse: 3]
2022-07-21 11:18:08,959 pymodbus.transaction - DEBUG - Adding transaction 48
2022-07-21 11:18:08,959 pymodbus.transaction - DEBUG - Getting transaction 48
2022-07-21 11:18:08,959 pymodbus.transaction - DEBUG - Changing transaction state from 'PROCESSING REPLY' to 'TRANSACTION_COMPLETE'
2022-07-21 11:18:08,959 pymodbus.transaction - DEBUG - Current transaction state - TRANSACTION_COMPLETE
2022-07-21 11:18:08,959 pymodbus.transaction - DEBUG - Running transaction 49
2022-07-21 11:18:08,959 pymodbus.transaction - DEBUG - SEND: 0x0 0x31 0x0 0x0 0x0 0x6 0x0 0x3 0x0 0x1c 0x0 0x2
2022-07-21 11:18:08,959 pymodbus.client.sync - DEBUG - New Transaction state 'SENDING'
2022-07-21 11:18:08,959 pymodbus.transaction - DEBUG - Changing transaction state from 'SENDING' to 'WAITING FOR REPLY'
2022-07-21 11:18:08,989 pymodbus.transaction - DEBUG - Changing transaction state from 'WAITING FOR REPLY' to 'PROCESSING REPLY'
2022-07-21 11:18:08,990 pymodbus.transaction - DEBUG - RECV: 0x0 0x31 0x0 0x0 0x0 0x7 0x0 0x3 0x4 0x0 0x0 0x0 0x0
2022-07-21 11:18:08,990 pymodbus.framer.socket_framer - DEBUG - Processing: 0x0 0x31 0x0 0x0 0x0 0x7 0x0 0x3 0x4 0x0 0x0 0x0 0x0
2022-07-21 11:18:08,990 pymodbus.factory - DEBUG - Factory Response[ReadHoldingRegistersResponse: 3]
2022-07-21 11:18:08,990 pymodbus.transaction - DEBUG - Adding transaction 49
2022-07-21 11:18:08,990 pymodbus.transaction - DEBUG - Getting transaction 49
2022-07-21 11:18:08,990 pymodbus.transaction - DEBUG - Changing transaction state from 'PROCESSING REPLY' to 'TRANSACTION_COMPLETE'
2022-07-21 11:18:08,990 pymodbus.transaction - DEBUG - Current transaction state - TRANSACTION_COMPLETE
2022-07-21 11:18:08,990 pymodbus.transaction - DEBUG - Running transaction 50
2022-07-21 11:18:08,991 pymodbus.transaction - DEBUG - SEND: 0x0 0x32 0x0 0x0 0x0 0x6 0x0 0x3 0x0 0x1e 0x0 0x2
2022-07-21 11:18:08,991 pymodbus.client.sync - DEBUG - New Transaction state 'SENDING'
2022-07-21 11:18:08,991 pymodbus.transaction - DEBUG - Changing transaction state from 'SENDING' to 'WAITING FOR REPLY'
2022-07-21 11:18:09,019 pymodbus.transaction - DEBUG - Changing transaction state from 'WAITING FOR REPLY' to 'PROCESSING REPLY'
2022-07-21 11:18:09,019 pymodbus.transaction - DEBUG - RECV: 0x0 0x32 0x0 0x0 0x0 0x7 0x0 0x3 0x4 0x0 0x0 0x0 0x0
2022-07-21 11:18:09,019 pymodbus.framer.socket_framer - DEBUG - Processing: 0x0 0x32 0x0 0x0 0x0 0x7 0x0 0x3 0x4 0x0 0x0 0x0 0x0
2022-07-21 11:18:09,019 pymodbus.factory - DEBUG - Factory Response[ReadHoldingRegistersResponse: 3]
2022-07-21 11:18:09,019 pymodbus.transaction - DEBUG - Adding transaction 50
2022-07-21 11:18:09,020 pymodbus.transaction - DEBUG - Getting transaction 50
2022-07-21 11:18:09,020 pymodbus.transaction - DEBUG - Changing transaction state from 'PROCESSING REPLY' to 'TRANSACTION_COMPLETE'
2022-07-21 11:18:09,020 pymodbus.transaction - DEBUG - Current transaction state - TRANSACTION_COMPLETE
2022-07-21 11:18:09,020 pymodbus.transaction - DEBUG - Running transaction 51
2022-07-21 11:18:09,020 pymodbus.transaction - DEBUG - SEND: 0x0 0x33 0x0 0x0 0x0 0x6 0x0 0x3 0x0 0x20 0x0 0x2
2022-07-21 11:18:09,020 pymodbus.client.sync - DEBUG - New Transaction state 'SENDING'
2022-07-21 11:18:09,020 pymodbus.transaction - DEBUG - Changing transaction state from 'SENDING' to 'WAITING FOR REPLY'
2022-07-21 11:18:09,050 pymodbus.transaction - DEBUG - Changing transaction state from 'WAITING FOR REPLY' to 'PROCESSING REPLY'
2022-07-21 11:18:09,050 pymodbus.transaction - DEBUG - RECV: 0x0 0x33 0x0 0x0 0x0 0x7 0x0 0x3 0x4 0x0 0x0 0x0 0x0
2022-07-21 11:18:09,050 pymodbus.framer.socket_framer - DEBUG - Processing: 0x0 0x33 0x0 0x0 0x0 0x7 0x0 0x3 0x4 0x0 0x0 0x0 0x0
2022-07-21 11:18:09,050 pymodbus.factory - DEBUG - Factory Response[ReadHoldingRegistersResponse: 3]
2022-07-21 11:18:09,050 pymodbus.transaction - DEBUG - Adding transaction 51
2022-07-21 11:18:09,050 pymodbus.transaction - DEBUG - Getting transaction 51
2022-07-21 11:18:09,050 pymodbus.transaction - DEBUG - Changing transaction state from 'PROCESSING REPLY' to 'TRANSACTION_COMPLETE'
2022-07-21 11:18:09,051 pymodbus.transaction - DEBUG - Current transaction state - TRANSACTION_COMPLETE
2022-07-21 11:18:09,051 pymodbus.transaction - DEBUG - Running transaction 52
2022-07-21 11:18:09,051 pymodbus.transaction - DEBUG - SEND: 0x0 0x34 0x0 0x0 0x0 0x6 0x0 0x3 0x0 0x22 0x0 0x2
2022-07-21 11:18:09,051 pymodbus.client.sync - DEBUG - New Transaction state 'SENDING'
2022-07-21 11:18:09,051 pymodbus.transaction - DEBUG - Changing transaction state from 'SENDING' to 'WAITING FOR REPLY'
2022-07-21 11:18:09,086 pymodbus.transaction - DEBUG - Changing transaction state from 'WAITING FOR REPLY' to 'PROCESSING REPLY'
2022-07-21 11:18:09,086 pymodbus.transaction - DEBUG - RECV: 0x0 0x34 0x0 0x0 0x0 0x7 0x0 0x3 0x4 0x0 0x0 0x0 0x0
2022-07-21 11:18:09,086 pymodbus.framer.socket_framer - DEBUG - Processing: 0x0 0x34 0x0 0x0 0x0 0x7 0x0 0x3 0x4 0x0 0x0 0x0 0x0
2022-07-21 11:18:09,086 pymodbus.factory - DEBUG - Factory Response[ReadHoldingRegistersResponse: 3]
2022-07-21 11:18:09,086 pymodbus.transaction - DEBUG - Adding transaction 52
2022-07-21 11:18:09,087 pymodbus.transaction - DEBUG - Getting transaction 52
2022-07-21 11:18:09,087 pymodbus.transaction - DEBUG - Changing transaction state from 'PROCESSING REPLY' to 'TRANSACTION_COMPLETE'
2022-07-21 11:18:09,087 pymodbus.transaction - DEBUG - Current transaction state - TRANSACTION_COMPLETE
2022-07-21 11:18:09,087 pymodbus.transaction - DEBUG - Running transaction 53
2022-07-21 11:18:09,087 pymodbus.transaction - DEBUG - SEND: 0x0 0x35 0x0 0x0 0x0 0x6 0x0 0x3 0x0 0x24 0x0 0x2
2022-07-21 11:18:09,087 pymodbus.client.sync - DEBUG - New Transaction state 'SENDING'
2022-07-21 11:18:09,087 pymodbus.transaction - DEBUG - Changing transaction state from 'SENDING' to 'WAITING FOR REPLY'
2022-07-21 11:18:09,113 pymodbus.transaction - DEBUG - Changing transaction state from 'WAITING FOR REPLY' to 'PROCESSING REPLY'
2022-07-21 11:18:09,114 pymodbus.transaction - DEBUG - RECV: 0x0 0x35 0x0 0x0 0x0 0x7 0x0 0x3 0x4 0x0 0x0 0x0 0x0
2022-07-21 11:18:09,114 pymodbus.framer.socket_framer - DEBUG - Processing: 0x0 0x35 0x0 0x0 0x0 0x7 0x0 0x3 0x4 0x0 0x0 0x0 0x0
2022-07-21 11:18:09,114 pymodbus.factory - DEBUG - Factory Response[ReadHoldingRegistersResponse: 3]
2022-07-21 11:18:09,114 pymodbus.transaction - DEBUG - Adding transaction 53
2022-07-21 11:18:09,114 pymodbus.transaction - DEBUG - Getting transaction 53
2022-07-21 11:18:09,114 pymodbus.transaction - DEBUG - Changing transaction state from 'PROCESSING REPLY' to 'TRANSACTION_COMPLETE'
2022-07-21 11:18:09,114 pymodbus.transaction - DEBUG - Current transaction state - TRANSACTION_COMPLETE
2022-07-21 11:18:09,114 pymodbus.transaction - DEBUG - Running transaction 54
2022-07-21 11:18:09,115 pymodbus.transaction - DEBUG - SEND: 0x0 0x36 0x0 0x0 0x0 0x6 0x0 0x3 0x0 0x26 0x0 0x2
2022-07-21 11:18:09,115 pymodbus.client.sync - DEBUG - New Transaction state 'SENDING'
2022-07-21 11:18:09,115 pymodbus.transaction - DEBUG - Changing transaction state from 'SENDING' to 'WAITING FOR REPLY'
2022-07-21 11:18:09,144 pymodbus.transaction - DEBUG - Changing transaction state from 'WAITING FOR REPLY' to 'PROCESSING REPLY'
2022-07-21 11:18:09,144 pymodbus.transaction - DEBUG - RECV: 0x0 0x36 0x0 0x0 0x0 0x7 0x0 0x3 0x4 0x0 0x0 0x0 0x0
2022-07-21 11:18:09,145 pymodbus.framer.socket_framer - DEBUG - Processing: 0x0 0x36 0x0 0x0 0x0 0x7 0x0 0x3 0x4 0x0 0x0 0x0 0x0
2022-07-21 11:18:09,145 pymodbus.factory - DEBUG - Factory Response[ReadHoldingRegistersResponse: 3]
2022-07-21 11:18:09,145 pymodbus.transaction - DEBUG - Adding transaction 54
2022-07-21 11:18:09,145 pymodbus.transaction - DEBUG - Getting transaction 54
2022-07-21 11:18:09,145 pymodbus.transaction - DEBUG - Changing transaction state from 'PROCESSING REPLY' to 'TRANSACTION_COMPLETE'
2022-07-21 11:18:09,145 pymodbus.transaction - DEBUG - Current transaction state - TRANSACTION_COMPLETE
2022-07-21 11:18:09,145 pymodbus.transaction - DEBUG - Running transaction 55
2022-07-21 11:18:09,146 pymodbus.transaction - DEBUG - SEND: 0x0 0x37 0x0 0x0 0x0 0x6 0x0 0x3 0x0 0x28 0x0 0x2
2022-07-21 11:18:09,146 pymodbus.client.sync - DEBUG - New Transaction state 'SENDING'
2022-07-21 11:18:09,146 pymodbus.transaction - DEBUG - Changing transaction state from 'SENDING' to 'WAITING FOR REPLY'
2022-07-21 11:18:09,176 pymodbus.transaction - DEBUG - Changing transaction state from 'WAITING FOR REPLY' to 'PROCESSING REPLY'
2022-07-21 11:18:09,177 pymodbus.transaction - DEBUG - RECV: 0x0 0x37 0x0 0x0 0x0 0x7 0x0 0x3 0x4 0x0 0x0 0x0 0x0
2022-07-21 11:18:09,177 pymodbus.framer.socket_framer - DEBUG - Processing: 0x0 0x37 0x0 0x0 0x0 0x7 0x0 0x3 0x4 0x0 0x0 0x0 0x0
2022-07-21 11:18:09,177 pymodbus.factory - DEBUG - Factory Response[ReadHoldingRegistersResponse: 3]
2022-07-21 11:18:09,177 pymodbus.transaction - DEBUG - Adding transaction 55
2022-07-21 11:18:09,177 pymodbus.transaction - DEBUG - Getting transaction 55
2022-07-21 11:18:09,177 pymodbus.transaction - DEBUG - Changing transaction state from 'PROCESSING REPLY' to 'TRANSACTION_COMPLETE'
2022-07-21 11:18:09,178 pymodbus.transaction - DEBUG - Current transaction state - TRANSACTION_COMPLETE
2022-07-21 11:18:09,178 pymodbus.transaction - DEBUG - Running transaction 56
2022-07-21 11:18:09,178 pymodbus.transaction - DEBUG - SEND: 0x0 0x38 0x0 0x0 0x0 0x6 0x0 0x3 0x0 0x2a 0x0 0x2
2022-07-21 11:18:09,178 pymodbus.client.sync - DEBUG - New Transaction state 'SENDING'
2022-07-21 11:18:09,178 pymodbus.transaction - DEBUG - Changing transaction state from 'SENDING' to 'WAITING FOR REPLY'
2022-07-21 11:18:09,207 pymodbus.transaction - DEBUG - Changing transaction state from 'WAITING FOR REPLY' to 'PROCESSING REPLY'
2022-07-21 11:18:09,207 pymodbus.transaction - DEBUG - RECV: 0x0 0x38 0x0 0x0 0x0 0x7 0x0 0x3 0x4 0x0 0x0 0x0 0x0
2022-07-21 11:18:09,207 pymodbus.framer.socket_framer - DEBUG - Processing: 0x0 0x38 0x0 0x0 0x0 0x7 0x0 0x3 0x4 0x0 0x0 0x0 0x0
2022-07-21 11:18:09,207 pymodbus.factory - DEBUG - Factory Response[ReadHoldingRegistersResponse: 3]
2022-07-21 11:18:09,207 pymodbus.transaction - DEBUG - Adding transaction 56
2022-07-21 11:18:09,207 pymodbus.transaction - DEBUG - Getting transaction 56
2022-07-21 11:18:09,207 pymodbus.transaction - DEBUG - Changing transaction state from 'PROCESSING REPLY' to 'TRANSACTION_COMPLETE'
2022-07-21 11:18:09,207 pymodbus.transaction - DEBUG - Current transaction state - TRANSACTION_COMPLETE
2022-07-21 11:18:09,208 pymodbus.transaction - DEBUG - Running transaction 57
2022-07-21 11:18:09,208 pymodbus.transaction - DEBUG - SEND: 0x0 0x39 0x0 0x0 0x0 0x6 0x0 0x3 0x0 0x2c 0x0 0x2
2022-07-21 11:18:09,208 pymodbus.client.sync - DEBUG - New Transaction state 'SENDING'
2022-07-21 11:18:09,208 pymodbus.transaction - DEBUG - Changing transaction state from 'SENDING' to 'WAITING FOR REPLY'
2022-07-21 11:18:09,237 pymodbus.transaction - DEBUG - Changing transaction state from 'WAITING FOR REPLY' to 'PROCESSING REPLY'
2022-07-21 11:18:09,237 pymodbus.transaction - DEBUG - RECV: 0x0 0x39 0x0 0x0 0x0 0x7 0x0 0x3 0x4 0x0 0x0 0x0 0x0
2022-07-21 11:18:09,238 pymodbus.framer.socket_framer - DEBUG - Processing: 0x0 0x39 0x0 0x0 0x0 0x7 0x0 0x3 0x4 0x0 0x0 0x0 0x0
2022-07-21 11:18:09,238 pymodbus.factory - DEBUG - Factory Response[ReadHoldingRegistersResponse: 3]
2022-07-21 11:18:09,238 pymodbus.transaction - DEBUG - Adding transaction 57
2022-07-21 11:18:09,238 pymodbus.transaction - DEBUG - Getting transaction 57
2022-07-21 11:18:09,238 pymodbus.transaction - DEBUG - Changing transaction state from 'PROCESSING REPLY' to 'TRANSACTION_COMPLETE'
2022-07-21 11:18:09,238 pymodbus.transaction - DEBUG - Current transaction state - TRANSACTION_COMPLETE
2022-07-21 11:18:09,238 pymodbus.transaction - DEBUG - Running transaction 58
2022-07-21 11:18:09,238 pymodbus.transaction - DEBUG - SEND: 0x0 0x3a 0x0 0x0 0x0 0x6 0x0 0x3 0x0 0x30 0x0 0x2
2022-07-21 11:18:09,238 pymodbus.client.sync - DEBUG - New Transaction state 'SENDING'
2022-07-21 11:18:09,239 pymodbus.transaction - DEBUG - Changing transaction state from 'SENDING' to 'WAITING FOR REPLY'
2022-07-21 11:18:09,269 pymodbus.transaction - DEBUG - Changing transaction state from 'WAITING FOR REPLY' to 'PROCESSING REPLY'
2022-07-21 11:18:09,270 pymodbus.transaction - DEBUG - RECV: 0x0 0x3a 0x0 0x0 0x0 0x7 0x0 0x3 0x4 0x0 0x0 0x0 0x0
2022-07-21 11:18:09,270 pymodbus.framer.socket_framer - DEBUG - Processing: 0x0 0x3a 0x0 0x0 0x0 0x7 0x0 0x3 0x4 0x0 0x0 0x0 0x0
2022-07-21 11:18:09,270 pymodbus.factory - DEBUG - Factory Response[ReadHoldingRegistersResponse: 3]
2022-07-21 11:18:09,270 pymodbus.transaction - DEBUG - Adding transaction 58
2022-07-21 11:18:09,270 pymodbus.transaction - DEBUG - Getting transaction 58
2022-07-21 11:18:09,270 pymodbus.transaction - DEBUG - Changing transaction state from 'PROCESSING REPLY' to 'TRANSACTION_COMPLETE'
2022-07-21 11:18:09,270 pymodbus.transaction - DEBUG - Current transaction state - TRANSACTION_COMPLETE
2022-07-21 11:18:09,271 pymodbus.transaction - DEBUG - Running transaction 59
2022-07-21 11:18:09,271 pymodbus.transaction - DEBUG - SEND: 0x0 0x3b 0x0 0x0 0x0 0x6 0x0 0x3 0x0 0x2e 0x0 0x2
2022-07-21 11:18:09,271 pymodbus.client.sync - DEBUG - New Transaction state 'SENDING'
2022-07-21 11:18:09,271 pymodbus.transaction - DEBUG - Changing transaction state from 'SENDING' to 'WAITING FOR REPLY'
2022-07-21 11:18:09,301 pymodbus.transaction - DEBUG - Changing transaction state from 'WAITING FOR REPLY' to 'PROCESSING REPLY'
2022-07-21 11:18:09,302 pymodbus.transaction - DEBUG - RECV: 0x0 0x3b 0x0 0x0 0x0 0x7 0x0 0x3 0x4 0x0 0x0 0x0 0x0
2022-07-21 11:18:09,302 pymodbus.framer.socket_framer - DEBUG - Processing: 0x0 0x3b 0x0 0x0 0x0 0x7 0x0 0x3 0x4 0x0 0x0 0x0 0x0
2022-07-21 11:18:09,302 pymodbus.factory - DEBUG - Factory Response[ReadHoldingRegistersResponse: 3]
2022-07-21 11:18:09,302 pymodbus.transaction - DEBUG - Adding transaction 59
2022-07-21 11:18:09,302 pymodbus.transaction - DEBUG - Getting transaction 59
2022-07-21 11:18:09,302 pymodbus.transaction - DEBUG - Changing transaction state from 'PROCESSING REPLY' to 'TRANSACTION_COMPLETE'
2022-07-21 11:18:09,303 pymodbus.transaction - DEBUG - Current transaction state - TRANSACTION_COMPLETE
2022-07-21 11:18:09,303 pymodbus.transaction - DEBUG - Running transaction 60
2022-07-21 11:18:09,303 pymodbus.transaction - DEBUG - SEND: 0x0 0x3c 0x0 0x0 0x0 0x6 0x0 0x3 0x0 0x30 0x0 0x2
2022-07-21 11:18:09,303 pymodbus.client.sync - DEBUG - New Transaction state 'SENDING'
2022-07-21 11:18:09,303 pymodbus.transaction - DEBUG - Changing transaction state from 'SENDING' to 'WAITING FOR REPLY'
2022-07-21 11:18:09,334 pymodbus.transaction - DEBUG - Changing transaction state from 'WAITING FOR REPLY' to 'PROCESSING REPLY'
2022-07-21 11:18:09,334 pymodbus.transaction - DEBUG - RECV: 0x0 0x3c 0x0 0x0 0x0 0x7 0x0 0x3 0x4 0x0 0x0 0x0 0x0
2022-07-21 11:18:09,334 pymodbus.framer.socket_framer - DEBUG - Processing: 0x0 0x3c 0x0 0x0 0x0 0x7 0x0 0x3 0x4 0x0 0x0 0x0 0x0
2022-07-21 11:18:09,334 pymodbus.factory - DEBUG - Factory Response[ReadHoldingRegistersResponse: 3]
2022-07-21 11:18:09,334 pymodbus.transaction - DEBUG - Adding transaction 60
2022-07-21 11:18:09,334 pymodbus.transaction - DEBUG - Getting transaction 60
2022-07-21 11:18:09,335 pymodbus.transaction - DEBUG - Changing transaction state from 'PROCESSING REPLY' to 'TRANSACTION_COMPLETE'
2022-07-21 11:18:09,335 pymodbus.transaction - DEBUG - Current transaction state - TRANSACTION_COMPLETE
2022-07-21 11:18:09,335 pymodbus.transaction - DEBUG - Running transaction 61
2022-07-21 11:18:09,335 pymodbus.transaction - DEBUG - SEND: 0x0 0x3d 0x0 0x0 0x0 0x6 0x0 0x3 0x0 0x32 0x0 0x2
2022-07-21 11:18:09,335 pymodbus.client.sync - DEBUG - New Transaction state 'SENDING'
2022-07-21 11:18:09,335 pymodbus.transaction - DEBUG - Changing transaction state from 'SENDING' to 'WAITING FOR REPLY'
2022-07-21 11:18:09,365 pymodbus.transaction - DEBUG - Changing transaction state from 'WAITING FOR REPLY' to 'PROCESSING REPLY'
2022-07-21 11:18:09,366 pymodbus.transaction - DEBUG - RECV: 0x0 0x3d 0x0 0x0 0x0 0x7 0x0 0x3 0x4 0x0 0x0 0x0 0x0
2022-07-21 11:18:09,366 pymodbus.framer.socket_framer - DEBUG - Processing: 0x0 0x3d 0x0 0x0 0x0 0x7 0x0 0x3 0x4 0x0 0x0 0x0 0x0
2022-07-21 11:18:09,366 pymodbus.factory - DEBUG - Factory Response[ReadHoldingRegistersResponse: 3]
2022-07-21 11:18:09,366 pymodbus.transaction - DEBUG - Adding transaction 61
2022-07-21 11:18:09,367 pymodbus.transaction - DEBUG - Getting transaction 61
2022-07-21 11:18:09,367 pymodbus.transaction - DEBUG - Changing transaction state from 'PROCESSING REPLY' to 'TRANSACTION_COMPLETE'
2022-07-21 11:18:09,367 pymodbus.transaction - DEBUG - Current transaction state - TRANSACTION_COMPLETE
2022-07-21 11:18:09,367 pymodbus.transaction - DEBUG - Running transaction 62
2022-07-21 11:18:09,367 pymodbus.transaction - DEBUG - SEND: 0x0 0x3e 0x0 0x0 0x0 0x6 0x0 0x3 0x0 0x34 0x0 0x2
2022-07-21 11:18:09,367 pymodbus.client.sync - DEBUG - New Transaction state 'SENDING'
2022-07-21 11:18:09,367 pymodbus.transaction - DEBUG - Changing transaction state from 'SENDING' to 'WAITING FOR REPLY'
2022-07-21 11:18:09,396 pymodbus.transaction - DEBUG - Changing transaction state from 'WAITING FOR REPLY' to 'PROCESSING REPLY'
2022-07-21 11:18:09,396 pymodbus.transaction - DEBUG - RECV: 0x0 0x3e 0x0 0x0 0x0 0x7 0x0 0x3 0x4 0x0 0x0 0x0 0x0
2022-07-21 11:18:09,396 pymodbus.framer.socket_framer - DEBUG - Processing: 0x0 0x3e 0x0 0x0 0x0 0x7 0x0 0x3 0x4 0x0 0x0 0x0 0x0
2022-07-21 11:18:09,397 pymodbus.factory - DEBUG - Factory Response[ReadHoldingRegistersResponse: 3]
2022-07-21 11:18:09,397 pymodbus.transaction - DEBUG - Adding transaction 62
2022-07-21 11:18:09,397 pymodbus.transaction - DEBUG - Getting transaction 62
2022-07-21 11:18:09,397 pymodbus.transaction - DEBUG - Changing transaction state from 'PROCESSING REPLY' to 'TRANSACTION_COMPLETE'
2022-07-21 11:18:09,397 pymodbus.transaction - DEBUG - Current transaction state - TRANSACTION_COMPLETE
2022-07-21 11:18:09,397 pymodbus.transaction - DEBUG - Running transaction 63
2022-07-21 11:18:09,397 pymodbus.transaction - DEBUG - SEND: 0x0 0x3f 0x0 0x0 0x0 0x6 0x0 0x3 0x0 0x36 0x0 0x2
2022-07-21 11:18:09,398 pymodbus.client.sync - DEBUG - New Transaction state 'SENDING'
2022-07-21 11:18:09,398 pymodbus.transaction - DEBUG - Changing transaction state from 'SENDING' to 'WAITING FOR REPLY'
2022-07-21 11:18:09,428 pymodbus.transaction - DEBUG - Changing transaction state from 'WAITING FOR REPLY' to 'PROCESSING REPLY'
2022-07-21 11:18:09,429 pymodbus.transaction - DEBUG - RECV: 0x0 0x3f 0x0 0x0 0x0 0x7 0x0 0x3 0x4 0x0 0x0 0x0 0x0
2022-07-21 11:18:09,429 pymodbus.framer.socket_framer - DEBUG - Processing: 0x0 0x3f 0x0 0x0 0x0 0x7 0x0 0x3 0x4 0x0 0x0 0x0 0x0
2022-07-21 11:18:09,429 pymodbus.factory - DEBUG - Factory Response[ReadHoldingRegistersResponse: 3]
2022-07-21 11:18:09,429 pymodbus.transaction - DEBUG - Adding transaction 63
2022-07-21 11:18:09,429 pymodbus.transaction - DEBUG - Getting transaction 63
2022-07-21 11:18:09,429 pymodbus.transaction - DEBUG - Changing transaction state from 'PROCESSING REPLY' to 'TRANSACTION_COMPLETE'
2022-07-21 11:18:09,430 pymodbus.transaction - DEBUG - Current transaction state - TRANSACTION_COMPLETE
2022-07-21 11:18:09,430 pymodbus.transaction - DEBUG - Running transaction 64
2022-07-21 11:18:09,430 pymodbus.transaction - DEBUG - SEND: 0x0 0x40 0x0 0x0 0x0 0x6 0x0 0x3 0x0 0x38 0x0 0x2
2022-07-21 11:18:09,430 pymodbus.client.sync - DEBUG - New Transaction state 'SENDING'
2022-07-21 11:18:09,430 pymodbus.transaction - DEBUG - Changing transaction state from 'SENDING' to 'WAITING FOR REPLY'
2022-07-21 11:18:09,459 pymodbus.transaction - DEBUG - Changing transaction state from 'WAITING FOR REPLY' to 'PROCESSING REPLY'
2022-07-21 11:18:09,459 pymodbus.transaction - DEBUG - RECV: 0x0 0x40 0x0 0x0 0x0 0x7 0x0 0x3 0x4 0x0 0x0 0x0 0x0
2022-07-21 11:18:09,459 pymodbus.framer.socket_framer - DEBUG - Processing: 0x0 0x40 0x0 0x0 0x0 0x7 0x0 0x3 0x4 0x0 0x0 0x0 0x0
2022-07-21 11:18:09,460 pymodbus.factory - DEBUG - Factory Response[ReadHoldingRegistersResponse: 3]
2022-07-21 11:18:09,460 pymodbus.transaction - DEBUG - Adding transaction 64
2022-07-21 11:18:09,460 pymodbus.transaction - DEBUG - Getting transaction 64
2022-07-21 11:18:09,460 pymodbus.transaction - DEBUG - Changing transaction state from 'PROCESSING REPLY' to 'TRANSACTION_COMPLETE'
2022-07-21 11:18:09,460 pymodbus.transaction - DEBUG - Current transaction state - TRANSACTION_COMPLETE
2022-07-21 11:18:09,460 pymodbus.transaction - DEBUG - Running transaction 65
2022-07-21 11:18:09,460 pymodbus.transaction - DEBUG - SEND: 0x0 0x41 0x0 0x0 0x0 0x6 0x0 0x3 0x0 0x3a 0x0 0x2
2022-07-21 11:18:09,460 pymodbus.client.sync - DEBUG - New Transaction state 'SENDING'
2022-07-21 11:18:09,460 pymodbus.transaction - DEBUG - Changing transaction state from 'SENDING' to 'WAITING FOR REPLY'
2022-07-21 11:18:09,491 pymodbus.transaction - DEBUG - Changing transaction state from 'WAITING FOR REPLY' to 'PROCESSING REPLY'
2022-07-21 11:18:09,491 pymodbus.transaction - DEBUG - RECV: 0x0 0x41 0x0 0x0 0x0 0x7 0x0 0x3 0x4 0x0 0x0 0x0 0x0
2022-07-21 11:18:09,491 pymodbus.framer.socket_framer - DEBUG - Processing: 0x0 0x41 0x0 0x0 0x0 0x7 0x0 0x3 0x4 0x0 0x0 0x0 0x0
2022-07-21 11:18:09,491 pymodbus.factory - DEBUG - Factory Response[ReadHoldingRegistersResponse: 3]
2022-07-21 11:18:09,491 pymodbus.transaction - DEBUG - Adding transaction 65
2022-07-21 11:18:09,491 pymodbus.transaction - DEBUG - Getting transaction 65
2022-07-21 11:18:09,491 pymodbus.transaction - DEBUG - Changing transaction state from 'PROCESSING REPLY' to 'TRANSACTION_COMPLETE'
2022-07-21 11:18:09,492 pymodbus.transaction - DEBUG - Current transaction state - TRANSACTION_COMPLETE
2022-07-21 11:18:09,492 pymodbus.transaction - DEBUG - Running transaction 66
2022-07-21 11:18:09,492 pymodbus.transaction - DEBUG - SEND: 0x0 0x42 0x0 0x0 0x0 0x6 0x0 0x3 0x0 0x3c 0x0 0x2
2022-07-21 11:18:09,492 pymodbus.client.sync - DEBUG - New Transaction state 'SENDING'
2022-07-21 11:18:09,493 pymodbus.transaction - DEBUG - Changing transaction state from 'SENDING' to 'WAITING FOR REPLY'
2022-07-21 11:18:09,521 pymodbus.transaction - DEBUG - Changing transaction state from 'WAITING FOR REPLY' to 'PROCESSING REPLY'
2022-07-21 11:18:09,521 pymodbus.transaction - DEBUG - RECV: 0x0 0x42 0x0 0x0 0x0 0x7 0x0 0x3 0x4 0x0 0x0 0x0 0x0
2022-07-21 11:18:09,521 pymodbus.framer.socket_framer - DEBUG - Processing: 0x0 0x42 0x0 0x0 0x0 0x7 0x0 0x3 0x4 0x0 0x0 0x0 0x0
2022-07-21 11:18:09,522 pymodbus.factory - DEBUG - Factory Response[ReadHoldingRegistersResponse: 3]
2022-07-21 11:18:09,522 pymodbus.transaction - DEBUG - Adding transaction 66
2022-07-21 11:18:09,522 pymodbus.transaction - DEBUG - Getting transaction 66
2022-07-21 11:18:09,522 pymodbus.transaction - DEBUG - Changing transaction state from 'PROCESSING REPLY' to 'TRANSACTION_COMPLETE'
2022-07-21 11:18:09,522 pymodbus.transaction - DEBUG - Current transaction state - TRANSACTION_COMPLETE
2022-07-21 11:18:09,522 pymodbus.transaction - DEBUG - Running transaction 67
2022-07-21 11:18:09,522 pymodbus.transaction - DEBUG - SEND: 0x0 0x43 0x0 0x0 0x0 0x6 0x0 0x3 0x0 0x3e 0x0 0x2
2022-07-21 11:18:09,522 pymodbus.client.sync - DEBUG - New Transaction state 'SENDING'
2022-07-21 11:18:09,522 pymodbus.transaction - DEBUG - Changing transaction state from 'SENDING' to 'WAITING FOR REPLY'
2022-07-21 11:18:09,554 pymodbus.transaction - DEBUG - Changing transaction state from 'WAITING FOR REPLY' to 'PROCESSING REPLY'
2022-07-21 11:18:09,554 pymodbus.transaction - DEBUG - RECV: 0x0 0x43 0x0 0x0 0x0 0x7 0x0 0x3 0x4 0x0 0x0 0x0 0x0
2022-07-21 11:18:09,554 pymodbus.framer.socket_framer - DEBUG - Processing: 0x0 0x43 0x0 0x0 0x0 0x7 0x0 0x3 0x4 0x0 0x0 0x0 0x0
2022-07-21 11:18:09,554 pymodbus.factory - DEBUG - Factory Response[ReadHoldingRegistersResponse: 3]
2022-07-21 11:18:09,554 pymodbus.transaction - DEBUG - Adding transaction 67
2022-07-21 11:18:09,554 pymodbus.transaction - DEBUG - Getting transaction 67
2022-07-21 11:18:09,554 pymodbus.transaction - DEBUG - Changing transaction state from 'PROCESSING REPLY' to 'TRANSACTION_COMPLETE'
2022-07-21 11:18:09,555 pymodbus.transaction - DEBUG - Current transaction state - TRANSACTION_COMPLETE
2022-07-21 11:18:09,555 pymodbus.transaction - DEBUG - Running transaction 68
2022-07-21 11:18:09,555 pymodbus.transaction - DEBUG - SEND: 0x0 0x44 0x0 0x0 0x0 0x6 0x0 0x3 0x0 0x40 0x0 0x2
2022-07-21 11:18:09,555 pymodbus.client.sync - DEBUG - New Transaction state 'SENDING'
2022-07-21 11:18:09,555 pymodbus.transaction - DEBUG - Changing transaction state from 'SENDING' to 'WAITING FOR REPLY'
2022-07-21 11:18:09,584 pymodbus.transaction - DEBUG - Changing transaction state from 'WAITING FOR REPLY' to 'PROCESSING REPLY'
2022-07-21 11:18:09,584 pymodbus.transaction - DEBUG - RECV: 0x0 0x44 0x0 0x0 0x0 0x7 0x0 0x3 0x4 0x0 0x0 0x0 0x0
2022-07-21 11:18:09,585 pymodbus.framer.socket_framer - DEBUG - Processing: 0x0 0x44 0x0 0x0 0x0 0x7 0x0 0x3 0x4 0x0 0x0 0x0 0x0
2022-07-21 11:18:09,585 pymodbus.factory - DEBUG - Factory Response[ReadHoldingRegistersResponse: 3]
2022-07-21 11:18:09,585 pymodbus.transaction - DEBUG - Adding transaction 68
2022-07-21 11:18:09,585 pymodbus.transaction - DEBUG - Getting transaction 68
2022-07-21 11:18:09,585 pymodbus.transaction - DEBUG - Changing transaction state from 'PROCESSING REPLY' to 'TRANSACTION_COMPLETE'
2022-07-21 11:18:09,585 log1 - DEBUG - Reading Complete
2022-07-21 11:18:09,587 log1 - DEBUG - Posting Data to DB
2022-07-21 11:18:09,591 urllib3.connectionpool - DEBUG - Resetting dropped connection: 192.168.1.36
2022-07-21 11:18:09,614 urllib3.connectionpool - DEBUG - http://192.168.1.36:4000 "POST /data HTTP/1.1" 200 903
2022-07-21 11:18:09,616 root - DEBUG - {"timestamp":"2022-07-21T03:18:08.536Z","primary_charging_relay":1,"primary_discharge_relay":80,"primary_positive_pump":23,"primary_negative_pump":4,"system_mode":9,"system_alarm_status":0,"balancing_valve":0,"positive_valve":0,"negative_valve":0,"state_of_charge":0,"bcu_mode_status":0,"bcu_voltage":0,"bcu_current":0,"bcu_power":0,"bcu_state_of_charge":0,"bcu_hydrogen_sensor":0,"bcu_leakage_sensor":0,"smoke_sensor":0,"bcu_ocv":0,"bcu_positive_tank_temp":0,"bcu_negative_tank_temp":0,"positive_tank_high_level_float":0,"negative_tank_high_level_float":0,"positive_tank_low_level_float":0,"negative_tank_low_level_float":0,"primary_stack_voltage":0,"primary_stack_current":0,"primary_stack_positive_pressure_sensor":0,"primary_stack_negative_pressure_sensor":0,"positive_stack_pressure_delta":0,"b1_primary_stack_pressure_delta":0,"sensor_temp":0,"humidity":0,"_id":"62d8c571ad3a3eac12b5d099","__v":0}
2022-07-21 11:18:09,616 log1 - DEBUG - {'timestamp': '2022-07-21 11:18:08.536317', 'dc_main_contactor': 0, 'stk1_contactor': 0, 'primary_positive_pump': 23.0, 'primary_negative_pump': 4.0, 'system_mode': 9.0, 'system_alarm_status': 0.0, 'balancing_valve': 0.0, 'positive_valve': 0.0, 'negative_valve': 0.0, 'state_of_charge': 0.0, 'bcu_mode_status': 0.0, 'bcu_voltage': 0.0, 'bcu_current': 0.0, 'bcu_power': 0.0, 'bcu_state_of_charge': 0.0, 'bcu_hydrogen_sensor': 0.0, 'bcu_leakage_sensor': 0.0, 'smoke_sensor': 0.0, 'bcu_ocv': 0.0, 'bcu_positive_tank_temp': 0.0, 'bcu_negative_tank_temp': 0.0, 'positive_tank_high_level_float': 0.0, 'negative_tank_high_level_float': 0.0, 'positive_tank_low_level_float': 0.0, 'negative_tank_low_level_float': 0, 'primary_stack_voltage': 0.0, 'primary_stack_current': 0.0, 'primary_stack_positive_pressure_sensor': 0.0, 'primary_stack_negative_pressure_sensor': 0.0, 'positive_stack_pressure_delta': 0.0, 'b1_primary_stack_pressure_delta': 0.0, 'sensor_temp': 0.0, 'humidity': 0.0, 'bms_timestamp': 0, 'plc_alarm_status_1': 0, 'primary_charging_relay': 1.0, 'primary_discharge_relay': 80.0}
2022-07-21 11:18:14,619 root - DEBUG - Reading Registers
2022-07-21 11:18:14,619 log1 - DEBUG - Reading Registers
2022-07-21 11:18:14,620 pymodbus.transaction - DEBUG - Current transaction state - TRANSACTION_COMPLETE
2022-07-21 11:18:14,620 pymodbus.transaction - DEBUG - Running transaction 69
2022-07-21 11:18:14,621 pymodbus.transaction - DEBUG - SEND: 0x0 0x45 0x0 0x0 0x0 0x6 0x0 0x3 0x0 0x0 0x0 0x2
2022-07-21 11:18:14,621 pymodbus.client.sync - DEBUG - New Transaction state 'SENDING'
2022-07-21 11:18:14,621 pymodbus.transaction - DEBUG - Changing transaction state from 'SENDING' to 'WAITING FOR REPLY'
2022-07-21 11:18:14,635 pymodbus.transaction - DEBUG - Changing transaction state from 'WAITING FOR REPLY' to 'PROCESSING REPLY'
2022-07-21 11:18:14,635 pymodbus.transaction - DEBUG - RECV: 0x0 0x45 0x0 0x0 0x0 0x7 0x0 0x3 0x4 0x0 0x1 0x0 0x1
2022-07-21 11:18:14,635 pymodbus.framer.socket_framer - DEBUG - Processing: 0x0 0x45 0x0 0x0 0x0 0x7 0x0 0x3 0x4 0x0 0x1 0x0 0x1
2022-07-21 11:18:14,636 pymodbus.factory - DEBUG - Factory Response[ReadHoldingRegistersResponse: 3]
2022-07-21 11:18:14,636 pymodbus.transaction - DEBUG - Adding transaction 69
2022-07-21 11:18:14,636 pymodbus.transaction - DEBUG - Getting transaction 69
2022-07-21 11:18:14,636 pymodbus.transaction - DEBUG - Changing transaction state from 'PROCESSING REPLY' to 'TRANSACTION_COMPLETE'
2022-07-21 11:18:14,636 pymodbus.transaction - DEBUG - Current transaction state - TRANSACTION_COMPLETE
2022-07-21 11:18:14,636 pymodbus.transaction - DEBUG - Running transaction 70
2022-07-21 11:18:14,636 pymodbus.transaction - DEBUG - SEND: 0x0 0x46 0x0 0x0 0x0 0x6 0x0 0x3 0x0 0x2 0x0 0x2
2022-07-21 11:18:14,636 pymodbus.client.sync - DEBUG - New Transaction state 'SENDING'
2022-07-21 11:18:14,636 pymodbus.transaction - DEBUG - Changing transaction state from 'SENDING' to 'WAITING FOR REPLY'
2022-07-21 11:18:14,666 pymodbus.transaction - DEBUG - Changing transaction state from 'WAITING FOR REPLY' to 'PROCESSING REPLY'
2022-07-21 11:18:14,666 pymodbus.transaction - DEBUG - RECV: 0x0 0x46 0x0 0x0 0x0 0x7 0x0 0x3 0x4 0x0 0x0 0x0 0x50
2022-07-21 11:18:14,666 pymodbus.framer.socket_framer - DEBUG - Processing: 0x0 0x46 0x0 0x0 0x0 0x7 0x0 0x3 0x4 0x0 0x0 0x0 0x50
2022-07-21 11:18:14,666 pymodbus.factory - DEBUG - Factory Response[ReadHoldingRegistersResponse: 3]
2022-07-21 11:18:14,667 pymodbus.transaction - DEBUG - Adding transaction 70
2022-07-21 11:18:14,667 pymodbus.transaction - DEBUG - Getting transaction 70
2022-07-21 11:18:14,667 pymodbus.transaction - DEBUG - Changing transaction state from 'PROCESSING REPLY' to 'TRANSACTION_COMPLETE'
2022-07-21 11:18:14,667 pymodbus.transaction - DEBUG - Current transaction state - TRANSACTION_COMPLETE
2022-07-21 11:18:14,667 pymodbus.transaction - DEBUG - Running transaction 71
2022-07-21 11:18:14,667 pymodbus.transaction - DEBUG - SEND: 0x0 0x47 0x0 0x0 0x0 0x6 0x0 0x3 0x0 0x4 0x0 0x2
2022-07-21 11:18:14,667 pymodbus.client.sync - DEBUG - New Transaction state 'SENDING'
2022-07-21 11:18:14,667 pymodbus.transaction - DEBUG - Changing transaction state from 'SENDING' to 'WAITING FOR REPLY'
2022-07-21 11:18:14,697 pymodbus.transaction - DEBUG - Changing transaction state from 'WAITING FOR REPLY' to 'PROCESSING REPLY'
2022-07-21 11:18:14,697 pymodbus.transaction - DEBUG - RECV: 0x0 0x47 0x0 0x0 0x0 0x7 0x0 0x3 0x4 0x0 0x0 0x0 0x17
2022-07-21 11:18:14,697 pymodbus.framer.socket_framer - DEBUG - Processing: 0x0 0x47 0x0 0x0 0x0 0x7 0x0 0x3 0x4 0x0 0x0 0x0 0x17
2022-07-21 11:18:14,697 pymodbus.factory - DEBUG - Factory Response[ReadHoldingRegistersResponse: 3]
2022-07-21 11:18:14,698 pymodbus.transaction - DEBUG - Adding transaction 71
2022-07-21 11:18:14,698 pymodbus.transaction - DEBUG - Getting transaction 71
2022-07-21 11:18:14,698 pymodbus.transaction - DEBUG - Changing transaction state from 'PROCESSING REPLY' to 'TRANSACTION_COMPLETE'
2022-07-21 11:18:14,698 pymodbus.transaction - DEBUG - Current transaction state - TRANSACTION_COMPLETE
2022-07-21 11:18:14,698 pymodbus.transaction - DEBUG - Running transaction 72
2022-07-21 11:18:14,698 pymodbus.transaction - DEBUG - SEND: 0x0 0x48 0x0 0x0 0x0 0x6 0x0 0x3 0x0 0x6 0x0 0x2
2022-07-21 11:18:14,698 pymodbus.client.sync - DEBUG - New Transaction state 'SENDING'
2022-07-21 11:18:14,698 pymodbus.transaction - DEBUG - Changing transaction state from 'SENDING' to 'WAITING FOR REPLY'
2022-07-21 11:18:14,727 pymodbus.transaction - DEBUG - Changing transaction state from 'WAITING FOR REPLY' to 'PROCESSING REPLY'
2022-07-21 11:18:14,727 pymodbus.transaction - DEBUG - RECV: 0x0 0x48 0x0 0x0 0x0 0x7 0x0 0x3 0x4 0x0 0x0 0x0 0x4
2022-07-21 11:18:14,729 pymodbus.framer.socket_framer - DEBUG - Processing: 0x0 0x48 0x0 0x0 0x0 0x7 0x0 0x3 0x4 0x0 0x0 0x0 0x4
2022-07-21 11:18:14,729 pymodbus.factory - DEBUG - Factory Response[ReadHoldingRegistersResponse: 3]
2022-07-21 11:18:14,729 pymodbus.transaction - DEBUG - Adding transaction 72
2022-07-21 11:18:14,729 pymodbus.transaction - DEBUG - Getting transaction 72
2022-07-21 11:18:14,729 pymodbus.transaction - DEBUG - Changing transaction state from 'PROCESSING REPLY' to 'TRANSACTION_COMPLETE'
2022-07-21 11:18:14,729 pymodbus.transaction - DEBUG - Current transaction state - TRANSACTION_COMPLETE
2022-07-21 11:18:14,729 pymodbus.transaction - DEBUG - Running transaction 73
2022-07-21 11:18:14,729 pymodbus.transaction - DEBUG - SEND: 0x0 0x49 0x0 0x0 0x0 0x6 0x0 0x3 0x0 0x8 0x0 0x2
2022-07-21 11:18:14,729 pymodbus.client.sync - DEBUG - New Transaction state 'SENDING'
2022-07-21 11:18:14,729 pymodbus.transaction - DEBUG - Changing transaction state from 'SENDING' to 'WAITING FOR REPLY'
2022-07-21 11:18:14,759 pymodbus.transaction - DEBUG - Changing transaction state from 'WAITING FOR REPLY' to 'PROCESSING REPLY'
2022-07-21 11:18:14,759 pymodbus.transaction - DEBUG - RECV: 0x0 0x49 0x0 0x0 0x0 0x7 0x0 0x3 0x4 0x0 0x0 0x0 0x9
2022-07-21 11:18:14,759 pymodbus.framer.socket_framer - DEBUG - Processing: 0x0 0x49 0x0 0x0 0x0 0x7 0x0 0x3 0x4 0x0 0x0 0x0 0x9
2022-07-21 11:18:14,759 pymodbus.factory - DEBUG - Factory Response[ReadHoldingRegistersResponse: 3]
2022-07-21 11:18:14,760 pymodbus.transaction - DEBUG - Adding transaction 73
2022-07-21 11:18:14,760 pymodbus.transaction - DEBUG - Getting transaction 73
2022-07-21 11:18:14,760 pymodbus.transaction - DEBUG - Changing transaction state from 'PROCESSING REPLY' to 'TRANSACTION_COMPLETE'
2022-07-21 11:18:14,760 pymodbus.transaction - DEBUG - Current transaction state - TRANSACTION_COMPLETE
2022-07-21 11:18:14,760 pymodbus.transaction - DEBUG - Running transaction 74
2022-07-21 11:18:14,760 pymodbus.transaction - DEBUG - SEND: 0x0 0x4a 0x0 0x0 0x0 0x6 0x0 0x3 0x0 0xa 0x0 0x2
2022-07-21 11:18:14,761 pymodbus.client.sync - DEBUG - New Transaction state 'SENDING'
2022-07-21 11:18:14,761 pymodbus.transaction - DEBUG - Changing transaction state from 'SENDING' to 'WAITING FOR REPLY'
2022-07-21 11:18:14,789 pymodbus.transaction - DEBUG - Changing transaction state from 'WAITING FOR REPLY' to 'PROCESSING REPLY'
2022-07-21 11:18:14,789 pymodbus.transaction - DEBUG - RECV: 0x0 0x4a 0x0 0x0 0x0 0x7 0x0 0x3 0x4 0x0 0x0 0x0 0x0
2022-07-21 11:18:14,789 pymodbus.framer.socket_framer - DEBUG - Processing: 0x0 0x4a 0x0 0x0 0x0 0x7 0x0 0x3 0x4 0x0 0x0 0x0 0x0
2022-07-21 11:18:14,789 pymodbus.factory - DEBUG - Factory Response[ReadHoldingRegistersResponse: 3]
2022-07-21 11:18:14,789 pymodbus.transaction - DEBUG - Adding transaction 74
2022-07-21 11:18:14,789 pymodbus.transaction - DEBUG - Getting transaction 74
2022-07-21 11:18:14,790 pymodbus.transaction - DEBUG - Changing transaction state from 'PROCESSING REPLY' to 'TRANSACTION_COMPLETE'
2022-07-21 11:18:14,790 pymodbus.transaction - DEBUG - Current transaction state - TRANSACTION_COMPLETE
2022-07-21 11:18:14,790 pymodbus.transaction - DEBUG - Running transaction 75
2022-07-21 11:18:14,790 pymodbus.transaction - DEBUG - SEND: 0x0 0x4b 0x0 0x0 0x0 0x6 0x0 0x3 0x0 0xc 0x0 0x2
2022-07-21 11:18:14,790 pymodbus.client.sync - DEBUG - New Transaction state 'SENDING'
2022-07-21 11:18:14,790 pymodbus.transaction - DEBUG - Changing transaction state from 'SENDING' to 'WAITING FOR REPLY'
2022-07-21 11:18:14,820 pymodbus.transaction - DEBUG - Changing transaction state from 'WAITING FOR REPLY' to 'PROCESSING REPLY'
2022-07-21 11:18:14,820 pymodbus.transaction - DEBUG - RECV: 0x0 0x4b 0x0 0x0 0x0 0x7 0x0 0x3 0x4 0x0 0x0 0x0 0x0
2022-07-21 11:18:14,820 pymodbus.framer.socket_framer - DEBUG - Processing: 0x0 0x4b 0x0 0x0 0x0 0x7 0x0 0x3 0x4 0x0 0x0 0x0 0x0
2022-07-21 11:18:14,821 pymodbus.factory - DEBUG - Factory Response[ReadHoldingRegistersResponse: 3]
2022-07-21 11:18:14,821 pymodbus.transaction - DEBUG - Adding transaction 75
2022-07-21 11:18:14,821 pymodbus.transaction - DEBUG - Getting transaction 75
2022-07-21 11:18:14,821 pymodbus.transaction - DEBUG - Changing transaction state from 'PROCESSING REPLY' to 'TRANSACTION_COMPLETE'
2022-07-21 11:18:14,821 pymodbus.transaction - DEBUG - Current transaction state - TRANSACTION_COMPLETE
2022-07-21 11:18:14,821 pymodbus.transaction - DEBUG - Running transaction 76
