2022-07-21 11:31:04,085 log1 - DEBUG - Connecting to Modbus...
2022-07-21 11:31:04,086 pymodbus.client.sync - DEBUG - Connection to Modbus server established. Socket ('192.168.1.36', 65045)
2022-07-21 11:31:04,086 root - DEBUG - True
2022-07-21 11:31:04,086 log1 - DEBUG - Modbus Connection Status: True
2022-07-21 11:31:04,087 root - DEBUG - Reading Registers
2022-07-21 11:31:04,087 log1 - DEBUG - Reading Registers
2022-07-21 11:31:04,088 pymodbus.transaction - DEBUG - Current transaction state - IDLE
2022-07-21 11:31:04,088 pymodbus.transaction - DEBUG - Running transaction 1
2022-07-21 11:31:04,088 pymodbus.transaction - DEBUG - SEND: 0x0 0x1 0x0 0x0 0x0 0x6 0x2 0x3 0x0 0x0 0x0 0x2
2022-07-21 11:31:04,088 pymodbus.client.sync - DEBUG - New Transaction state 'SENDING'
2022-07-21 11:31:04,088 pymodbus.transaction - DEBUG - Changing transaction state from 'SENDING' to 'WAITING FOR REPLY'
2022-07-21 11:31:04,128 pymodbus.transaction - DEBUG - Changing transaction state from 'WAITING FOR REPLY' to 'PROCESSING REPLY'
2022-07-21 11:31:04,128 pymodbus.transaction - DEBUG - RECV: 0x0 0x1 0x0 0x0 0x0 0x7 0x2 0x3 0x4 0x0 0x1 0x0 0x1
2022-07-21 11:31:04,128 pymodbus.framer.socket_framer - DEBUG - Processing: 0x0 0x1 0x0 0x0 0x0 0x7 0x2 0x3 0x4 0x0 0x1 0x0 0x1
2022-07-21 11:31:04,128 pymodbus.factory - DEBUG - Factory Response[ReadHoldingRegistersResponse: 3]
2022-07-21 11:31:04,128 pymodbus.transaction - DEBUG - Adding transaction 1
2022-07-21 11:31:04,128 pymodbus.transaction - DEBUG - Getting transaction 1
2022-07-21 11:31:04,128 pymodbus.transaction - DEBUG - Changing transaction state from 'PROCESSING REPLY' to 'TRANSACTION_COMPLETE'
2022-07-21 11:31:04,129 pymodbus.transaction - DEBUG - Current transaction state - TRANSACTION_COMPLETE
2022-07-21 11:31:04,129 pymodbus.transaction - DEBUG - Running transaction 2
2022-07-21 11:31:04,129 pymodbus.transaction - DEBUG - SEND: 0x0 0x2 0x0 0x0 0x0 0x6 0x2 0x3 0x0 0x2 0x0 0x2
2022-07-21 11:31:04,129 pymodbus.client.sync - DEBUG - New Transaction state 'SENDING'
2022-07-21 11:31:04,129 pymodbus.transaction - DEBUG - Changing transaction state from 'SENDING' to 'WAITING FOR REPLY'
2022-07-21 11:31:04,158 pymodbus.transaction - DEBUG - Changing transaction state from 'WAITING FOR REPLY' to 'PROCESSING REPLY'
2022-07-21 11:31:04,158 pymodbus.transaction - DEBUG - RECV: 0x0 0x2 0x0 0x0 0x0 0x7 0x2 0x3 0x4 0x0 0x0 0x0 0x50
2022-07-21 11:31:04,158 pymodbus.framer.socket_framer - DEBUG - Processing: 0x0 0x2 0x0 0x0 0x0 0x7 0x2 0x3 0x4 0x0 0x0 0x0 0x50
2022-07-21 11:31:04,158 pymodbus.factory - DEBUG - Factory Response[ReadHoldingRegistersResponse: 3]
2022-07-21 11:31:04,158 pymodbus.transaction - DEBUG - Adding transaction 2
2022-07-21 11:31:04,158 pymodbus.transaction - DEBUG - Getting transaction 2
2022-07-21 11:31:04,158 pymodbus.transaction - DEBUG - Changing transaction state from 'PROCESSING REPLY' to 'TRANSACTION_COMPLETE'
2022-07-21 11:31:04,158 pymodbus.transaction - DEBUG - Current transaction state - TRANSACTION_COMPLETE
2022-07-21 11:31:04,158 pymodbus.transaction - DEBUG - Running transaction 3
2022-07-21 11:31:04,159 pymodbus.transaction - DEBUG - SEND: 0x0 0x3 0x0 0x0 0x0 0x6 0x2 0x3 0x0 0x4 0x0 0x2
2022-07-21 11:31:04,159 pymodbus.client.sync - DEBUG - New Transaction state 'SENDING'
2022-07-21 11:31:04,159 pymodbus.transaction - DEBUG - Changing transaction state from 'SENDING' to 'WAITING FOR REPLY'
2022-07-21 11:31:04,189 pymodbus.transaction - DEBUG - Changing transaction state from 'WAITING FOR REPLY' to 'PROCESSING REPLY'
2022-07-21 11:31:04,189 pymodbus.transaction - DEBUG - RECV: 0x0 0x3 0x0 0x0 0x0 0x7 0x2 0x3 0x4 0x0 0x0 0x0 0x17
2022-07-21 11:31:04,189 pymodbus.framer.socket_framer - DEBUG - Processing: 0x0 0x3 0x0 0x0 0x0 0x7 0x2 0x3 0x4 0x0 0x0 0x0 0x17
2022-07-21 11:31:04,189 pymodbus.factory - DEBUG - Factory Response[ReadHoldingRegistersResponse: 3]
2022-07-21 11:31:04,189 pymodbus.transaction - DEBUG - Adding transaction 3
2022-07-21 11:31:04,189 pymodbus.transaction - DEBUG - Getting transaction 3
2022-07-21 11:31:04,189 pymodbus.transaction - DEBUG - Changing transaction state from 'PROCESSING REPLY' to 'TRANSACTION_COMPLETE'
2022-07-21 11:31:04,189 pymodbus.transaction - DEBUG - Current transaction state - TRANSACTION_COMPLETE
2022-07-21 11:31:04,189 pymodbus.transaction - DEBUG - Running transaction 4
2022-07-21 11:31:04,189 pymodbus.transaction - DEBUG - SEND: 0x0 0x4 0x0 0x0 0x0 0x6 0x2 0x3 0x0 0x6 0x0 0x2
2022-07-21 11:31:04,189 pymodbus.client.sync - DEBUG - New Transaction state 'SENDING'
2022-07-21 11:31:04,189 pymodbus.transaction - DEBUG - Changing transaction state from 'SENDING' to 'WAITING FOR REPLY'
2022-07-21 11:31:04,220 pymodbus.transaction - DEBUG - Changing transaction state from 'WAITING FOR REPLY' to 'PROCESSING REPLY'
2022-07-21 11:31:04,220 pymodbus.transaction - DEBUG - RECV: 0x0 0x4 0x0 0x0 0x0 0x7 0x2 0x3 0x4 0x0 0x0 0x0 0x4
2022-07-21 11:31:04,220 pymodbus.framer.socket_framer - DEBUG - Processing: 0x0 0x4 0x0 0x0 0x0 0x7 0x2 0x3 0x4 0x0 0x0 0x0 0x4
2022-07-21 11:31:04,220 pymodbus.factory - DEBUG - Factory Response[ReadHoldingRegistersResponse: 3]
2022-07-21 11:31:04,220 pymodbus.transaction - DEBUG - Adding transaction 4
2022-07-21 11:31:04,221 pymodbus.transaction - DEBUG - Getting transaction 4
2022-07-21 11:31:04,221 pymodbus.transaction - DEBUG - Changing transaction state from 'PROCESSING REPLY' to 'TRANSACTION_COMPLETE'
2022-07-21 11:31:04,221 pymodbus.transaction - DEBUG - Current transaction state - TRANSACTION_COMPLETE
2022-07-21 11:31:04,221 pymodbus.transaction - DEBUG - Running transaction 5
2022-07-21 11:31:04,221 pymodbus.transaction - DEBUG - SEND: 0x0 0x5 0x0 0x0 0x0 0x6 0x2 0x3 0x0 0xc 0x0 0x2
2022-07-21 11:31:04,221 pymodbus.client.sync - DEBUG - New Transaction state 'SENDING'
2022-07-21 11:31:04,222 pymodbus.transaction - DEBUG - Changing transaction state from 'SENDING' to 'WAITING FOR REPLY'
2022-07-21 11:31:04,251 pymodbus.transaction - DEBUG - Changing transaction state from 'WAITING FOR REPLY' to 'PROCESSING REPLY'
2022-07-21 11:31:04,251 pymodbus.transaction - DEBUG - RECV: 0x0 0x5 0x0 0x0 0x0 0x7 0x2 0x3 0x4 0x0 0x0 0x0 0x0
2022-07-21 11:31:04,251 pymodbus.framer.socket_framer - DEBUG - Processing: 0x0 0x5 0x0 0x0 0x0 0x7 0x2 0x3 0x4 0x0 0x0 0x0 0x0
2022-07-21 11:31:04,251 pymodbus.factory - DEBUG - Factory Response[ReadHoldingRegistersResponse: 3]
2022-07-21 11:31:04,251 pymodbus.transaction - DEBUG - Adding transaction 5
2022-07-21 11:31:04,252 pymodbus.transaction - DEBUG - Getting transaction 5
2022-07-21 11:31:04,252 pymodbus.transaction - DEBUG - Changing transaction state from 'PROCESSING REPLY' to 'TRANSACTION_COMPLETE'
2022-07-21 11:31:04,252 pymodbus.transaction - DEBUG - Current transaction state - TRANSACTION_COMPLETE
2022-07-21 11:31:04,252 pymodbus.transaction - DEBUG - Running transaction 6
2022-07-21 11:31:04,252 pymodbus.transaction - DEBUG - SEND: 0x0 0x6 0x0 0x0 0x0 0x6 0x2 0x3 0x0 0xe 0x0 0x2
2022-07-21 11:31:04,252 pymodbus.client.sync - DEBUG - New Transaction state 'SENDING'
2022-07-21 11:31:04,252 pymodbus.transaction - DEBUG - Changing transaction state from 'SENDING' to 'WAITING FOR REPLY'
2022-07-21 11:31:04,281 pymodbus.transaction - DEBUG - Changing transaction state from 'WAITING FOR REPLY' to 'PROCESSING REPLY'
2022-07-21 11:31:04,281 pymodbus.transaction - DEBUG - RECV: 0x0 0x6 0x0 0x0 0x0 0x7 0x2 0x3 0x4 0x0 0x0 0x0 0x0
2022-07-21 11:31:04,282 pymodbus.framer.socket_framer - DEBUG - Processing: 0x0 0x6 0x0 0x0 0x0 0x7 0x2 0x3 0x4 0x0 0x0 0x0 0x0
2022-07-21 11:31:04,282 pymodbus.factory - DEBUG - Factory Response[ReadHoldingRegistersResponse: 3]
2022-07-21 11:31:04,282 pymodbus.transaction - DEBUG - Adding transaction 6
2022-07-21 11:31:04,282 pymodbus.transaction - DEBUG - Getting transaction 6
2022-07-21 11:31:04,282 pymodbus.transaction - DEBUG - Changing transaction state from 'PROCESSING REPLY' to 'TRANSACTION_COMPLETE'
2022-07-21 11:31:04,282 pymodbus.transaction - DEBUG - Current transaction state - TRANSACTION_COMPLETE
2022-07-21 11:31:04,282 pymodbus.transaction - DEBUG - Running transaction 7
2022-07-21 11:31:04,282 pymodbus.transaction - DEBUG - SEND: 0x0 0x7 0x0 0x0 0x0 0x6 0x2 0x3 0x0 0x10 0x0 0x2
2022-07-21 11:31:04,282 pymodbus.client.sync - DEBUG - New Transaction state 'SENDING'
2022-07-21 11:31:04,282 pymodbus.transaction - DEBUG - Changing transaction state from 'SENDING' to 'WAITING FOR REPLY'
2022-07-21 11:31:04,313 pymodbus.transaction - DEBUG - Changing transaction state from 'WAITING FOR REPLY' to 'PROCESSING REPLY'
2022-07-21 11:31:04,313 pymodbus.transaction - DEBUG - RECV: 0x0 0x7 0x0 0x0 0x0 0x7 0x2 0x3 0x4 0x0 0x0 0x0 0x0
2022-07-21 11:31:04,313 pymodbus.framer.socket_framer - DEBUG - Processing: 0x0 0x7 0x0 0x0 0x0 0x7 0x2 0x3 0x4 0x0 0x0 0x0 0x0
2022-07-21 11:31:04,314 pymodbus.factory - DEBUG - Factory Response[ReadHoldingRegistersResponse: 3]
2022-07-21 11:31:04,314 pymodbus.transaction - DEBUG - Adding transaction 7
2022-07-21 11:31:04,314 pymodbus.transaction - DEBUG - Getting transaction 7
2022-07-21 11:31:04,314 pymodbus.transaction - DEBUG - Changing transaction state from 'PROCESSING REPLY' to 'TRANSACTION_COMPLETE'
2022-07-21 11:31:04,314 pymodbus.transaction - DEBUG - Current transaction state - TRANSACTION_COMPLETE
2022-07-21 11:31:04,314 pymodbus.transaction - DEBUG - Running transaction 8
2022-07-21 11:31:04,314 pymodbus.transaction - DEBUG - SEND: 0x0 0x8 0x0 0x0 0x0 0x6 0x2 0x3 0x0 0x12 0x0 0x2
2022-07-21 11:31:04,314 pymodbus.client.sync - DEBUG - New Transaction state 'SENDING'
2022-07-21 11:31:04,314 pymodbus.transaction - DEBUG - Changing transaction state from 'SENDING' to 'WAITING FOR REPLY'
2022-07-21 11:31:04,344 pymodbus.transaction - DEBUG - Changing transaction state from 'WAITING FOR REPLY' to 'PROCESSING REPLY'
2022-07-21 11:31:04,344 pymodbus.transaction - DEBUG - RECV: 0x0 0x8 0x0 0x0 0x0 0x7 0x2 0x3 0x4 0x0 0x0 0x0 0x0
2022-07-21 11:31:04,344 pymodbus.framer.socket_framer - DEBUG - Processing: 0x0 0x8 0x0 0x0 0x0 0x7 0x2 0x3 0x4 0x0 0x0 0x0 0x0
2022-07-21 11:31:04,345 pymodbus.factory - DEBUG - Factory Response[ReadHoldingRegistersResponse: 3]
2022-07-21 11:31:04,345 pymodbus.transaction - DEBUG - Adding transaction 8
2022-07-21 11:31:04,345 pymodbus.transaction - DEBUG - Getting transaction 8
2022-07-21 11:31:04,345 pymodbus.transaction - DEBUG - Changing transaction state from 'PROCESSING REPLY' to 'TRANSACTION_COMPLETE'
2022-07-21 11:31:04,345 pymodbus.transaction - DEBUG - Current transaction state - TRANSACTION_COMPLETE
2022-07-21 11:31:04,345 pymodbus.transaction - DEBUG - Running transaction 9
2022-07-21 11:31:04,345 pymodbus.transaction - DEBUG - SEND: 0x0 0x9 0x0 0x0 0x0 0x6 0x2 0x3 0x0 0x14 0x0 0x2
2022-07-21 11:31:04,345 pymodbus.client.sync - DEBUG - New Transaction state 'SENDING'
2022-07-21 11:31:04,345 pymodbus.transaction - DEBUG - Changing transaction state from 'SENDING' to 'WAITING FOR REPLY'
2022-07-21 11:31:04,375 pymodbus.transaction - DEBUG - Changing transaction state from 'WAITING FOR REPLY' to 'PROCESSING REPLY'
2022-07-21 11:31:04,375 pymodbus.transaction - DEBUG - RECV: 0x0 0x9 0x0 0x0 0x0 0x7 0x2 0x3 0x4 0x0 0x0 0x0 0x0
2022-07-21 11:31:04,376 pymodbus.framer.socket_framer - DEBUG - Processing: 0x0 0x9 0x0 0x0 0x0 0x7 0x2 0x3 0x4 0x0 0x0 0x0 0x0
2022-07-21 11:31:04,376 pymodbus.factory - DEBUG - Factory Response[ReadHoldingRegistersResponse: 3]
2022-07-21 11:31:04,376 pymodbus.transaction - DEBUG - Adding transaction 9
2022-07-21 11:31:04,376 pymodbus.transaction - DEBUG - Getting transaction 9
2022-07-21 11:31:04,376 pymodbus.transaction - DEBUG - Changing transaction state from 'PROCESSING REPLY' to 'TRANSACTION_COMPLETE'
2022-07-21 11:31:04,376 pymodbus.transaction - DEBUG - Current transaction state - TRANSACTION_COMPLETE
2022-07-21 11:31:04,376 pymodbus.transaction - DEBUG - Running transaction 10
2022-07-21 11:31:04,376 pymodbus.transaction - DEBUG - SEND: 0x0 0xa 0x0 0x0 0x0 0x6 0x2 0x3 0x0 0x16 0x0 0x2
2022-07-21 11:31:04,377 pymodbus.client.sync - DEBUG - New Transaction state 'SENDING'
2022-07-21 11:31:04,377 pymodbus.transaction - DEBUG - Changing transaction state from 'SENDING' to 'WAITING FOR REPLY'
2022-07-21 11:31:04,406 pymodbus.transaction - DEBUG - Changing transaction state from 'WAITING FOR REPLY' to 'PROCESSING REPLY'
2022-07-21 11:31:04,407 pymodbus.transaction - DEBUG - RECV: 0x0 0xa 0x0 0x0 0x0 0x7 0x2 0x3 0x4 0x0 0x0 0x0 0x0
2022-07-21 11:31:04,407 pymodbus.framer.socket_framer - DEBUG - Processing: 0x0 0xa 0x0 0x0 0x0 0x7 0x2 0x3 0x4 0x0 0x0 0x0 0x0
2022-07-21 11:31:04,407 pymodbus.factory - DEBUG - Factory Response[ReadHoldingRegistersResponse: 3]
2022-07-21 11:31:04,407 pymodbus.transaction - DEBUG - Adding transaction 10
2022-07-21 11:31:04,407 pymodbus.transaction - DEBUG - Getting transaction 10
2022-07-21 11:31:04,407 pymodbus.transaction - DEBUG - Changing transaction state from 'PROCESSING REPLY' to 'TRANSACTION_COMPLETE'
2022-07-21 11:31:04,407 pymodbus.transaction - DEBUG - Current transaction state - TRANSACTION_COMPLETE
2022-07-21 11:31:04,408 pymodbus.transaction - DEBUG - Running transaction 11
2022-07-21 11:31:04,408 pymodbus.transaction - DEBUG - SEND: 0x0 0xb 0x0 0x0 0x0 0x6 0x2 0x3 0x0 0x18 0x0 0x2
2022-07-21 11:31:04,408 pymodbus.client.sync - DEBUG - New Transaction state 'SENDING'
2022-07-21 11:31:04,408 pymodbus.transaction - DEBUG - Changing transaction state from 'SENDING' to 'WAITING FOR REPLY'
2022-07-21 11:31:04,437 pymodbus.transaction - DEBUG - Changing transaction state from 'WAITING FOR REPLY' to 'PROCESSING REPLY'
2022-07-21 11:31:04,437 pymodbus.transaction - DEBUG - RECV: 0x0 0xb 0x0 0x0 0x0 0x7 0x2 0x3 0x4 0x0 0x0 0x0 0x0
2022-07-21 11:31:04,439 pymodbus.framer.socket_framer - DEBUG - Processing: 0x0 0xb 0x0 0x0 0x0 0x7 0x2 0x3 0x4 0x0 0x0 0x0 0x0
2022-07-21 11:31:04,439 pymodbus.factory - DEBUG - Factory Response[ReadHoldingRegistersResponse: 3]
2022-07-21 11:31:04,439 pymodbus.transaction - DEBUG - Adding transaction 11
2022-07-21 11:31:04,439 pymodbus.transaction - DEBUG - Getting transaction 11
2022-07-21 11:31:04,439 pymodbus.transaction - DEBUG - Changing transaction state from 'PROCESSING REPLY' to 'TRANSACTION_COMPLETE'
2022-07-21 11:31:04,439 pymodbus.transaction - DEBUG - Current transaction state - TRANSACTION_COMPLETE
2022-07-21 11:31:04,439 pymodbus.transaction - DEBUG - Running transaction 12
2022-07-21 11:31:04,439 pymodbus.transaction - DEBUG - SEND: 0x0 0xc 0x0 0x0 0x0 0x6 0x2 0x3 0x0 0x1a 0x0 0x2
2022-07-21 11:31:04,439 pymodbus.client.sync - DEBUG - New Transaction state 'SENDING'
2022-07-21 11:31:04,440 pymodbus.transaction - DEBUG - Changing transaction state from 'SENDING' to 'WAITING FOR REPLY'
2022-07-21 11:31:04,468 pymodbus.transaction - DEBUG - Changing transaction state from 'WAITING FOR REPLY' to 'PROCESSING REPLY'
2022-07-21 11:31:04,469 pymodbus.transaction - DEBUG - RECV: 0x0 0xc 0x0 0x0 0x0 0x7 0x2 0x3 0x4 0x0 0x0 0x0 0x0
2022-07-21 11:31:04,469 pymodbus.framer.socket_framer - DEBUG - Processing: 0x0 0xc 0x0 0x0 0x0 0x7 0x2 0x3 0x4 0x0 0x0 0x0 0x0
2022-07-21 11:31:04,469 pymodbus.factory - DEBUG - Factory Response[ReadHoldingRegistersResponse: 3]
2022-07-21 11:31:04,469 pymodbus.transaction - DEBUG - Adding transaction 12
2022-07-21 11:31:04,469 pymodbus.transaction - DEBUG - Getting transaction 12
2022-07-21 11:31:04,470 pymodbus.transaction - DEBUG - Changing transaction state from 'PROCESSING REPLY' to 'TRANSACTION_COMPLETE'
2022-07-21 11:31:04,470 pymodbus.transaction - DEBUG - Current transaction state - TRANSACTION_COMPLETE
2022-07-21 11:31:04,470 pymodbus.transaction - DEBUG - Running transaction 13
2022-07-21 11:31:04,470 pymodbus.transaction - DEBUG - SEND: 0x0 0xd 0x0 0x0 0x0 0x6 0x2 0x3 0x0 0x1c 0x0 0x2
2022-07-21 11:31:04,470 pymodbus.client.sync - DEBUG - New Transaction state 'SENDING'
2022-07-21 11:31:04,470 pymodbus.transaction - DEBUG - Changing transaction state from 'SENDING' to 'WAITING FOR REPLY'
2022-07-21 11:31:04,499 pymodbus.transaction - DEBUG - Changing transaction state from 'WAITING FOR REPLY' to 'PROCESSING REPLY'
2022-07-21 11:31:04,499 pymodbus.transaction - DEBUG - RECV: 0x0 0xd 0x0 0x0 0x0 0x7 0x2 0x3 0x4 0x0 0x0 0x0 0x0
2022-07-21 11:31:04,499 pymodbus.framer.socket_framer - DEBUG - Processing: 0x0 0xd 0x0 0x0 0x0 0x7 0x2 0x3 0x4 0x0 0x0 0x0 0x0
2022-07-21 11:31:04,499 pymodbus.factory - DEBUG - Factory Response[ReadHoldingRegistersResponse: 3]
2022-07-21 11:31:04,499 pymodbus.transaction - DEBUG - Adding transaction 13
2022-07-21 11:31:04,499 pymodbus.transaction - DEBUG - Getting transaction 13
2022-07-21 11:31:04,500 pymodbus.transaction - DEBUG - Changing transaction state from 'PROCESSING REPLY' to 'TRANSACTION_COMPLETE'
2022-07-21 11:31:04,500 pymodbus.transaction - DEBUG - Current transaction state - TRANSACTION_COMPLETE
2022-07-21 11:31:04,500 pymodbus.transaction - DEBUG - Running transaction 14
2022-07-21 11:31:04,500 pymodbus.transaction - DEBUG - SEND: 0x0 0xe 0x0 0x0 0x0 0x6 0x2 0x3 0x0 0x1e 0x0 0x2
2022-07-21 11:31:04,500 pymodbus.client.sync - DEBUG - New Transaction state 'SENDING'
2022-07-21 11:31:04,500 pymodbus.transaction - DEBUG - Changing transaction state from 'SENDING' to 'WAITING FOR REPLY'
2022-07-21 11:31:04,530 pymodbus.transaction - DEBUG - Changing transaction state from 'WAITING FOR REPLY' to 'PROCESSING REPLY'
2022-07-21 11:31:04,530 pymodbus.transaction - DEBUG - RECV: 0x0 0xe 0x0 0x0 0x0 0x7 0x2 0x3 0x4 0x0 0x0 0x0 0x0
2022-07-21 11:31:04,530 pymodbus.framer.socket_framer - DEBUG - Processing: 0x0 0xe 0x0 0x0 0x0 0x7 0x2 0x3 0x4 0x0 0x0 0x0 0x0
2022-07-21 11:31:04,530 pymodbus.factory - DEBUG - Factory Response[ReadHoldingRegistersResponse: 3]
2022-07-21 11:31:04,530 pymodbus.transaction - DEBUG - Adding transaction 14
2022-07-21 11:31:04,530 pymodbus.transaction - DEBUG - Getting transaction 14
2022-07-21 11:31:04,530 pymodbus.transaction - DEBUG - Changing transaction state from 'PROCESSING REPLY' to 'TRANSACTION_COMPLETE'
2022-07-21 11:31:04,530 pymodbus.transaction - DEBUG - Current transaction state - TRANSACTION_COMPLETE
2022-07-21 11:31:04,530 pymodbus.transaction - DEBUG - Running transaction 15
2022-07-21 11:31:04,530 pymodbus.transaction - DEBUG - SEND: 0x0 0xf 0x0 0x0 0x0 0x6 0x2 0x3 0x0 0x20 0x0 0x2
2022-07-21 11:31:04,530 pymodbus.client.sync - DEBUG - New Transaction state 'SENDING'
2022-07-21 11:31:04,530 pymodbus.transaction - DEBUG - Changing transaction state from 'SENDING' to 'WAITING FOR REPLY'
2022-07-21 11:31:04,562 pymodbus.transaction - DEBUG - Changing transaction state from 'WAITING FOR REPLY' to 'PROCESSING REPLY'
2022-07-21 11:31:04,562 pymodbus.transaction - DEBUG - RECV: 0x0 0xf 0x0 0x0 0x0 0x7 0x2 0x3 0x4 0x0 0x0 0x0 0x0
2022-07-21 11:31:04,562 pymodbus.framer.socket_framer - DEBUG - Processing: 0x0 0xf 0x0 0x0 0x0 0x7 0x2 0x3 0x4 0x0 0x0 0x0 0x0
2022-07-21 11:31:04,562 pymodbus.factory - DEBUG - Factory Response[ReadHoldingRegistersResponse: 3]
2022-07-21 11:31:04,562 pymodbus.transaction - DEBUG - Adding transaction 15
2022-07-21 11:31:04,562 pymodbus.transaction - DEBUG - Getting transaction 15
2022-07-21 11:31:04,562 pymodbus.transaction - DEBUG - Changing transaction state from 'PROCESSING REPLY' to 'TRANSACTION_COMPLETE'
2022-07-21 11:31:04,562 pymodbus.transaction - DEBUG - Current transaction state - TRANSACTION_COMPLETE
2022-07-21 11:31:04,562 pymodbus.transaction - DEBUG - Running transaction 16
2022-07-21 11:31:04,562 pymodbus.transaction - DEBUG - SEND: 0x0 0x10 0x0 0x0 0x0 0x6 0x2 0x3 0x0 0x22 0x0 0x2
2022-07-21 11:31:04,562 pymodbus.client.sync - DEBUG - New Transaction state 'SENDING'
2022-07-21 11:31:04,562 pymodbus.transaction - DEBUG - Changing transaction state from 'SENDING' to 'WAITING FOR REPLY'
2022-07-21 11:31:04,592 pymodbus.transaction - DEBUG - Changing transaction state from 'WAITING FOR REPLY' to 'PROCESSING REPLY'
2022-07-21 11:31:04,592 pymodbus.transaction - DEBUG - RECV: 0x0 0x10 0x0 0x0 0x0 0x7 0x2 0x3 0x4 0x0 0x0 0x0 0x0
2022-07-21 11:31:04,593 pymodbus.framer.socket_framer - DEBUG - Processing: 0x0 0x10 0x0 0x0 0x0 0x7 0x2 0x3 0x4 0x0 0x0 0x0 0x0
2022-07-21 11:31:04,593 pymodbus.factory - DEBUG - Factory Response[ReadHoldingRegistersResponse: 3]
2022-07-21 11:31:04,593 pymodbus.transaction - DEBUG - Adding transaction 16
2022-07-21 11:31:04,593 pymodbus.transaction - DEBUG - Getting transaction 16
2022-07-21 11:31:04,593 pymodbus.transaction - DEBUG - Changing transaction state from 'PROCESSING REPLY' to 'TRANSACTION_COMPLETE'
2022-07-21 11:31:04,593 pymodbus.transaction - DEBUG - Current transaction state - TRANSACTION_COMPLETE
2022-07-21 11:31:04,593 pymodbus.transaction - DEBUG - Running transaction 17
2022-07-21 11:31:04,594 pymodbus.transaction - DEBUG - SEND: 0x0 0x11 0x0 0x0 0x0 0x6 0x2 0x3 0x0 0x24 0x0 0x2
2022-07-21 11:31:04,594 pymodbus.client.sync - DEBUG - New Transaction state 'SENDING'
2022-07-21 11:31:04,594 pymodbus.transaction - DEBUG - Changing transaction state from 'SENDING' to 'WAITING FOR REPLY'
2022-07-21 11:31:04,624 pymodbus.transaction - DEBUG - Changing transaction state from 'WAITING FOR REPLY' to 'PROCESSING REPLY'
2022-07-21 11:31:04,624 pymodbus.transaction - DEBUG - RECV: 0x0 0x11 0x0 0x0 0x0 0x7 0x2 0x3 0x4 0x0 0x0 0x0 0x0
2022-07-21 11:31:04,624 pymodbus.framer.socket_framer - DEBUG - Processing: 0x0 0x11 0x0 0x0 0x0 0x7 0x2 0x3 0x4 0x0 0x0 0x0 0x0
2022-07-21 11:31:04,625 pymodbus.factory - DEBUG - Factory Response[ReadHoldingRegistersResponse: 3]
2022-07-21 11:31:04,625 pymodbus.transaction - DEBUG - Adding transaction 17
2022-07-21 11:31:04,625 pymodbus.transaction - DEBUG - Getting transaction 17
2022-07-21 11:31:04,625 pymodbus.transaction - DEBUG - Changing transaction state from 'PROCESSING REPLY' to 'TRANSACTION_COMPLETE'
2022-07-21 11:31:04,625 pymodbus.transaction - DEBUG - Current transaction state - TRANSACTION_COMPLETE
2022-07-21 11:31:04,625 pymodbus.transaction - DEBUG - Running transaction 18
2022-07-21 11:31:04,625 pymodbus.transaction - DEBUG - SEND: 0x0 0x12 0x0 0x0 0x0 0x6 0x2 0x3 0x0 0x26 0x0 0x2
2022-07-21 11:31:04,625 pymodbus.client.sync - DEBUG - New Transaction state 'SENDING'
2022-07-21 11:31:04,626 pymodbus.transaction - DEBUG - Changing transaction state from 'SENDING' to 'WAITING FOR REPLY'
2022-07-21 11:31:04,655 pymodbus.transaction - DEBUG - Changing transaction state from 'WAITING FOR REPLY' to 'PROCESSING REPLY'
2022-07-21 11:31:04,655 pymodbus.transaction - DEBUG - RECV: 0x0 0x12 0x0 0x0 0x0 0x7 0x2 0x3 0x4 0x0 0x0 0x0 0x0
2022-07-21 11:31:04,656 pymodbus.framer.socket_framer - DEBUG - Processing: 0x0 0x12 0x0 0x0 0x0 0x7 0x2 0x3 0x4 0x0 0x0 0x0 0x0
2022-07-21 11:31:04,656 pymodbus.factory - DEBUG - Factory Response[ReadHoldingRegistersResponse: 3]
2022-07-21 11:31:04,656 pymodbus.transaction - DEBUG - Adding transaction 18
2022-07-21 11:31:04,656 pymodbus.transaction - DEBUG - Getting transaction 18
2022-07-21 11:31:04,656 pymodbus.transaction - DEBUG - Changing transaction state from 'PROCESSING REPLY' to 'TRANSACTION_COMPLETE'
2022-07-21 11:31:04,656 pymodbus.transaction - DEBUG - Current transaction state - TRANSACTION_COMPLETE
2022-07-21 11:31:04,656 pymodbus.transaction - DEBUG - Running transaction 19
2022-07-21 11:31:04,656 pymodbus.transaction - DEBUG - SEND: 0x0 0x13 0x0 0x0 0x0 0x6 0x2 0x3 0x0 0x28 0x0 0x2
2022-07-21 11:31:04,656 pymodbus.client.sync - DEBUG - New Transaction state 'SENDING'
2022-07-21 11:31:04,656 pymodbus.transaction - DEBUG - Changing transaction state from 'SENDING' to 'WAITING FOR REPLY'
2022-07-21 11:31:04,686 pymodbus.transaction - DEBUG - Changing transaction state from 'WAITING FOR REPLY' to 'PROCESSING REPLY'
2022-07-21 11:31:04,686 pymodbus.transaction - DEBUG - RECV: 0x0 0x13 0x0 0x0 0x0 0x7 0x2 0x3 0x4 0x0 0x0 0x0 0x0
2022-07-21 11:31:04,686 pymodbus.framer.socket_framer - DEBUG - Processing: 0x0 0x13 0x0 0x0 0x0 0x7 0x2 0x3 0x4 0x0 0x0 0x0 0x0
2022-07-21 11:31:04,686 pymodbus.factory - DEBUG - Factory Response[ReadHoldingRegistersResponse: 3]
2022-07-21 11:31:04,686 pymodbus.transaction - DEBUG - Adding transaction 19
2022-07-21 11:31:04,686 pymodbus.transaction - DEBUG - Getting transaction 19
2022-07-21 11:31:04,686 pymodbus.transaction - DEBUG - Changing transaction state from 'PROCESSING REPLY' to 'TRANSACTION_COMPLETE'
2022-07-21 11:31:04,687 pymodbus.transaction - DEBUG - Current transaction state - TRANSACTION_COMPLETE
2022-07-21 11:31:04,687 pymodbus.transaction - DEBUG - Running transaction 20
2022-07-21 11:31:04,687 pymodbus.transaction - DEBUG - SEND: 0x0 0x14 0x0 0x0 0x0 0x6 0x2 0x3 0x0 0x2a 0x0 0x2
2022-07-21 11:31:04,687 pymodbus.client.sync - DEBUG - New Transaction state 'SENDING'
2022-07-21 11:31:04,687 pymodbus.transaction - DEBUG - Changing transaction state from 'SENDING' to 'WAITING FOR REPLY'
2022-07-21 11:31:04,718 pymodbus.transaction - DEBUG - Changing transaction state from 'WAITING FOR REPLY' to 'PROCESSING REPLY'
2022-07-21 11:31:04,718 pymodbus.transaction - DEBUG - RECV: 0x0 0x14 0x0 0x0 0x0 0x7 0x2 0x3 0x4 0x0 0x0 0x0 0x0
2022-07-21 11:31:04,719 pymodbus.framer.socket_framer - DEBUG - Processing: 0x0 0x14 0x0 0x0 0x0 0x7 0x2 0x3 0x4 0x0 0x0 0x0 0x0
2022-07-21 11:31:04,719 pymodbus.factory - DEBUG - Factory Response[ReadHoldingRegistersResponse: 3]
2022-07-21 11:31:04,719 pymodbus.transaction - DEBUG - Adding transaction 20
2022-07-21 11:31:04,719 pymodbus.transaction - DEBUG - Getting transaction 20
2022-07-21 11:31:04,719 pymodbus.transaction - DEBUG - Changing transaction state from 'PROCESSING REPLY' to 'TRANSACTION_COMPLETE'
2022-07-21 11:31:04,719 pymodbus.transaction - DEBUG - Current transaction state - TRANSACTION_COMPLETE
2022-07-21 11:31:04,719 pymodbus.transaction - DEBUG - Running transaction 21
2022-07-21 11:31:04,719 pymodbus.transaction - DEBUG - SEND: 0x0 0x15 0x0 0x0 0x0 0x6 0x2 0x3 0x0 0x2c 0x0 0x2
2022-07-21 11:31:04,720 pymodbus.client.sync - DEBUG - New Transaction state 'SENDING'
2022-07-21 11:31:04,720 pymodbus.transaction - DEBUG - Changing transaction state from 'SENDING' to 'WAITING FOR REPLY'
2022-07-21 11:31:04,749 pymodbus.transaction - DEBUG - Changing transaction state from 'WAITING FOR REPLY' to 'PROCESSING REPLY'
2022-07-21 11:31:04,750 pymodbus.transaction - DEBUG - RECV: 0x0 0x15 0x0 0x0 0x0 0x7 0x2 0x3 0x4 0x0 0x0 0x0 0x0
2022-07-21 11:31:04,750 pymodbus.framer.socket_framer - DEBUG - Processing: 0x0 0x15 0x0 0x0 0x0 0x7 0x2 0x3 0x4 0x0 0x0 0x0 0x0
2022-07-21 11:31:04,750 pymodbus.factory - DEBUG - Factory Response[ReadHoldingRegistersResponse: 3]
2022-07-21 11:31:04,750 pymodbus.transaction - DEBUG - Adding transaction 21
2022-07-21 11:31:04,750 pymodbus.transaction - DEBUG - Getting transaction 21
2022-07-21 11:31:04,750 pymodbus.transaction - DEBUG - Changing transaction state from 'PROCESSING REPLY' to 'TRANSACTION_COMPLETE'
2022-07-21 11:31:04,750 pymodbus.transaction - DEBUG - Current transaction state - TRANSACTION_COMPLETE
2022-07-21 11:31:04,750 pymodbus.transaction - DEBUG - Running transaction 22
2022-07-21 11:31:04,750 pymodbus.transaction - DEBUG - SEND: 0x0 0x16 0x0 0x0 0x0 0x6 0x2 0x3 0x0 0x2e 0x0 0x2
2022-07-21 11:31:04,750 pymodbus.client.sync - DEBUG - New Transaction state 'SENDING'
2022-07-21 11:31:04,751 pymodbus.transaction - DEBUG - Changing transaction state from 'SENDING' to 'WAITING FOR REPLY'
2022-07-21 11:31:04,780 pymodbus.transaction - DEBUG - Changing transaction state from 'WAITING FOR REPLY' to 'PROCESSING REPLY'
2022-07-21 11:31:04,781 pymodbus.transaction - DEBUG - RECV: 0x0 0x16 0x0 0x0 0x0 0x7 0x2 0x3 0x4 0x0 0x0 0x0 0x0
2022-07-21 11:31:04,781 pymodbus.framer.socket_framer - DEBUG - Processing: 0x0 0x16 0x0 0x0 0x0 0x7 0x2 0x3 0x4 0x0 0x0 0x0 0x0
2022-07-21 11:31:04,781 pymodbus.factory - DEBUG - Factory Response[ReadHoldingRegistersResponse: 3]
2022-07-21 11:31:04,781 pymodbus.transaction - DEBUG - Adding transaction 22
2022-07-21 11:31:04,781 pymodbus.transaction - DEBUG - Getting transaction 22
2022-07-21 11:31:04,781 pymodbus.transaction - DEBUG - Changing transaction state from 'PROCESSING REPLY' to 'TRANSACTION_COMPLETE'
2022-07-21 11:31:04,781 pymodbus.transaction - DEBUG - Current transaction state - TRANSACTION_COMPLETE
2022-07-21 11:31:04,782 pymodbus.transaction - DEBUG - Running transaction 23
2022-07-21 11:31:04,782 pymodbus.transaction - DEBUG - SEND: 0x0 0x17 0x0 0x0 0x0 0x6 0x2 0x3 0x0 0x30 0x0 0x2
2022-07-21 11:31:04,782 pymodbus.client.sync - DEBUG - New Transaction state 'SENDING'
2022-07-21 11:31:04,782 pymodbus.transaction - DEBUG - Changing transaction state from 'SENDING' to 'WAITING FOR REPLY'
2022-07-21 11:31:04,812 pymodbus.transaction - DEBUG - Changing transaction state from 'WAITING FOR REPLY' to 'PROCESSING REPLY'
2022-07-21 11:31:04,812 pymodbus.transaction - DEBUG - RECV: 0x0 0x17 0x0 0x0 0x0 0x7 0x2 0x3 0x4 0x0 0x0 0x0 0x0
2022-07-21 11:31:04,812 pymodbus.framer.socket_framer - DEBUG - Processing: 0x0 0x17 0x0 0x0 0x0 0x7 0x2 0x3 0x4 0x0 0x0 0x0 0x0
2022-07-21 11:31:04,812 pymodbus.factory - DEBUG - Factory Response[ReadHoldingRegistersResponse: 3]
2022-07-21 11:31:04,812 pymodbus.transaction - DEBUG - Adding transaction 23
2022-07-21 11:31:04,812 pymodbus.transaction - DEBUG - Getting transaction 23
2022-07-21 11:31:04,812 pymodbus.transaction - DEBUG - Changing transaction state from 'PROCESSING REPLY' to 'TRANSACTION_COMPLETE'
2022-07-21 11:31:04,813 pymodbus.transaction - DEBUG - Current transaction state - TRANSACTION_COMPLETE
2022-07-21 11:31:04,813 pymodbus.transaction - DEBUG - Running transaction 24
2022-07-21 11:31:04,813 pymodbus.transaction - DEBUG - SEND: 0x0 0x18 0x0 0x0 0x0 0x6 0x2 0x3 0x0 0x32 0x0 0x2
2022-07-21 11:31:04,813 pymodbus.client.sync - DEBUG - New Transaction state 'SENDING'
2022-07-21 11:31:04,813 pymodbus.transaction - DEBUG - Changing transaction state from 'SENDING' to 'WAITING FOR REPLY'
2022-07-21 11:31:04,843 pymodbus.transaction - DEBUG - Changing transaction state from 'WAITING FOR REPLY' to 'PROCESSING REPLY'
2022-07-21 11:31:04,843 pymodbus.transaction - DEBUG - RECV: 0x0 0x18 0x0 0x0 0x0 0x7 0x2 0x3 0x4 0x0 0x0 0x0 0x0
2022-07-21 11:31:04,844 pymodbus.framer.socket_framer - DEBUG - Processing: 0x0 0x18 0x0 0x0 0x0 0x7 0x2 0x3 0x4 0x0 0x0 0x0 0x0
2022-07-21 11:31:04,844 pymodbus.factory - DEBUG - Factory Response[ReadHoldingRegistersResponse: 3]
2022-07-21 11:31:04,844 pymodbus.transaction - DEBUG - Adding transaction 24
2022-07-21 11:31:04,844 pymodbus.transaction - DEBUG - Getting transaction 24
2022-07-21 11:31:04,844 pymodbus.transaction - DEBUG - Changing transaction state from 'PROCESSING REPLY' to 'TRANSACTION_COMPLETE'
2022-07-21 11:31:04,844 pymodbus.transaction - DEBUG - Current transaction state - TRANSACTION_COMPLETE
2022-07-21 11:31:04,844 pymodbus.transaction - DEBUG - Running transaction 25
2022-07-21 11:31:04,844 pymodbus.transaction - DEBUG - SEND: 0x0 0x19 0x0 0x0 0x0 0x6 0x2 0x3 0x0 0x34 0x0 0x2
2022-07-21 11:31:04,844 pymodbus.client.sync - DEBUG - New Transaction state 'SENDING'
2022-07-21 11:31:04,845 pymodbus.transaction - DEBUG - Changing transaction state from 'SENDING' to 'WAITING FOR REPLY'
2022-07-21 11:31:04,873 pymodbus.transaction - DEBUG - Changing transaction state from 'WAITING FOR REPLY' to 'PROCESSING REPLY'
2022-07-21 11:31:04,873 pymodbus.transaction - DEBUG - RECV: 0x0 0x19 0x0 0x0 0x0 0x7 0x2 0x3 0x4 0x0 0x0 0x0 0x0
2022-07-21 11:31:04,873 pymodbus.framer.socket_framer - DEBUG - Processing: 0x0 0x19 0x0 0x0 0x0 0x7 0x2 0x3 0x4 0x0 0x0 0x0 0x0
2022-07-21 11:31:04,873 pymodbus.factory - DEBUG - Factory Response[ReadHoldingRegistersResponse: 3]
2022-07-21 11:31:04,873 pymodbus.transaction - DEBUG - Adding transaction 25
2022-07-21 11:31:04,873 pymodbus.transaction - DEBUG - Getting transaction 25
2022-07-21 11:31:04,873 pymodbus.transaction - DEBUG - Changing transaction state from 'PROCESSING REPLY' to 'TRANSACTION_COMPLETE'
2022-07-21 11:31:04,873 pymodbus.transaction - DEBUG - Current transaction state - TRANSACTION_COMPLETE
2022-07-21 11:31:04,873 pymodbus.transaction - DEBUG - Running transaction 26
2022-07-21 11:31:04,873 pymodbus.transaction - DEBUG - SEND: 0x0 0x1a 0x0 0x0 0x0 0x6 0x2 0x3 0x0 0x36 0x0 0x2
2022-07-21 11:31:04,873 pymodbus.client.sync - DEBUG - New Transaction state 'SENDING'
2022-07-21 11:31:04,873 pymodbus.transaction - DEBUG - Changing transaction state from 'SENDING' to 'WAITING FOR REPLY'
2022-07-21 11:31:04,904 pymodbus.transaction - DEBUG - Changing transaction state from 'WAITING FOR REPLY' to 'PROCESSING REPLY'
2022-07-21 11:31:04,904 pymodbus.transaction - DEBUG - RECV: 0x0 0x1a 0x0 0x0 0x0 0x7 0x2 0x3 0x4 0x0 0x0 0x0 0x0
2022-07-21 11:31:04,904 pymodbus.framer.socket_framer - DEBUG - Processing: 0x0 0x1a 0x0 0x0 0x0 0x7 0x2 0x3 0x4 0x0 0x0 0x0 0x0
2022-07-21 11:31:04,905 pymodbus.factory - DEBUG - Factory Response[ReadHoldingRegistersResponse: 3]
2022-07-21 11:31:04,905 pymodbus.transaction - DEBUG - Adding transaction 26
2022-07-21 11:31:04,905 pymodbus.transaction - DEBUG - Getting transaction 26
2022-07-21 11:31:04,905 pymodbus.transaction - DEBUG - Changing transaction state from 'PROCESSING REPLY' to 'TRANSACTION_COMPLETE'
2022-07-21 11:31:04,905 pymodbus.transaction - DEBUG - Current transaction state - TRANSACTION_COMPLETE
2022-07-21 11:31:04,905 pymodbus.transaction - DEBUG - Running transaction 27
2022-07-21 11:31:04,905 pymodbus.transaction - DEBUG - SEND: 0x0 0x1b 0x0 0x0 0x0 0x6 0x2 0x3 0x0 0x38 0x0 0x2
2022-07-21 11:31:04,905 pymodbus.client.sync - DEBUG - New Transaction state 'SENDING'
2022-07-21 11:31:04,905 pymodbus.transaction - DEBUG - Changing transaction state from 'SENDING' to 'WAITING FOR REPLY'
2022-07-21 11:31:04,935 pymodbus.transaction - DEBUG - Changing transaction state from 'WAITING FOR REPLY' to 'PROCESSING REPLY'
2022-07-21 11:31:04,935 pymodbus.transaction - DEBUG - RECV: 0x0 0x1b 0x0 0x0 0x0 0x7 0x2 0x3 0x4 0x0 0x0 0x0 0x0
2022-07-21 11:31:04,935 pymodbus.framer.socket_framer - DEBUG - Processing: 0x0 0x1b 0x0 0x0 0x0 0x7 0x2 0x3 0x4 0x0 0x0 0x0 0x0
2022-07-21 11:31:04,935 pymodbus.factory - DEBUG - Factory Response[ReadHoldingRegistersResponse: 3]
2022-07-21 11:31:04,936 pymodbus.transaction - DEBUG - Adding transaction 27
2022-07-21 11:31:04,936 pymodbus.transaction - DEBUG - Getting transaction 27
2022-07-21 11:31:04,936 pymodbus.transaction - DEBUG - Changing transaction state from 'PROCESSING REPLY' to 'TRANSACTION_COMPLETE'
2022-07-21 11:31:04,936 pymodbus.transaction - DEBUG - Current transaction state - TRANSACTION_COMPLETE
2022-07-21 11:31:04,936 pymodbus.transaction - DEBUG - Running transaction 28
2022-07-21 11:31:04,936 pymodbus.transaction - DEBUG - SEND: 0x0 0x1c 0x0 0x0 0x0 0x6 0x2 0x3 0x0 0x3a 0x0 0x2
2022-07-21 11:31:04,936 pymodbus.client.sync - DEBUG - New Transaction state 'SENDING'
2022-07-21 11:31:04,936 pymodbus.transaction - DEBUG - Changing transaction state from 'SENDING' to 'WAITING FOR REPLY'
2022-07-21 11:31:04,964 pymodbus.transaction - DEBUG - Changing transaction state from 'WAITING FOR REPLY' to 'PROCESSING REPLY'
2022-07-21 11:31:04,964 pymodbus.transaction - DEBUG - RECV: 0x0 0x1c 0x0 0x0 0x0 0x7 0x2 0x3 0x4 0x0 0x0 0x0 0x0
2022-07-21 11:31:04,964 pymodbus.framer.socket_framer - DEBUG - Processing: 0x0 0x1c 0x0 0x0 0x0 0x7 0x2 0x3 0x4 0x0 0x0 0x0 0x0
2022-07-21 11:31:04,964 pymodbus.factory - DEBUG - Factory Response[ReadHoldingRegistersResponse: 3]
2022-07-21 11:31:04,965 pymodbus.transaction - DEBUG - Adding transaction 28
2022-07-21 11:31:04,965 pymodbus.transaction - DEBUG - Getting transaction 28
2022-07-21 11:31:04,965 pymodbus.transaction - DEBUG - Changing transaction state from 'PROCESSING REPLY' to 'TRANSACTION_COMPLETE'
2022-07-21 11:31:04,965 pymodbus.transaction - DEBUG - Current transaction state - TRANSACTION_COMPLETE
2022-07-21 11:31:04,966 pymodbus.transaction - DEBUG - Running transaction 29
2022-07-21 11:31:04,966 pymodbus.transaction - DEBUG - SEND: 0x0 0x1d 0x0 0x0 0x0 0x6 0x2 0x3 0x0 0x3c 0x0 0x2
2022-07-21 11:31:04,966 pymodbus.client.sync - DEBUG - New Transaction state 'SENDING'
2022-07-21 11:31:04,966 pymodbus.transaction - DEBUG - Changing transaction state from 'SENDING' to 'WAITING FOR REPLY'
2022-07-21 11:31:04,995 pymodbus.transaction - DEBUG - Changing transaction state from 'WAITING FOR REPLY' to 'PROCESSING REPLY'
2022-07-21 11:31:04,995 pymodbus.transaction - DEBUG - RECV: 0x0 0x1d 0x0 0x0 0x0 0x7 0x2 0x3 0x4 0x0 0x0 0x0 0x0
2022-07-21 11:31:04,995 pymodbus.framer.socket_framer - DEBUG - Processing: 0x0 0x1d 0x0 0x0 0x0 0x7 0x2 0x3 0x4 0x0 0x0 0x0 0x0
2022-07-21 11:31:04,995 pymodbus.factory - DEBUG - Factory Response[ReadHoldingRegistersResponse: 3]
2022-07-21 11:31:04,995 pymodbus.transaction - DEBUG - Adding transaction 29
2022-07-21 11:31:04,995 pymodbus.transaction - DEBUG - Getting transaction 29
2022-07-21 11:31:04,995 pymodbus.transaction - DEBUG - Changing transaction state from 'PROCESSING REPLY' to 'TRANSACTION_COMPLETE'
2022-07-21 11:31:04,995 pymodbus.transaction - DEBUG - Current transaction state - TRANSACTION_COMPLETE
2022-07-21 11:31:04,995 pymodbus.transaction - DEBUG - Running transaction 30
2022-07-21 11:31:04,996 pymodbus.transaction - DEBUG - SEND: 0x0 0x1e 0x0 0x0 0x0 0x6 0x2 0x3 0x0 0x40 0x0 0x2
2022-07-21 11:31:04,996 pymodbus.client.sync - DEBUG - New Transaction state 'SENDING'
2022-07-21 11:31:04,996 pymodbus.transaction - DEBUG - Changing transaction state from 'SENDING' to 'WAITING FOR REPLY'
2022-07-21 11:31:05,026 pymodbus.transaction - DEBUG - Changing transaction state from 'WAITING FOR REPLY' to 'PROCESSING REPLY'
2022-07-21 11:31:05,026 pymodbus.transaction - DEBUG - RECV: 0x0 0x1e 0x0 0x0 0x0 0x7 0x2 0x3 0x4 0x0 0x0 0x0 0x0
2022-07-21 11:31:05,026 pymodbus.framer.socket_framer - DEBUG - Processing: 0x0 0x1e 0x0 0x0 0x0 0x7 0x2 0x3 0x4 0x0 0x0 0x0 0x0
2022-07-21 11:31:05,026 pymodbus.factory - DEBUG - Factory Response[ReadHoldingRegistersResponse: 3]
2022-07-21 11:31:05,027 pymodbus.transaction - DEBUG - Adding transaction 30
2022-07-21 11:31:05,027 pymodbus.transaction - DEBUG - Getting transaction 30
2022-07-21 11:31:05,027 pymodbus.transaction - DEBUG - Changing transaction state from 'PROCESSING REPLY' to 'TRANSACTION_COMPLETE'
2022-07-21 11:31:05,027 pymodbus.transaction - DEBUG - Current transaction state - TRANSACTION_COMPLETE
2022-07-21 11:31:05,027 pymodbus.transaction - DEBUG - Running transaction 31
2022-07-21 11:31:05,027 pymodbus.transaction - DEBUG - SEND: 0x0 0x1f 0x0 0x0 0x0 0x6 0x2 0x3 0x0 0x3e 0x0 0x2
2022-07-21 11:31:05,027 pymodbus.client.sync - DEBUG - New Transaction state 'SENDING'
2022-07-21 11:31:05,027 pymodbus.transaction - DEBUG - Changing transaction state from 'SENDING' to 'WAITING FOR REPLY'
2022-07-21 11:31:05,056 pymodbus.transaction - DEBUG - Changing transaction state from 'WAITING FOR REPLY' to 'PROCESSING REPLY'
2022-07-21 11:31:05,056 pymodbus.transaction - DEBUG - RECV: 0x0 0x1f 0x0 0x0 0x0 0x7 0x2 0x3 0x4 0x0 0x0 0x0 0x0
2022-07-21 11:31:05,056 pymodbus.framer.socket_framer - DEBUG - Processing: 0x0 0x1f 0x0 0x0 0x0 0x7 0x2 0x3 0x4 0x0 0x0 0x0 0x0
2022-07-21 11:31:05,056 pymodbus.factory - DEBUG - Factory Response[ReadHoldingRegistersResponse: 3]
2022-07-21 11:31:05,056 pymodbus.transaction - DEBUG - Adding transaction 31
2022-07-21 11:31:05,057 pymodbus.transaction - DEBUG - Getting transaction 31
2022-07-21 11:31:05,057 pymodbus.transaction - DEBUG - Changing transaction state from 'PROCESSING REPLY' to 'TRANSACTION_COMPLETE'
2022-07-21 11:31:05,057 log1 - DEBUG - Reading Register Complete
2022-07-21 11:31:05,062 log1 - DEBUG - Posting Data to DB
2022-07-21 11:31:05,073 urllib3.connectionpool - DEBUG - Starting new HTTP connection (1): 192.168.1.36:4000
2022-07-21 11:31:05,093 urllib3.connectionpool - DEBUG - http://192.168.1.36:4000 "POST /data HTTP/1.1" 200 847
2022-07-21 11:31:05,094 root - DEBUG - {"timestamp":"2022-07-21T03:31:04.088Z","primary_positive_pump":23,"primary_negative_pump":4,"system_mode":0,"system_alarm_status":0,"balancing_valve":0,"positive_valve":0,"negative_valve":0,"state_of_charge":0,"bcu_mode_status":0,"bcu_voltage":0,"bcu_current":0,"bcu_power":0,"bcu_state_of_charge":0,"bcu_hydrogen_sensor":0,"bcu_leakage_sensor":0,"smoke_sensor":0,"bcu_ocv":0,"bcu_positive_tank_temp":0,"bcu_negative_tank_temp":0,"positive_tank_high_level_float":0,"negative_tank_high_level_float":0,"positive_tank_low_level_float":0,"negative_tank_low_level_float":0,"primary_stack_voltage":0,"primary_stack_current":0,"primary_stack_positive_pressure_sensor":0,"primary_stack_negative_pressure_sensor":0,"positive_stack_pressure_delta":0,"b1_primary_stack_pressure_delta":0,"sensor_temp":0,"humidity":0,"_id":"62d8c879ad3a3eac12b5d0b3","__v":0}
2022-07-21 11:31:05,094 log1 - DEBUG - {'timestamp': '2022-07-21 11:31:04.088038', 'dc_main_contactor': 1.0, 'stk1_contactor': 80.0, 'primary_positive_pump': 23.0, 'primary_negative_pump': 4.0, 'system_mode': 0, 'system_alarm_status': 0, 'balancing_valve': 0.0, 'positive_valve': 0.0, 'negative_valve': 0.0, 'state_of_charge': 0.0, 'bcu_mode_status': 0.0, 'bcu_voltage': 0.0, 'bcu_current': 0.0, 'bcu_power': 0.0, 'bcu_state_of_charge': 0.0, 'bcu_hydrogen_sensor': 0.0, 'bcu_leakage_sensor': 0.0, 'smoke_sensor': 0.0, 'bcu_ocv': 0.0, 'bcu_positive_tank_temp': 0.0, 'bcu_negative_tank_temp': 0.0, 'positive_tank_high_level_float': 0.0, 'negative_tank_high_level_float': 0.0, 'positive_tank_low_level_float': 0.0, 'negative_tank_low_level_float': 0.0, 'primary_stack_voltage': 0.0, 'primary_stack_current': 0.0, 'primary_stack_positive_pressure_sensor': 0.0, 'primary_stack_negative_pressure_sensor': 0.0, 'positive_stack_pressure_delta': 0.0, 'b1_primary_stack_pressure_delta': 0.0, 'sensor_temp': 0.0, 'humidity': 0.0, 'bms_timestamp': 0, 'plc_alarm_status_1': 0}
2022-07-21 11:31:05,097 log1 - DEBUG - POST Complete
2022-07-21 11:31:10,117 root - DEBUG - Reading Registers
2022-07-21 11:31:10,117 log1 - DEBUG - Reading Registers
2022-07-21 11:31:10,118 pymodbus.transaction - DEBUG - Current transaction state - TRANSACTION_COMPLETE
2022-07-21 11:31:10,118 pymodbus.transaction - DEBUG - Running transaction 32
2022-07-21 11:31:10,118 pymodbus.transaction - DEBUG - SEND: 0x0 0x20 0x0 0x0 0x0 0x6 0x2 0x3 0x0 0x0 0x0 0x2
2022-07-21 11:31:10,118 pymodbus.client.sync - DEBUG - New Transaction state 'SENDING'
2022-07-21 11:31:10,118 pymodbus.transaction - DEBUG - Changing transaction state from 'SENDING' to 'WAITING FOR REPLY'
2022-07-21 11:31:10,132 pymodbus.transaction - DEBUG - Changing transaction state from 'WAITING FOR REPLY' to 'PROCESSING REPLY'
2022-07-21 11:31:10,132 pymodbus.transaction - DEBUG - RECV: 0x0 0x20 0x0 0x0 0x0 0x7 0x2 0x3 0x4 0x0 0x1 0x0 0x1
2022-07-21 11:31:10,132 pymodbus.framer.socket_framer - DEBUG - Processing: 0x0 0x20 0x0 0x0 0x0 0x7 0x2 0x3 0x4 0x0 0x1 0x0 0x1
2022-07-21 11:31:10,133 pymodbus.factory - DEBUG - Factory Response[ReadHoldingRegistersResponse: 3]
2022-07-21 11:31:10,133 pymodbus.transaction - DEBUG - Adding transaction 32
2022-07-21 11:31:10,133 pymodbus.transaction - DEBUG - Getting transaction 32
2022-07-21 11:31:10,133 pymodbus.transaction - DEBUG - Changing transaction state from 'PROCESSING REPLY' to 'TRANSACTION_COMPLETE'
2022-07-21 11:31:10,133 pymodbus.transaction - DEBUG - Current transaction state - TRANSACTION_COMPLETE
2022-07-21 11:31:10,133 pymodbus.transaction - DEBUG - Running transaction 33
2022-07-21 11:31:10,133 pymodbus.transaction - DEBUG - SEND: 0x0 0x21 0x0 0x0 0x0 0x6 0x2 0x3 0x0 0x2 0x0 0x2
2022-07-21 11:31:10,133 pymodbus.client.sync - DEBUG - New Transaction state 'SENDING'
2022-07-21 11:31:10,133 pymodbus.transaction - DEBUG - Changing transaction state from 'SENDING' to 'WAITING FOR REPLY'
2022-07-21 11:31:10,164 pymodbus.transaction - DEBUG - Changing transaction state from 'WAITING FOR REPLY' to 'PROCESSING REPLY'
2022-07-21 11:31:10,164 pymodbus.transaction - DEBUG - RECV: 0x0 0x21 0x0 0x0 0x0 0x7 0x2 0x3 0x4 0x0 0x0 0x0 0x50
2022-07-21 11:31:10,164 pymodbus.framer.socket_framer - DEBUG - Processing: 0x0 0x21 0x0 0x0 0x0 0x7 0x2 0x3 0x4 0x0 0x0 0x0 0x50
2022-07-21 11:31:10,164 pymodbus.factory - DEBUG - Factory Response[ReadHoldingRegistersResponse: 3]
2022-07-21 11:31:10,164 pymodbus.transaction - DEBUG - Adding transaction 33
2022-07-21 11:31:10,164 pymodbus.transaction - DEBUG - Getting transaction 33
2022-07-21 11:31:10,164 pymodbus.transaction - DEBUG - Changing transaction state from 'PROCESSING REPLY' to 'TRANSACTION_COMPLETE'
2022-07-21 11:31:10,164 pymodbus.transaction - DEBUG - Current transaction state - TRANSACTION_COMPLETE
2022-07-21 11:31:10,164 pymodbus.transaction - DEBUG - Running transaction 34
2022-07-21 11:31:10,164 pymodbus.transaction - DEBUG - SEND: 0x0 0x22 0x0 0x0 0x0 0x6 0x2 0x3 0x0 0x4 0x0 0x2
2022-07-21 11:31:10,164 pymodbus.client.sync - DEBUG - New Transaction state 'SENDING'
2022-07-21 11:31:10,164 pymodbus.transaction - DEBUG - Changing transaction state from 'SENDING' to 'WAITING FOR REPLY'
2022-07-21 11:31:10,195 pymodbus.transaction - DEBUG - Changing transaction state from 'WAITING FOR REPLY' to 'PROCESSING REPLY'
2022-07-21 11:31:10,195 pymodbus.transaction - DEBUG - RECV: 0x0 0x22 0x0 0x0 0x0 0x7 0x2 0x3 0x4 0x0 0x0 0x0 0x17
2022-07-21 11:31:10,195 pymodbus.framer.socket_framer - DEBUG - Processing: 0x0 0x22 0x0 0x0 0x0 0x7 0x2 0x3 0x4 0x0 0x0 0x0 0x17
2022-07-21 11:31:10,195 pymodbus.factory - DEBUG - Factory Response[ReadHoldingRegistersResponse: 3]
2022-07-21 11:31:10,195 pymodbus.transaction - DEBUG - Adding transaction 34
2022-07-21 11:31:10,195 pymodbus.transaction - DEBUG - Getting transaction 34
2022-07-21 11:31:10,195 pymodbus.transaction - DEBUG - Changing transaction state from 'PROCESSING REPLY' to 'TRANSACTION_COMPLETE'
2022-07-21 11:31:10,195 pymodbus.transaction - DEBUG - Current transaction state - TRANSACTION_COMPLETE
2022-07-21 11:31:10,195 pymodbus.transaction - DEBUG - Running transaction 35
2022-07-21 11:31:10,195 pymodbus.transaction - DEBUG - SEND: 0x0 0x23 0x0 0x0 0x0 0x6 0x2 0x3 0x0 0x6 0x0 0x2
2022-07-21 11:31:10,197 pymodbus.client.sync - DEBUG - New Transaction state 'SENDING'
2022-07-21 11:31:10,197 pymodbus.transaction - DEBUG - Changing transaction state from 'SENDING' to 'WAITING FOR REPLY'
2022-07-21 11:31:10,226 pymodbus.transaction - DEBUG - Changing transaction state from 'WAITING FOR REPLY' to 'PROCESSING REPLY'
2022-07-21 11:31:10,226 pymodbus.transaction - DEBUG - RECV: 0x0 0x23 0x0 0x0 0x0 0x7 0x2 0x3 0x4 0x0 0x0 0x0 0x4
2022-07-21 11:31:10,226 pymodbus.framer.socket_framer - DEBUG - Processing: 0x0 0x23 0x0 0x0 0x0 0x7 0x2 0x3 0x4 0x0 0x0 0x0 0x4
2022-07-21 11:31:10,226 pymodbus.factory - DEBUG - Factory Response[ReadHoldingRegistersResponse: 3]
2022-07-21 11:31:10,226 pymodbus.transaction - DEBUG - Adding transaction 35
2022-07-21 11:31:10,226 pymodbus.transaction - DEBUG - Getting transaction 35
2022-07-21 11:31:10,226 pymodbus.transaction - DEBUG - Changing transaction state from 'PROCESSING REPLY' to 'TRANSACTION_COMPLETE'
2022-07-21 11:31:10,227 pymodbus.transaction - DEBUG - Current transaction state - TRANSACTION_COMPLETE
2022-07-21 11:31:10,227 pymodbus.transaction - DEBUG - Running transaction 36
2022-07-21 11:31:10,227 pymodbus.transaction - DEBUG - SEND: 0x0 0x24 0x0 0x0 0x0 0x6 0x2 0x3 0x0 0xc 0x0 0x2
2022-07-21 11:31:10,227 pymodbus.client.sync - DEBUG - New Transaction state 'SENDING'
2022-07-21 11:31:10,227 pymodbus.transaction - DEBUG - Changing transaction state from 'SENDING' to 'WAITING FOR REPLY'
2022-07-21 11:31:10,257 pymodbus.transaction - DEBUG - Changing transaction state from 'WAITING FOR REPLY' to 'PROCESSING REPLY'
2022-07-21 11:31:10,257 pymodbus.transaction - DEBUG - RECV: 0x0 0x24 0x0 0x0 0x0 0x7 0x2 0x3 0x4 0x0 0x0 0x0 0x0
2022-07-21 11:31:10,257 pymodbus.framer.socket_framer - DEBUG - Processing: 0x0 0x24 0x0 0x0 0x0 0x7 0x2 0x3 0x4 0x0 0x0 0x0 0x0
2022-07-21 11:31:10,257 pymodbus.factory - DEBUG - Factory Response[ReadHoldingRegistersResponse: 3]
2022-07-21 11:31:10,258 pymodbus.transaction - DEBUG - Adding transaction 36
2022-07-21 11:31:10,258 pymodbus.transaction - DEBUG - Getting transaction 36
2022-07-21 11:31:10,258 pymodbus.transaction - DEBUG - Changing transaction state from 'PROCESSING REPLY' to 'TRANSACTION_COMPLETE'
2022-07-21 11:31:10,258 pymodbus.transaction - DEBUG - Current transaction state - TRANSACTION_COMPLETE
2022-07-21 11:31:10,258 pymodbus.transaction - DEBUG - Running transaction 37
2022-07-21 11:31:10,258 pymodbus.transaction - DEBUG - SEND: 0x0 0x25 0x0 0x0 0x0 0x6 0x2 0x3 0x0 0xe 0x0 0x2
2022-07-21 11:31:10,258 pymodbus.client.sync - DEBUG - New Transaction state 'SENDING'
2022-07-21 11:31:10,258 pymodbus.transaction - DEBUG - Changing transaction state from 'SENDING' to 'WAITING FOR REPLY'
2022-07-21 11:31:10,288 pymodbus.transaction - DEBUG - Changing transaction state from 'WAITING FOR REPLY' to 'PROCESSING REPLY'
2022-07-21 11:31:10,288 pymodbus.transaction - DEBUG - RECV: 0x0 0x25 0x0 0x0 0x0 0x7 0x2 0x3 0x4 0x0 0x0 0x0 0x0
2022-07-21 11:31:10,288 pymodbus.framer.socket_framer - DEBUG - Processing: 0x0 0x25 0x0 0x0 0x0 0x7 0x2 0x3 0x4 0x0 0x0 0x0 0x0
2022-07-21 11:31:10,288 pymodbus.factory - DEBUG - Factory Response[ReadHoldingRegistersResponse: 3]
2022-07-21 11:31:10,288 pymodbus.transaction - DEBUG - Adding transaction 37
2022-07-21 11:31:10,289 pymodbus.transaction - DEBUG - Getting transaction 37
2022-07-21 11:31:10,289 pymodbus.transaction - DEBUG - Changing transaction state from 'PROCESSING REPLY' to 'TRANSACTION_COMPLETE'
2022-07-21 11:31:10,289 pymodbus.transaction - DEBUG - Current transaction state - TRANSACTION_COMPLETE
2022-07-21 11:31:10,289 pymodbus.transaction - DEBUG - Running transaction 38
2022-07-21 11:31:10,289 pymodbus.transaction - DEBUG - SEND: 0x0 0x26 0x0 0x0 0x0 0x6 0x2 0x3 0x0 0x10 0x0 0x2
2022-07-21 11:31:10,289 pymodbus.client.sync - DEBUG - New Transaction state 'SENDING'
2022-07-21 11:31:10,289 pymodbus.transaction - DEBUG - Changing transaction state from 'SENDING' to 'WAITING FOR REPLY'
2022-07-21 11:31:10,319 pymodbus.transaction - DEBUG - Changing transaction state from 'WAITING FOR REPLY' to 'PROCESSING REPLY'
2022-07-21 11:31:10,319 pymodbus.transaction - DEBUG - RECV: 0x0 0x26 0x0 0x0 0x0 0x7 0x2 0x3 0x4 0x0 0x0 0x0 0x0
2022-07-21 11:31:10,319 pymodbus.framer.socket_framer - DEBUG - Processing: 0x0 0x26 0x0 0x0 0x0 0x7 0x2 0x3 0x4 0x0 0x0 0x0 0x0
2022-07-21 11:31:10,320 pymodbus.factory - DEBUG - Factory Response[ReadHoldingRegistersResponse: 3]
2022-07-21 11:31:10,320 pymodbus.transaction - DEBUG - Adding transaction 38
2022-07-21 11:31:10,320 pymodbus.transaction - DEBUG - Getting transaction 38
2022-07-21 11:31:10,320 pymodbus.transaction - DEBUG - Changing transaction state from 'PROCESSING REPLY' to 'TRANSACTION_COMPLETE'
2022-07-21 11:31:10,320 pymodbus.transaction - DEBUG - Current transaction state - TRANSACTION_COMPLETE
2022-07-21 11:31:10,320 pymodbus.transaction - DEBUG - Running transaction 39
2022-07-21 11:31:10,320 pymodbus.transaction - DEBUG - SEND: 0x0 0x27 0x0 0x0 0x0 0x6 0x2 0x3 0x0 0x12 0x0 0x2
2022-07-21 11:31:10,320 pymodbus.client.sync - DEBUG - New Transaction state 'SENDING'
2022-07-21 11:31:10,320 pymodbus.transaction - DEBUG - Changing transaction state from 'SENDING' to 'WAITING FOR REPLY'
2022-07-21 11:31:10,351 pymodbus.transaction - DEBUG - Changing transaction state from 'WAITING FOR REPLY' to 'PROCESSING REPLY'
2022-07-21 11:31:10,351 pymodbus.transaction - DEBUG - RECV: 0x0 0x27 0x0 0x0 0x0 0x7 0x2 0x3 0x4 0x0 0x0 0x0 0x0
2022-07-21 11:31:10,351 pymodbus.framer.socket_framer - DEBUG - Processing: 0x0 0x27 0x0 0x0 0x0 0x7 0x2 0x3 0x4 0x0 0x0 0x0 0x0
2022-07-21 11:31:10,351 pymodbus.factory - DEBUG - Factory Response[ReadHoldingRegistersResponse: 3]
2022-07-21 11:31:10,351 pymodbus.transaction - DEBUG - Adding transaction 39
2022-07-21 11:31:10,351 pymodbus.transaction - DEBUG - Getting transaction 39
2022-07-21 11:31:10,351 pymodbus.transaction - DEBUG - Changing transaction state from 'PROCESSING REPLY' to 'TRANSACTION_COMPLETE'
2022-07-21 11:31:10,352 pymodbus.transaction - DEBUG - Current transaction state - TRANSACTION_COMPLETE
2022-07-21 11:31:10,352 pymodbus.transaction - DEBUG - Running transaction 40
2022-07-21 11:31:10,352 pymodbus.transaction - DEBUG - SEND: 0x0 0x28 0x0 0x0 0x0 0x6 0x2 0x3 0x0 0x14 0x0 0x2
2022-07-21 11:31:10,352 pymodbus.client.sync - DEBUG - New Transaction state 'SENDING'
2022-07-21 11:31:10,352 pymodbus.transaction - DEBUG - Changing transaction state from 'SENDING' to 'WAITING FOR REPLY'
2022-07-21 11:31:10,382 pymodbus.transaction - DEBUG - Changing transaction state from 'WAITING FOR REPLY' to 'PROCESSING REPLY'
2022-07-21 11:31:10,383 pymodbus.transaction - DEBUG - RECV: 0x0 0x28 0x0 0x0 0x0 0x7 0x2 0x3 0x4 0x0 0x0 0x0 0x0
2022-07-21 11:31:10,383 pymodbus.framer.socket_framer - DEBUG - Processing: 0x0 0x28 0x0 0x0 0x0 0x7 0x2 0x3 0x4 0x0 0x0 0x0 0x0
2022-07-21 11:31:10,383 pymodbus.factory - DEBUG - Factory Response[ReadHoldingRegistersResponse: 3]
2022-07-21 11:31:10,383 pymodbus.transaction - DEBUG - Adding transaction 40
2022-07-21 11:31:10,384 pymodbus.transaction - DEBUG - Getting transaction 40
2022-07-21 11:31:10,384 pymodbus.transaction - DEBUG - Changing transaction state from 'PROCESSING REPLY' to 'TRANSACTION_COMPLETE'
2022-07-21 11:31:10,384 pymodbus.transaction - DEBUG - Current transaction state - TRANSACTION_COMPLETE
2022-07-21 11:31:10,384 pymodbus.transaction - DEBUG - Running transaction 41
2022-07-21 11:31:10,384 pymodbus.transaction - DEBUG - SEND: 0x0 0x29 0x0 0x0 0x0 0x6 0x2 0x3 0x0 0x16 0x0 0x2
2022-07-21 11:31:10,384 pymodbus.client.sync - DEBUG - New Transaction state 'SENDING'
2022-07-21 11:31:10,385 pymodbus.transaction - DEBUG - Changing transaction state from 'SENDING' to 'WAITING FOR REPLY'
2022-07-21 11:31:10,414 pymodbus.transaction - DEBUG - Changing transaction state from 'WAITING FOR REPLY' to 'PROCESSING REPLY'
2022-07-21 11:31:10,414 pymodbus.transaction - DEBUG - RECV: 0x0 0x29 0x0 0x0 0x0 0x7 0x2 0x3 0x4 0x0 0x0 0x0 0x0
2022-07-21 11:31:10,414 pymodbus.framer.socket_framer - DEBUG - Processing: 0x0 0x29 0x0 0x0 0x0 0x7 0x2 0x3 0x4 0x0 0x0 0x0 0x0
2022-07-21 11:31:10,414 pymodbus.factory - DEBUG - Factory Response[ReadHoldingRegistersResponse: 3]
2022-07-21 11:31:10,414 pymodbus.transaction - DEBUG - Adding transaction 41
2022-07-21 11:31:10,414 pymodbus.transaction - DEBUG - Getting transaction 41
2022-07-21 11:31:10,414 pymodbus.transaction - DEBUG - Changing transaction state from 'PROCESSING REPLY' to 'TRANSACTION_COMPLETE'
2022-07-21 11:31:10,414 pymodbus.transaction - DEBUG - Current transaction state - TRANSACTION_COMPLETE
2022-07-21 11:31:10,414 pymodbus.transaction - DEBUG - Running transaction 42
2022-07-21 11:31:10,414 pymodbus.transaction - DEBUG - SEND: 0x0 0x2a 0x0 0x0 0x0 0x6 0x2 0x3 0x0 0x18 0x0 0x2
2022-07-21 11:31:10,416 pymodbus.client.sync - DEBUG - New Transaction state 'SENDING'
2022-07-21 11:31:10,416 pymodbus.transaction - DEBUG - Changing transaction state from 'SENDING' to 'WAITING FOR REPLY'
2022-07-21 11:31:10,446 pymodbus.transaction - DEBUG - Changing transaction state from 'WAITING FOR REPLY' to 'PROCESSING REPLY'
2022-07-21 11:31:10,446 pymodbus.transaction - DEBUG - RECV: 0x0 0x2a 0x0 0x0 0x0 0x7 0x2 0x3 0x4 0x0 0x0 0x0 0x0
2022-07-21 11:31:10,447 pymodbus.framer.socket_framer - DEBUG - Processing: 0x0 0x2a 0x0 0x0 0x0 0x7 0x2 0x3 0x4 0x0 0x0 0x0 0x0
2022-07-21 11:31:10,447 pymodbus.factory - DEBUG - Factory Response[ReadHoldingRegistersResponse: 3]
2022-07-21 11:31:10,447 pymodbus.transaction - DEBUG - Adding transaction 42
2022-07-21 11:31:10,447 pymodbus.transaction - DEBUG - Getting transaction 42
2022-07-21 11:31:10,447 pymodbus.transaction - DEBUG - Changing transaction state from 'PROCESSING REPLY' to 'TRANSACTION_COMPLETE'
2022-07-21 11:31:10,447 pymodbus.transaction - DEBUG - Current transaction state - TRANSACTION_COMPLETE
2022-07-21 11:31:10,447 pymodbus.transaction - DEBUG - Running transaction 43
2022-07-21 11:31:10,447 pymodbus.transaction - DEBUG - SEND: 0x0 0x2b 0x0 0x0 0x0 0x6 0x2 0x3 0x0 0x1a 0x0 0x2
2022-07-21 11:31:10,447 pymodbus.client.sync - DEBUG - New Transaction state 'SENDING'
2022-07-21 11:31:10,448 pymodbus.transaction - DEBUG - Changing transaction state from 'SENDING' to 'WAITING FOR REPLY'
2022-07-21 11:31:10,477 pymodbus.transaction - DEBUG - Changing transaction state from 'WAITING FOR REPLY' to 'PROCESSING REPLY'
2022-07-21 11:31:10,477 pymodbus.transaction - DEBUG - RECV: 0x0 0x2b 0x0 0x0 0x0 0x7 0x2 0x3 0x4 0x0 0x0 0x0 0x0
2022-07-21 11:31:10,477 pymodbus.framer.socket_framer - DEBUG - Processing: 0x0 0x2b 0x0 0x0 0x0 0x7 0x2 0x3 0x4 0x0 0x0 0x0 0x0
2022-07-21 11:31:10,477 pymodbus.factory - DEBUG - Factory Response[ReadHoldingRegistersResponse: 3]
2022-07-21 11:31:10,477 pymodbus.transaction - DEBUG - Adding transaction 43
2022-07-21 11:31:10,478 pymodbus.transaction - DEBUG - Getting transaction 43
2022-07-21 11:31:10,478 pymodbus.transaction - DEBUG - Changing transaction state from 'PROCESSING REPLY' to 'TRANSACTION_COMPLETE'
2022-07-21 11:31:10,478 pymodbus.transaction - DEBUG - Current transaction state - TRANSACTION_COMPLETE
2022-07-21 11:31:10,478 pymodbus.transaction - DEBUG - Running transaction 44
2022-07-21 11:31:10,478 pymodbus.transaction - DEBUG - SEND: 0x0 0x2c 0x0 0x0 0x0 0x6 0x2 0x3 0x0 0x1c 0x0 0x2
2022-07-21 11:31:10,478 pymodbus.client.sync - DEBUG - New Transaction state 'SENDING'
2022-07-21 11:31:10,478 pymodbus.transaction - DEBUG - Changing transaction state from 'SENDING' to 'WAITING FOR REPLY'
2022-07-21 11:31:10,508 pymodbus.transaction - DEBUG - Changing transaction state from 'WAITING FOR REPLY' to 'PROCESSING REPLY'
2022-07-21 11:31:10,508 pymodbus.transaction - DEBUG - RECV: 0x0 0x2c 0x0 0x0 0x0 0x7 0x2 0x3 0x4 0x0 0x0 0x0 0x0
2022-07-21 11:31:10,508 pymodbus.framer.socket_framer - DEBUG - Processing: 0x0 0x2c 0x0 0x0 0x0 0x7 0x2 0x3 0x4 0x0 0x0 0x0 0x0
2022-07-21 11:31:10,508 pymodbus.factory - DEBUG - Factory Response[ReadHoldingRegistersResponse: 3]
2022-07-21 11:31:10,508 pymodbus.transaction - DEBUG - Adding transaction 44
2022-07-21 11:31:10,509 pymodbus.transaction - DEBUG - Getting transaction 44
2022-07-21 11:31:10,509 pymodbus.transaction - DEBUG - Changing transaction state from 'PROCESSING REPLY' to 'TRANSACTION_COMPLETE'
2022-07-21 11:31:10,509 pymodbus.transaction - DEBUG - Current transaction state - TRANSACTION_COMPLETE
2022-07-21 11:31:10,509 pymodbus.transaction - DEBUG - Running transaction 45
2022-07-21 11:31:10,509 pymodbus.transaction - DEBUG - SEND: 0x0 0x2d 0x0 0x0 0x0 0x6 0x2 0x3 0x0 0x1e 0x0 0x2
2022-07-21 11:31:10,509 pymodbus.client.sync - DEBUG - New Transaction state 'SENDING'
2022-07-21 11:31:10,509 pymodbus.transaction - DEBUG - Changing transaction state from 'SENDING' to 'WAITING FOR REPLY'
2022-07-21 11:31:10,539 pymodbus.transaction - DEBUG - Changing transaction state from 'WAITING FOR REPLY' to 'PROCESSING REPLY'
2022-07-21 11:31:10,540 pymodbus.transaction - DEBUG - RECV: 0x0 0x2d 0x0 0x0 0x0 0x7 0x2 0x3 0x4 0x0 0x0 0x0 0x0
2022-07-21 11:31:10,540 pymodbus.framer.socket_framer - DEBUG - Processing: 0x0 0x2d 0x0 0x0 0x0 0x7 0x2 0x3 0x4 0x0 0x0 0x0 0x0
2022-07-21 11:31:10,540 pymodbus.factory - DEBUG - Factory Response[ReadHoldingRegistersResponse: 3]
2022-07-21 11:31:10,541 pymodbus.transaction - DEBUG - Adding transaction 45
2022-07-21 11:31:10,541 pymodbus.transaction - DEBUG - Getting transaction 45
2022-07-21 11:31:10,541 pymodbus.transaction - DEBUG - Changing transaction state from 'PROCESSING REPLY' to 'TRANSACTION_COMPLETE'
2022-07-21 11:31:10,541 pymodbus.transaction - DEBUG - Current transaction state - TRANSACTION_COMPLETE
2022-07-21 11:31:10,541 pymodbus.transaction - DEBUG - Running transaction 46
2022-07-21 11:31:10,541 pymodbus.transaction - DEBUG - SEND: 0x0 0x2e 0x0 0x0 0x0 0x6 0x2 0x3 0x0 0x20 0x0 0x2
2022-07-21 11:31:10,542 pymodbus.client.sync - DEBUG - New Transaction state 'SENDING'
2022-07-21 11:31:10,542 pymodbus.transaction - DEBUG - Changing transaction state from 'SENDING' to 'WAITING FOR REPLY'
2022-07-21 11:31:10,570 pymodbus.transaction - DEBUG - Changing transaction state from 'WAITING FOR REPLY' to 'PROCESSING REPLY'
2022-07-21 11:31:10,571 pymodbus.transaction - DEBUG - RECV: 0x0 0x2e 0x0 0x0 0x0 0x7 0x2 0x3 0x4 0x0 0x0 0x0 0x0
2022-07-21 11:31:10,571 pymodbus.framer.socket_framer - DEBUG - Processing: 0x0 0x2e 0x0 0x0 0x0 0x7 0x2 0x3 0x4 0x0 0x0 0x0 0x0
2022-07-21 11:31:10,571 pymodbus.factory - DEBUG - Factory Response[ReadHoldingRegistersResponse: 3]
2022-07-21 11:31:10,571 pymodbus.transaction - DEBUG - Adding transaction 46
2022-07-21 11:31:10,571 pymodbus.transaction - DEBUG - Getting transaction 46
2022-07-21 11:31:10,571 pymodbus.transaction - DEBUG - Changing transaction state from 'PROCESSING REPLY' to 'TRANSACTION_COMPLETE'
2022-07-21 11:31:10,571 pymodbus.transaction - DEBUG - Current transaction state - TRANSACTION_COMPLETE
2022-07-21 11:31:10,571 pymodbus.transaction - DEBUG - Running transaction 47
2022-07-21 11:31:10,571 pymodbus.transaction - DEBUG - SEND: 0x0 0x2f 0x0 0x0 0x0 0x6 0x2 0x3 0x0 0x22 0x0 0x2
2022-07-21 11:31:10,571 pymodbus.client.sync - DEBUG - New Transaction state 'SENDING'
2022-07-21 11:31:10,572 pymodbus.transaction - DEBUG - Changing transaction state from 'SENDING' to 'WAITING FOR REPLY'
2022-07-21 11:31:10,602 pymodbus.transaction - DEBUG - Changing transaction state from 'WAITING FOR REPLY' to 'PROCESSING REPLY'
2022-07-21 11:31:10,602 pymodbus.transaction - DEBUG - RECV: 0x0 0x2f 0x0 0x0 0x0 0x7 0x2 0x3 0x4 0x0 0x0 0x0 0x0
2022-07-21 11:31:10,602 pymodbus.framer.socket_framer - DEBUG - Processing: 0x0 0x2f 0x0 0x0 0x0 0x7 0x2 0x3 0x4 0x0 0x0 0x0 0x0
2022-07-21 11:31:10,602 pymodbus.factory - DEBUG - Factory Response[ReadHoldingRegistersResponse: 3]
2022-07-21 11:31:10,602 pymodbus.transaction - DEBUG - Adding transaction 47
2022-07-21 11:31:10,602 pymodbus.transaction - DEBUG - Getting transaction 47
2022-07-21 11:31:10,602 pymodbus.transaction - DEBUG - Changing transaction state from 'PROCESSING REPLY' to 'TRANSACTION_COMPLETE'
2022-07-21 11:31:10,602 pymodbus.transaction - DEBUG - Current transaction state - TRANSACTION_COMPLETE
2022-07-21 11:31:10,602 pymodbus.transaction - DEBUG - Running transaction 48
2022-07-21 11:31:10,602 pymodbus.transaction - DEBUG - SEND: 0x0 0x30 0x0 0x0 0x0 0x6 0x2 0x3 0x0 0x24 0x0 0x2
2022-07-21 11:31:10,603 pymodbus.client.sync - DEBUG - New Transaction state 'SENDING'
2022-07-21 11:31:10,603 pymodbus.transaction - DEBUG - Changing transaction state from 'SENDING' to 'WAITING FOR REPLY'
2022-07-21 11:31:10,633 pymodbus.transaction - DEBUG - Changing transaction state from 'WAITING FOR REPLY' to 'PROCESSING REPLY'
2022-07-21 11:31:10,633 pymodbus.transaction - DEBUG - RECV: 0x0 0x30 0x0 0x0 0x0 0x7 0x2 0x3 0x4 0x0 0x0 0x0 0x0
2022-07-21 11:31:10,633 pymodbus.framer.socket_framer - DEBUG - Processing: 0x0 0x30 0x0 0x0 0x0 0x7 0x2 0x3 0x4 0x0 0x0 0x0 0x0
2022-07-21 11:31:10,633 pymodbus.factory - DEBUG - Factory Response[ReadHoldingRegistersResponse: 3]
2022-07-21 11:31:10,633 pymodbus.transaction - DEBUG - Adding transaction 48
2022-07-21 11:31:10,633 pymodbus.transaction - DEBUG - Getting transaction 48
2022-07-21 11:31:10,633 pymodbus.transaction - DEBUG - Changing transaction state from 'PROCESSING REPLY' to 'TRANSACTION_COMPLETE'
2022-07-21 11:31:10,633 pymodbus.transaction - DEBUG - Current transaction state - TRANSACTION_COMPLETE
2022-07-21 11:31:10,634 pymodbus.transaction - DEBUG - Running transaction 49
2022-07-21 11:31:10,634 pymodbus.transaction - DEBUG - SEND: 0x0 0x31 0x0 0x0 0x0 0x6 0x2 0x3 0x0 0x26 0x0 0x2
2022-07-21 11:31:10,634 pymodbus.client.sync - DEBUG - New Transaction state 'SENDING'
2022-07-21 11:31:10,634 pymodbus.transaction - DEBUG - Changing transaction state from 'SENDING' to 'WAITING FOR REPLY'
2022-07-21 11:31:10,664 pymodbus.transaction - DEBUG - Changing transaction state from 'WAITING FOR REPLY' to 'PROCESSING REPLY'
2022-07-21 11:31:10,664 pymodbus.transaction - DEBUG - RECV: 0x0 0x31 0x0 0x0 0x0 0x7 0x2 0x3 0x4 0x0 0x0 0x0 0x0
2022-07-21 11:31:10,665 pymodbus.framer.socket_framer - DEBUG - Processing: 0x0 0x31 0x0 0x0 0x0 0x7 0x2 0x3 0x4 0x0 0x0 0x0 0x0
2022-07-21 11:31:10,665 pymodbus.factory - DEBUG - Factory Response[ReadHoldingRegistersResponse: 3]
2022-07-21 11:31:10,665 pymodbus.transaction - DEBUG - Adding transaction 49
2022-07-21 11:31:10,665 pymodbus.transaction - DEBUG - Getting transaction 49
2022-07-21 11:31:10,665 pymodbus.transaction - DEBUG - Changing transaction state from 'PROCESSING REPLY' to 'TRANSACTION_COMPLETE'
2022-07-21 11:31:10,665 pymodbus.transaction - DEBUG - Current transaction state - TRANSACTION_COMPLETE
2022-07-21 11:31:10,665 pymodbus.transaction - DEBUG - Running transaction 50
2022-07-21 11:31:10,665 pymodbus.transaction - DEBUG - SEND: 0x0 0x32 0x0 0x0 0x0 0x6 0x2 0x3 0x0 0x28 0x0 0x2
2022-07-21 11:31:10,666 pymodbus.client.sync - DEBUG - New Transaction state 'SENDING'
2022-07-21 11:31:10,666 pymodbus.transaction - DEBUG - Changing transaction state from 'SENDING' to 'WAITING FOR REPLY'
2022-07-21 11:31:10,694 pymodbus.transaction - DEBUG - Changing transaction state from 'WAITING FOR REPLY' to 'PROCESSING REPLY'
2022-07-21 11:31:10,694 pymodbus.transaction - DEBUG - RECV: 0x0 0x32 0x0 0x0 0x0 0x7 0x2 0x3 0x4 0x0 0x0 0x0 0x0
2022-07-21 11:31:10,694 pymodbus.framer.socket_framer - DEBUG - Processing: 0x0 0x32 0x0 0x0 0x0 0x7 0x2 0x3 0x4 0x0 0x0 0x0 0x0
2022-07-21 11:31:10,695 pymodbus.factory - DEBUG - Factory Response[ReadHoldingRegistersResponse: 3]
2022-07-21 11:31:10,695 pymodbus.transaction - DEBUG - Adding transaction 50
2022-07-21 11:31:10,695 pymodbus.transaction - DEBUG - Getting transaction 50
2022-07-21 11:31:10,695 pymodbus.transaction - DEBUG - Changing transaction state from 'PROCESSING REPLY' to 'TRANSACTION_COMPLETE'
2022-07-21 11:31:10,695 pymodbus.transaction - DEBUG - Current transaction state - TRANSACTION_COMPLETE
2022-07-21 11:31:10,695 pymodbus.transaction - DEBUG - Running transaction 51
2022-07-21 11:31:10,695 pymodbus.transaction - DEBUG - SEND: 0x0 0x33 0x0 0x0 0x0 0x6 0x2 0x3 0x0 0x2a 0x0 0x2
2022-07-21 11:31:10,696 pymodbus.client.sync - DEBUG - New Transaction state 'SENDING'
2022-07-21 11:31:10,696 pymodbus.transaction - DEBUG - Changing transaction state from 'SENDING' to 'WAITING FOR REPLY'
2022-07-21 11:31:10,725 pymodbus.transaction - DEBUG - Changing transaction state from 'WAITING FOR REPLY' to 'PROCESSING REPLY'
2022-07-21 11:31:10,726 pymodbus.transaction - DEBUG - RECV: 0x0 0x33 0x0 0x0 0x0 0x7 0x2 0x3 0x4 0x0 0x0 0x0 0x0
2022-07-21 11:31:10,726 pymodbus.framer.socket_framer - DEBUG - Processing: 0x0 0x33 0x0 0x0 0x0 0x7 0x2 0x3 0x4 0x0 0x0 0x0 0x0
2022-07-21 11:31:10,726 pymodbus.factory - DEBUG - Factory Response[ReadHoldingRegistersResponse: 3]
2022-07-21 11:31:10,726 pymodbus.transaction - DEBUG - Adding transaction 51
2022-07-21 11:31:10,726 pymodbus.transaction - DEBUG - Getting transaction 51
2022-07-21 11:31:10,726 pymodbus.transaction - DEBUG - Changing transaction state from 'PROCESSING REPLY' to 'TRANSACTION_COMPLETE'
2022-07-21 11:31:10,726 pymodbus.transaction - DEBUG - Current transaction state - TRANSACTION_COMPLETE
2022-07-21 11:31:10,727 pymodbus.transaction - DEBUG - Running transaction 52
2022-07-21 11:31:10,727 pymodbus.transaction - DEBUG - SEND: 0x0 0x34 0x0 0x0 0x0 0x6 0x2 0x3 0x0 0x2c 0x0 0x2
2022-07-21 11:31:10,727 pymodbus.client.sync - DEBUG - New Transaction state 'SENDING'
2022-07-21 11:31:10,727 pymodbus.transaction - DEBUG - Changing transaction state from 'SENDING' to 'WAITING FOR REPLY'
2022-07-21 11:31:10,757 pymodbus.transaction - DEBUG - Changing transaction state from 'WAITING FOR REPLY' to 'PROCESSING REPLY'
2022-07-21 11:31:10,758 pymodbus.transaction - DEBUG - RECV: 0x0 0x34 0x0 0x0 0x0 0x7 0x2 0x3 0x4 0x0 0x0 0x0 0x0
2022-07-21 11:31:10,758 pymodbus.framer.socket_framer - DEBUG - Processing: 0x0 0x34 0x0 0x0 0x0 0x7 0x2 0x3 0x4 0x0 0x0 0x0 0x0
2022-07-21 11:31:10,759 pymodbus.factory - DEBUG - Factory Response[ReadHoldingRegistersResponse: 3]
2022-07-21 11:31:10,759 pymodbus.transaction - DEBUG - Adding transaction 52
2022-07-21 11:31:10,759 pymodbus.transaction - DEBUG - Getting transaction 52
2022-07-21 11:31:10,759 pymodbus.transaction - DEBUG - Changing transaction state from 'PROCESSING REPLY' to 'TRANSACTION_COMPLETE'
2022-07-21 11:31:10,759 pymodbus.transaction - DEBUG - Current transaction state - TRANSACTION_COMPLETE
2022-07-21 11:31:10,759 pymodbus.transaction - DEBUG - Running transaction 53
2022-07-21 11:31:10,760 pymodbus.transaction - DEBUG - SEND: 0x0 0x35 0x0 0x0 0x0 0x6 0x2 0x3 0x0 0x2e 0x0 0x2
2022-07-21 11:31:10,760 pymodbus.client.sync - DEBUG - New Transaction state 'SENDING'
2022-07-21 11:31:10,760 pymodbus.transaction - DEBUG - Changing transaction state from 'SENDING' to 'WAITING FOR REPLY'
2022-07-21 11:31:10,788 pymodbus.transaction - DEBUG - Changing transaction state from 'WAITING FOR REPLY' to 'PROCESSING REPLY'
2022-07-21 11:31:10,789 pymodbus.transaction - DEBUG - RECV: 0x0 0x35 0x0 0x0 0x0 0x7 0x2 0x3 0x4 0x0 0x0 0x0 0x0
2022-07-21 11:31:10,789 pymodbus.framer.socket_framer - DEBUG - Processing: 0x0 0x35 0x0 0x0 0x0 0x7 0x2 0x3 0x4 0x0 0x0 0x0 0x0
2022-07-21 11:31:10,789 pymodbus.factory - DEBUG - Factory Response[ReadHoldingRegistersResponse: 3]
2022-07-21 11:31:10,789 pymodbus.transaction - DEBUG - Adding transaction 53
2022-07-21 11:31:10,789 pymodbus.transaction - DEBUG - Getting transaction 53
2022-07-21 11:31:10,789 pymodbus.transaction - DEBUG - Changing transaction state from 'PROCESSING REPLY' to 'TRANSACTION_COMPLETE'
2022-07-21 11:31:10,789 pymodbus.transaction - DEBUG - Current transaction state - TRANSACTION_COMPLETE
2022-07-21 11:31:10,789 pymodbus.transaction - DEBUG - Running transaction 54
2022-07-21 11:31:10,789 pymodbus.transaction - DEBUG - SEND: 0x0 0x36 0x0 0x0 0x0 0x6 0x2 0x3 0x0 0x30 0x0 0x2
2022-07-21 11:31:10,789 pymodbus.client.sync - DEBUG - New Transaction state 'SENDING'
2022-07-21 11:31:10,789 pymodbus.transaction - DEBUG - Changing transaction state from 'SENDING' to 'WAITING FOR REPLY'
2022-07-21 11:31:10,818 pymodbus.transaction - DEBUG - Changing transaction state from 'WAITING FOR REPLY' to 'PROCESSING REPLY'
2022-07-21 11:31:10,818 pymodbus.transaction - DEBUG - RECV: 0x0 0x36 0x0 0x0 0x0 0x7 0x2 0x3 0x4 0x0 0x0 0x0 0x0
2022-07-21 11:31:10,818 pymodbus.framer.socket_framer - DEBUG - Processing: 0x0 0x36 0x0 0x0 0x0 0x7 0x2 0x3 0x4 0x0 0x0 0x0 0x0
2022-07-21 11:31:10,819 pymodbus.factory - DEBUG - Factory Response[ReadHoldingRegistersResponse: 3]
2022-07-21 11:31:10,819 pymodbus.transaction - DEBUG - Adding transaction 54
2022-07-21 11:31:10,819 pymodbus.transaction - DEBUG - Getting transaction 54
2022-07-21 11:31:10,819 pymodbus.transaction - DEBUG - Changing transaction state from 'PROCESSING REPLY' to 'TRANSACTION_COMPLETE'
2022-07-21 11:31:10,819 pymodbus.transaction - DEBUG - Current transaction state - TRANSACTION_COMPLETE
2022-07-21 11:31:10,819 pymodbus.transaction - DEBUG - Running transaction 55
2022-07-21 11:31:10,819 pymodbus.transaction - DEBUG - SEND: 0x0 0x37 0x0 0x0 0x0 0x6 0x2 0x3 0x0 0x32 0x0 0x2
2022-07-21 11:31:10,819 pymodbus.client.sync - DEBUG - New Transaction state 'SENDING'
2022-07-21 11:31:10,819 pymodbus.transaction - DEBUG - Changing transaction state from 'SENDING' to 'WAITING FOR REPLY'
2022-07-21 11:31:10,849 pymodbus.transaction - DEBUG - Changing transaction state from 'WAITING FOR REPLY' to 'PROCESSING REPLY'
2022-07-21 11:31:10,849 pymodbus.transaction - DEBUG - RECV: 0x0 0x37 0x0 0x0 0x0 0x7 0x2 0x3 0x4 0x0 0x0 0x0 0x0
2022-07-21 11:31:10,850 pymodbus.framer.socket_framer - DEBUG - Processing: 0x0 0x37 0x0 0x0 0x0 0x7 0x2 0x3 0x4 0x0 0x0 0x0 0x0
2022-07-21 11:31:10,850 pymodbus.factory - DEBUG - Factory Response[ReadHoldingRegistersResponse: 3]
2022-07-21 11:31:10,850 pymodbus.transaction - DEBUG - Adding transaction 55
2022-07-21 11:31:10,850 pymodbus.transaction - DEBUG - Getting transaction 55
2022-07-21 11:31:10,850 pymodbus.transaction - DEBUG - Changing transaction state from 'PROCESSING REPLY' to 'TRANSACTION_COMPLETE'
2022-07-21 11:31:10,850 pymodbus.transaction - DEBUG - Current transaction state - TRANSACTION_COMPLETE
2022-07-21 11:31:10,850 pymodbus.transaction - DEBUG - Running transaction 56
2022-07-21 11:31:10,850 pymodbus.transaction - DEBUG - SEND: 0x0 0x38 0x0 0x0 0x0 0x6 0x2 0x3 0x0 0x34 0x0 0x2
2022-07-21 11:31:10,850 pymodbus.client.sync - DEBUG - New Transaction state 'SENDING'
2022-07-21 11:31:10,850 pymodbus.transaction - DEBUG - Changing transaction state from 'SENDING' to 'WAITING FOR REPLY'
2022-07-21 11:31:10,882 pymodbus.transaction - DEBUG - Changing transaction state from 'WAITING FOR REPLY' to 'PROCESSING REPLY'
2022-07-21 11:31:10,882 pymodbus.transaction - DEBUG - RECV: 0x0 0x38 0x0 0x0 0x0 0x7 0x2 0x3 0x4 0x0 0x0 0x0 0x0
2022-07-21 11:31:10,882 pymodbus.framer.socket_framer - DEBUG - Processing: 0x0 0x38 0x0 0x0 0x0 0x7 0x2 0x3 0x4 0x0 0x0 0x0 0x0
2022-07-21 11:31:10,882 pymodbus.factory - DEBUG - Factory Response[ReadHoldingRegistersResponse: 3]
2022-07-21 11:31:10,882 pymodbus.transaction - DEBUG - Adding transaction 56
2022-07-21 11:31:10,882 pymodbus.transaction - DEBUG - Getting transaction 56
2022-07-21 11:31:10,883 pymodbus.transaction - DEBUG - Changing transaction state from 'PROCESSING REPLY' to 'TRANSACTION_COMPLETE'
2022-07-21 11:31:10,883 pymodbus.transaction - DEBUG - Current transaction state - TRANSACTION_COMPLETE
2022-07-21 11:31:10,883 pymodbus.transaction - DEBUG - Running transaction 57
2022-07-21 11:31:10,883 pymodbus.transaction - DEBUG - SEND: 0x0 0x39 0x0 0x0 0x0 0x6 0x2 0x3 0x0 0x36 0x0 0x2
2022-07-21 11:31:10,883 pymodbus.client.sync - DEBUG - New Transaction state 'SENDING'
2022-07-21 11:31:10,883 pymodbus.transaction - DEBUG - Changing transaction state from 'SENDING' to 'WAITING FOR REPLY'
2022-07-21 11:31:10,912 pymodbus.transaction - DEBUG - Changing transaction state from 'WAITING FOR REPLY' to 'PROCESSING REPLY'
2022-07-21 11:31:10,913 pymodbus.transaction - DEBUG - RECV: 0x0 0x39 0x0 0x0 0x0 0x7 0x2 0x3 0x4 0x0 0x0 0x0 0x0
2022-07-21 11:31:10,913 pymodbus.framer.socket_framer - DEBUG - Processing: 0x0 0x39 0x0 0x0 0x0 0x7 0x2 0x3 0x4 0x0 0x0 0x0 0x0
2022-07-21 11:31:10,913 pymodbus.factory - DEBUG - Factory Response[ReadHoldingRegistersResponse: 3]
2022-07-21 11:31:10,913 pymodbus.transaction - DEBUG - Adding transaction 57
2022-07-21 11:31:10,913 pymodbus.transaction - DEBUG - Getting transaction 57
2022-07-21 11:31:10,913 pymodbus.transaction - DEBUG - Changing transaction state from 'PROCESSING REPLY' to 'TRANSACTION_COMPLETE'
2022-07-21 11:31:10,913 pymodbus.transaction - DEBUG - Current transaction state - TRANSACTION_COMPLETE
2022-07-21 11:31:10,913 pymodbus.transaction - DEBUG - Running transaction 58
2022-07-21 11:31:10,914 pymodbus.transaction - DEBUG - SEND: 0x0 0x3a 0x0 0x0 0x0 0x6 0x2 0x3 0x0 0x38 0x0 0x2
2022-07-21 11:31:10,914 pymodbus.client.sync - DEBUG - New Transaction state 'SENDING'
2022-07-21 11:31:10,914 pymodbus.transaction - DEBUG - Changing transaction state from 'SENDING' to 'WAITING FOR REPLY'
2022-07-21 11:31:10,944 pymodbus.transaction - DEBUG - Changing transaction state from 'WAITING FOR REPLY' to 'PROCESSING REPLY'
2022-07-21 11:31:10,945 pymodbus.transaction - DEBUG - RECV: 0x0 0x3a 0x0 0x0 0x0 0x7 0x2 0x3 0x4 0x0 0x0 0x0 0x0
2022-07-21 11:31:10,945 pymodbus.framer.socket_framer - DEBUG - Processing: 0x0 0x3a 0x0 0x0 0x0 0x7 0x2 0x3 0x4 0x0 0x0 0x0 0x0
2022-07-21 11:31:10,945 pymodbus.factory - DEBUG - Factory Response[ReadHoldingRegistersResponse: 3]
2022-07-21 11:31:10,945 pymodbus.transaction - DEBUG - Adding transaction 58
2022-07-21 11:31:10,945 pymodbus.transaction - DEBUG - Getting transaction 58
2022-07-21 11:31:10,945 pymodbus.transaction - DEBUG - Changing transaction state from 'PROCESSING REPLY' to 'TRANSACTION_COMPLETE'
2022-07-21 11:31:10,945 pymodbus.transaction - DEBUG - Current transaction state - TRANSACTION_COMPLETE
2022-07-21 11:31:10,945 pymodbus.transaction - DEBUG - Running transaction 59
2022-07-21 11:31:10,946 pymodbus.transaction - DEBUG - SEND: 0x0 0x3b 0x0 0x0 0x0 0x6 0x2 0x3 0x0 0x3a 0x0 0x2
2022-07-21 11:31:10,946 pymodbus.client.sync - DEBUG - New Transaction state 'SENDING'
2022-07-21 11:31:10,946 pymodbus.transaction - DEBUG - Changing transaction state from 'SENDING' to 'WAITING FOR REPLY'
2022-07-21 11:31:10,977 pymodbus.transaction - DEBUG - Changing transaction state from 'WAITING FOR REPLY' to 'PROCESSING REPLY'
2022-07-21 11:31:10,977 pymodbus.transaction - DEBUG - RECV: 0x0 0x3b 0x0 0x0 0x0 0x7 0x2 0x3 0x4 0x0 0x0 0x0 0x0
2022-07-21 11:31:10,977 pymodbus.framer.socket_framer - DEBUG - Processing: 0x0 0x3b 0x0 0x0 0x0 0x7 0x2 0x3 0x4 0x0 0x0 0x0 0x0
2022-07-21 11:31:10,977 pymodbus.factory - DEBUG - Factory Response[ReadHoldingRegistersResponse: 3]
2022-07-21 11:31:10,977 pymodbus.transaction - DEBUG - Adding transaction 59
2022-07-21 11:31:10,977 pymodbus.transaction - DEBUG - Getting transaction 59
2022-07-21 11:31:10,977 pymodbus.transaction - DEBUG - Changing transaction state from 'PROCESSING REPLY' to 'TRANSACTION_COMPLETE'
2022-07-21 11:31:10,977 pymodbus.transaction - DEBUG - Current transaction state - TRANSACTION_COMPLETE
2022-07-21 11:31:10,977 pymodbus.transaction - DEBUG - Running transaction 60
2022-07-21 11:31:10,977 pymodbus.transaction - DEBUG - SEND: 0x0 0x3c 0x0 0x0 0x0 0x6 0x2 0x3 0x0 0x3c 0x0 0x2
2022-07-21 11:31:10,977 pymodbus.client.sync - DEBUG - New Transaction state 'SENDING'
2022-07-21 11:31:10,977 pymodbus.transaction - DEBUG - Changing transaction state from 'SENDING' to 'WAITING FOR REPLY'
2022-07-21 11:31:11,008 pymodbus.transaction - DEBUG - Changing transaction state from 'WAITING FOR REPLY' to 'PROCESSING REPLY'
2022-07-21 11:31:11,008 pymodbus.transaction - DEBUG - RECV: 0x0 0x3c 0x0 0x0 0x0 0x7 0x2 0x3 0x4 0x0 0x0 0x0 0x0
2022-07-21 11:31:11,008 pymodbus.framer.socket_framer - DEBUG - Processing: 0x0 0x3c 0x0 0x0 0x0 0x7 0x2 0x3 0x4 0x0 0x0 0x0 0x0
2022-07-21 11:31:11,009 pymodbus.factory - DEBUG - Factory Response[ReadHoldingRegistersResponse: 3]
2022-07-21 11:31:11,009 pymodbus.transaction - DEBUG - Adding transaction 60
2022-07-21 11:31:11,009 pymodbus.transaction - DEBUG - Getting transaction 60
2022-07-21 11:31:11,009 pymodbus.transaction - DEBUG - Changing transaction state from 'PROCESSING REPLY' to 'TRANSACTION_COMPLETE'
2022-07-21 11:31:11,009 pymodbus.transaction - DEBUG - Current transaction state - TRANSACTION_COMPLETE
2022-07-21 11:31:11,009 pymodbus.transaction - DEBUG - Running transaction 61
2022-07-21 11:31:11,009 pymodbus.transaction - DEBUG - SEND: 0x0 0x3d 0x0 0x0 0x0 0x6 0x2 0x3 0x0 0x40 0x0 0x2
2022-07-21 11:31:11,009 pymodbus.client.sync - DEBUG - New Transaction state 'SENDING'
2022-07-21 11:31:11,009 pymodbus.transaction - DEBUG - Changing transaction state from 'SENDING' to 'WAITING FOR REPLY'
2022-07-21 11:31:11,039 pymodbus.transaction - DEBUG - Changing transaction state from 'WAITING FOR REPLY' to 'PROCESSING REPLY'
2022-07-21 11:31:11,040 pymodbus.transaction - DEBUG - RECV: 0x0 0x3d 0x0 0x0 0x0 0x7 0x2 0x3 0x4 0x0 0x0 0x0 0x0
2022-07-21 11:31:11,040 pymodbus.framer.socket_framer - DEBUG - Processing: 0x0 0x3d 0x0 0x0 0x0 0x7 0x2 0x3 0x4 0x0 0x0 0x0 0x0
2022-07-21 11:31:11,040 pymodbus.factory - DEBUG - Factory Response[ReadHoldingRegistersResponse: 3]
2022-07-21 11:31:11,040 pymodbus.transaction - DEBUG - Adding transaction 61
2022-07-21 11:31:11,040 pymodbus.transaction - DEBUG - Getting transaction 61
2022-07-21 11:31:11,040 pymodbus.transaction - DEBUG - Changing transaction state from 'PROCESSING REPLY' to 'TRANSACTION_COMPLETE'
2022-07-21 11:31:11,040 pymodbus.transaction - DEBUG - Current transaction state - TRANSACTION_COMPLETE
2022-07-21 11:31:11,040 pymodbus.transaction - DEBUG - Running transaction 62
2022-07-21 11:31:11,040 pymodbus.transaction - DEBUG - SEND: 0x0 0x3e 0x0 0x0 0x0 0x6 0x2 0x3 0x0 0x3e 0x0 0x2
2022-07-21 11:31:11,040 pymodbus.client.sync - DEBUG - New Transaction state 'SENDING'
2022-07-21 11:31:11,041 pymodbus.transaction - DEBUG - Changing transaction state from 'SENDING' to 'WAITING FOR REPLY'
2022-07-21 11:31:11,070 pymodbus.transaction - DEBUG - Changing transaction state from 'WAITING FOR REPLY' to 'PROCESSING REPLY'
2022-07-21 11:31:11,070 pymodbus.transaction - DEBUG - RECV: 0x0 0x3e 0x0 0x0 0x0 0x7 0x2 0x3 0x4 0x0 0x0 0x0 0x0
2022-07-21 11:31:11,071 pymodbus.framer.socket_framer - DEBUG - Processing: 0x0 0x3e 0x0 0x0 0x0 0x7 0x2 0x3 0x4 0x0 0x0 0x0 0x0
2022-07-21 11:31:11,071 pymodbus.factory - DEBUG - Factory Response[ReadHoldingRegistersResponse: 3]
2022-07-21 11:31:11,071 pymodbus.transaction - DEBUG - Adding transaction 62
2022-07-21 11:31:11,071 pymodbus.transaction - DEBUG - Getting transaction 62
2022-07-21 11:31:11,071 pymodbus.transaction - DEBUG - Changing transaction state from 'PROCESSING REPLY' to 'TRANSACTION_COMPLETE'
2022-07-21 11:31:11,071 log1 - DEBUG - Reading Register Complete
2022-07-21 11:31:11,078 log1 - DEBUG - Posting Data to DB
2022-07-21 11:31:11,083 urllib3.connectionpool - DEBUG - Resetting dropped connection: 192.168.1.36
2022-07-21 11:31:11,103 urllib3.connectionpool - DEBUG - http://192.168.1.36:4000 "POST /data HTTP/1.1" 200 847
2022-07-21 11:31:11,104 root - DEBUG - {"timestamp":"2022-07-21T03:31:10.118Z","primary_positive_pump":23,"primary_negative_pump":4,"system_mode":0,"system_alarm_status":0,"balancing_valve":0,"positive_valve":0,"negative_valve":0,"state_of_charge":0,"bcu_mode_status":0,"bcu_voltage":0,"bcu_current":0,"bcu_power":0,"bcu_state_of_charge":0,"bcu_hydrogen_sensor":0,"bcu_leakage_sensor":0,"smoke_sensor":0,"bcu_ocv":0,"bcu_positive_tank_temp":0,"bcu_negative_tank_temp":0,"positive_tank_high_level_float":0,"negative_tank_high_level_float":0,"positive_tank_low_level_float":0,"negative_tank_low_level_float":0,"primary_stack_voltage":0,"primary_stack_current":0,"primary_stack_positive_pressure_sensor":0,"primary_stack_negative_pressure_sensor":0,"positive_stack_pressure_delta":0,"b1_primary_stack_pressure_delta":0,"sensor_temp":0,"humidity":0,"_id":"62d8c87fad3a3eac12b5d0b5","__v":0}
2022-07-21 11:31:11,104 log1 - DEBUG - {'timestamp': '2022-07-21 11:31:10.118000', 'dc_main_contactor': 1.0, 'stk1_contactor': 80.0, 'primary_positive_pump': 23.0, 'primary_negative_pump': 4.0, 'system_mode': 0, 'system_alarm_status': 0, 'balancing_valve': 0.0, 'positive_valve': 0.0, 'negative_valve': 0.0, 'state_of_charge': 0.0, 'bcu_mode_status': 0.0, 'bcu_voltage': 0.0, 'bcu_current': 0.0, 'bcu_power': 0.0, 'bcu_state_of_charge': 0.0, 'bcu_hydrogen_sensor': 0.0, 'bcu_leakage_sensor': 0.0, 'smoke_sensor': 0.0, 'bcu_ocv': 0.0, 'bcu_positive_tank_temp': 0.0, 'bcu_negative_tank_temp': 0.0, 'positive_tank_high_level_float': 0.0, 'negative_tank_high_level_float': 0.0, 'positive_tank_low_level_float': 0.0, 'negative_tank_low_level_float': 0.0, 'primary_stack_voltage': 0.0, 'primary_stack_current': 0.0, 'primary_stack_positive_pressure_sensor': 0.0, 'primary_stack_negative_pressure_sensor': 0.0, 'positive_stack_pressure_delta': 0.0, 'b1_primary_stack_pressure_delta': 0.0, 'sensor_temp': 0.0, 'humidity': 0.0, 'bms_timestamp': 0, 'plc_alarm_status_1': 0}
2022-07-21 11:31:11,107 log1 - DEBUG - POST Complete
2022-07-21 11:31:16,123 root - DEBUG - Reading Registers
2022-07-21 11:31:16,123 log1 - DEBUG - Reading Registers
2022-07-21 11:31:16,125 pymodbus.transaction - DEBUG - Current transaction state - TRANSACTION_COMPLETE
2022-07-21 11:31:16,125 pymodbus.transaction - DEBUG - Running transaction 63
2022-07-21 11:31:16,125 pymodbus.transaction - DEBUG - SEND: 0x0 0x3f 0x0 0x0 0x0 0x6 0x2 0x3 0x0 0x0 0x0 0x2
2022-07-21 11:31:16,125 pymodbus.client.sync - DEBUG - New Transaction state 'SENDING'
2022-07-21 11:31:16,125 pymodbus.transaction - DEBUG - Changing transaction state from 'SENDING' to 'WAITING FOR REPLY'
2022-07-21 11:31:16,139 pymodbus.transaction - DEBUG - Changing transaction state from 'WAITING FOR REPLY' to 'PROCESSING REPLY'
2022-07-21 11:31:16,139 pymodbus.transaction - DEBUG - RECV: 0x0 0x3f 0x0 0x0 0x0 0x7 0x2 0x3 0x4 0x0 0x1 0x0 0x1
2022-07-21 11:31:16,139 pymodbus.framer.socket_framer - DEBUG - Processing: 0x0 0x3f 0x0 0x0 0x0 0x7 0x2 0x3 0x4 0x0 0x1 0x0 0x1
2022-07-21 11:31:16,139 pymodbus.factory - DEBUG - Factory Response[ReadHoldingRegistersResponse: 3]
2022-07-21 11:31:16,140 pymodbus.transaction - DEBUG - Adding transaction 63
2022-07-21 11:31:16,140 pymodbus.transaction - DEBUG - Getting transaction 63
2022-07-21 11:31:16,140 pymodbus.transaction - DEBUG - Changing transaction state from 'PROCESSING REPLY' to 'TRANSACTION_COMPLETE'
2022-07-21 11:31:16,140 pymodbus.transaction - DEBUG - Current transaction state - TRANSACTION_COMPLETE
2022-07-21 11:31:16,140 pymodbus.transaction - DEBUG - Running transaction 64
2022-07-21 11:31:16,140 pymodbus.transaction - DEBUG - SEND: 0x0 0x40 0x0 0x0 0x0 0x6 0x2 0x3 0x0 0x2 0x0 0x2
2022-07-21 11:31:16,140 pymodbus.client.sync - DEBUG - New Transaction state 'SENDING'
2022-07-21 11:31:16,140 pymodbus.transaction - DEBUG - Changing transaction state from 'SENDING' to 'WAITING FOR REPLY'
2022-07-21 11:31:16,169 pymodbus.transaction - DEBUG - Changing transaction state from 'WAITING FOR REPLY' to 'PROCESSING REPLY'
2022-07-21 11:31:16,169 pymodbus.transaction - DEBUG - RECV: 0x0 0x40 0x0 0x0 0x0 0x7 0x2 0x3 0x4 0x0 0x0 0x0 0x50
2022-07-21 11:31:16,169 pymodbus.framer.socket_framer - DEBUG - Processing: 0x0 0x40 0x0 0x0 0x0 0x7 0x2 0x3 0x4 0x0 0x0 0x0 0x50
2022-07-21 11:31:16,169 pymodbus.factory - DEBUG - Factory Response[ReadHoldingRegistersResponse: 3]
2022-07-21 11:31:16,170 pymodbus.transaction - DEBUG - Adding transaction 64
2022-07-21 11:31:16,170 pymodbus.transaction - DEBUG - Getting transaction 64
2022-07-21 11:31:16,170 pymodbus.transaction - DEBUG - Changing transaction state from 'PROCESSING REPLY' to 'TRANSACTION_COMPLETE'
2022-07-21 11:31:16,170 pymodbus.transaction - DEBUG - Current transaction state - TRANSACTION_COMPLETE
2022-07-21 11:31:16,170 pymodbus.transaction - DEBUG - Running transaction 65
2022-07-21 11:31:16,170 pymodbus.transaction - DEBUG - SEND: 0x0 0x41 0x0 0x0 0x0 0x6 0x2 0x3 0x0 0x4 0x0 0x2
2022-07-21 11:31:16,170 pymodbus.client.sync - DEBUG - New Transaction state 'SENDING'
2022-07-21 11:31:16,170 pymodbus.transaction - DEBUG - Changing transaction state from 'SENDING' to 'WAITING FOR REPLY'
2022-07-21 11:31:16,201 pymodbus.transaction - DEBUG - Changing transaction state from 'WAITING FOR REPLY' to 'PROCESSING REPLY'
2022-07-21 11:31:16,202 pymodbus.transaction - DEBUG - RECV: 0x0 0x41 0x0 0x0 0x0 0x7 0x2 0x3 0x4 0x0 0x0 0x0 0x17
2022-07-21 11:31:16,202 pymodbus.framer.socket_framer - DEBUG - Processing: 0x0 0x41 0x0 0x0 0x0 0x7 0x2 0x3 0x4 0x0 0x0 0x0 0x17
2022-07-21 11:31:16,202 pymodbus.factory - DEBUG - Factory Response[ReadHoldingRegistersResponse: 3]
2022-07-21 11:31:16,202 pymodbus.transaction - DEBUG - Adding transaction 65
2022-07-21 11:31:16,202 pymodbus.transaction - DEBUG - Getting transaction 65
2022-07-21 11:31:16,203 pymodbus.transaction - DEBUG - Changing transaction state from 'PROCESSING REPLY' to 'TRANSACTION_COMPLETE'
2022-07-21 11:31:16,203 pymodbus.transaction - DEBUG - Current transaction state - TRANSACTION_COMPLETE
2022-07-21 11:31:16,203 pymodbus.transaction - DEBUG - Running transaction 66
2022-07-21 11:31:16,203 pymodbus.transaction - DEBUG - SEND: 0x0 0x42 0x0 0x0 0x0 0x6 0x2 0x3 0x0 0x6 0x0 0x2
2022-07-21 11:31:16,203 pymodbus.client.sync - DEBUG - New Transaction state 'SENDING'
2022-07-21 11:31:16,203 pymodbus.transaction - DEBUG - Changing transaction state from 'SENDING' to 'WAITING FOR REPLY'
2022-07-21 11:31:16,232 pymodbus.transaction - DEBUG - Changing transaction state from 'WAITING FOR REPLY' to 'PROCESSING REPLY'
2022-07-21 11:31:16,232 pymodbus.transaction - DEBUG - RECV: 0x0 0x42 0x0 0x0 0x0 0x7 0x2 0x3 0x4 0x0 0x0 0x0 0x4
2022-07-21 11:31:16,232 pymodbus.framer.socket_framer - DEBUG - Processing: 0x0 0x42 0x0 0x0 0x0 0x7 0x2 0x3 0x4 0x0 0x0 0x0 0x4
2022-07-21 11:31:16,232 pymodbus.factory - DEBUG - Factory Response[ReadHoldingRegistersResponse: 3]
2022-07-21 11:31:16,232 pymodbus.transaction - DEBUG - Adding transaction 66
2022-07-21 11:31:16,232 pymodbus.transaction - DEBUG - Getting transaction 66
2022-07-21 11:31:16,232 pymodbus.transaction - DEBUG - Changing transaction state from 'PROCESSING REPLY' to 'TRANSACTION_COMPLETE'
2022-07-21 11:31:16,233 pymodbus.transaction - DEBUG - Current transaction state - TRANSACTION_COMPLETE
2022-07-21 11:31:16,233 pymodbus.transaction - DEBUG - Running transaction 67
2022-07-21 11:31:16,233 pymodbus.transaction - DEBUG - SEND: 0x0 0x43 0x0 0x0 0x0 0x6 0x2 0x3 0x0 0xc 0x0 0x2
2022-07-21 11:31:16,233 pymodbus.client.sync - DEBUG - New Transaction state 'SENDING'
2022-07-21 11:31:16,233 pymodbus.transaction - DEBUG - Changing transaction state from 'SENDING' to 'WAITING FOR REPLY'
2022-07-21 11:31:16,263 pymodbus.transaction - DEBUG - Changing transaction state from 'WAITING FOR REPLY' to 'PROCESSING REPLY'
2022-07-21 11:31:16,264 pymodbus.transaction - DEBUG - RECV: 0x0 0x43 0x0 0x0 0x0 0x7 0x2 0x3 0x4 0x0 0x0 0x0 0x0
2022-07-21 11:31:16,264 pymodbus.framer.socket_framer - DEBUG - Processing: 0x0 0x43 0x0 0x0 0x0 0x7 0x2 0x3 0x4 0x0 0x0 0x0 0x0
2022-07-21 11:31:16,264 pymodbus.factory - DEBUG - Factory Response[ReadHoldingRegistersResponse: 3]
2022-07-21 11:31:16,264 pymodbus.transaction - DEBUG - Adding transaction 67
2022-07-21 11:31:16,264 pymodbus.transaction - DEBUG - Getting transaction 67
2022-07-21 11:31:16,264 pymodbus.transaction - DEBUG - Changing transaction state from 'PROCESSING REPLY' to 'TRANSACTION_COMPLETE'
2022-07-21 11:31:16,265 pymodbus.transaction - DEBUG - Current transaction state - TRANSACTION_COMPLETE
2022-07-21 11:31:16,265 pymodbus.transaction - DEBUG - Running transaction 68
2022-07-21 11:31:16,265 pymodbus.transaction - DEBUG - SEND: 0x0 0x44 0x0 0x0 0x0 0x6 0x2 0x3 0x0 0xe 0x0 0x2
2022-07-21 11:31:16,265 pymodbus.client.sync - DEBUG - New Transaction state 'SENDING'
2022-07-21 11:31:16,265 pymodbus.transaction - DEBUG - Changing transaction state from 'SENDING' to 'WAITING FOR REPLY'
2022-07-21 11:31:16,295 pymodbus.transaction - DEBUG - Changing transaction state from 'WAITING FOR REPLY' to 'PROCESSING REPLY'
2022-07-21 11:31:16,295 pymodbus.transaction - DEBUG - RECV: 0x0 0x44 0x0 0x0 0x0 0x7 0x2 0x3 0x4 0x0 0x0 0x0 0x0
2022-07-21 11:31:16,295 pymodbus.framer.socket_framer - DEBUG - Processing: 0x0 0x44 0x0 0x0 0x0 0x7 0x2 0x3 0x4 0x0 0x0 0x0 0x0
2022-07-21 11:31:16,295 pymodbus.factory - DEBUG - Factory Response[ReadHoldingRegistersResponse: 3]
2022-07-21 11:31:16,295 pymodbus.transaction - DEBUG - Adding transaction 68
2022-07-21 11:31:16,295 pymodbus.transaction - DEBUG - Getting transaction 68
2022-07-21 11:31:16,295 pymodbus.transaction - DEBUG - Changing transaction state from 'PROCESSING REPLY' to 'TRANSACTION_COMPLETE'
2022-07-21 11:31:16,295 pymodbus.transaction - DEBUG - Current transaction state - TRANSACTION_COMPLETE
2022-07-21 11:31:16,295 pymodbus.transaction - DEBUG - Running transaction 69
2022-07-21 11:31:16,295 pymodbus.transaction - DEBUG - SEND: 0x0 0x45 0x0 0x0 0x0 0x6 0x2 0x3 0x0 0x10 0x0 0x2
2022-07-21 11:31:16,296 pymodbus.client.sync - DEBUG - New Transaction state 'SENDING'
2022-07-21 11:31:16,296 pymodbus.transaction - DEBUG - Changing transaction state from 'SENDING' to 'WAITING FOR REPLY'
2022-07-21 11:31:16,327 pymodbus.transaction - DEBUG - Changing transaction state from 'WAITING FOR REPLY' to 'PROCESSING REPLY'
2022-07-21 11:31:16,328 pymodbus.transaction - DEBUG - RECV: 0x0 0x45 0x0 0x0 0x0 0x7 0x2 0x3 0x4 0x0 0x0 0x0 0x0
2022-07-21 11:31:16,328 pymodbus.framer.socket_framer - DEBUG - Processing: 0x0 0x45 0x0 0x0 0x0 0x7 0x2 0x3 0x4 0x0 0x0 0x0 0x0
2022-07-21 11:31:16,328 pymodbus.factory - DEBUG - Factory Response[ReadHoldingRegistersResponse: 3]
2022-07-21 11:31:16,328 pymodbus.transaction - DEBUG - Adding transaction 69
2022-07-21 11:31:16,328 pymodbus.transaction - DEBUG - Getting transaction 69
2022-07-21 11:31:16,328 pymodbus.transaction - DEBUG - Changing transaction state from 'PROCESSING REPLY' to 'TRANSACTION_COMPLETE'
2022-07-21 11:31:16,328 pymodbus.transaction - DEBUG - Current transaction state - TRANSACTION_COMPLETE
2022-07-21 11:31:16,329 pymodbus.transaction - DEBUG - Running transaction 70
2022-07-21 11:31:16,329 pymodbus.transaction - DEBUG - SEND: 0x0 0x46 0x0 0x0 0x0 0x6 0x2 0x3 0x0 0x12 0x0 0x2
2022-07-21 11:31:16,329 pymodbus.client.sync - DEBUG - New Transaction state 'SENDING'
2022-07-21 11:31:16,329 pymodbus.transaction - DEBUG - Changing transaction state from 'SENDING' to 'WAITING FOR REPLY'
2022-07-21 11:31:16,358 pymodbus.transaction - DEBUG - Changing transaction state from 'WAITING FOR REPLY' to 'PROCESSING REPLY'
2022-07-21 11:31:16,359 pymodbus.transaction - DEBUG - RECV: 0x0 0x46 0x0 0x0 0x0 0x7 0x2 0x3 0x4 0x0 0x0 0x0 0x0
2022-07-21 11:31:16,359 pymodbus.framer.socket_framer - DEBUG - Processing: 0x0 0x46 0x0 0x0 0x0 0x7 0x2 0x3 0x4 0x0 0x0 0x0 0x0
2022-07-21 11:31:16,359 pymodbus.factory - DEBUG - Factory Response[ReadHoldingRegistersResponse: 3]
2022-07-21 11:31:16,359 pymodbus.transaction - DEBUG - Adding transaction 70
2022-07-21 11:31:16,359 pymodbus.transaction - DEBUG - Getting transaction 70
2022-07-21 11:31:16,360 pymodbus.transaction - DEBUG - Changing transaction state from 'PROCESSING REPLY' to 'TRANSACTION_COMPLETE'
2022-07-21 11:31:16,360 pymodbus.transaction - DEBUG - Current transaction state - TRANSACTION_COMPLETE
2022-07-21 11:31:16,360 pymodbus.transaction - DEBUG - Running transaction 71
2022-07-21 11:31:16,360 pymodbus.transaction - DEBUG - SEND: 0x0 0x47 0x0 0x0 0x0 0x6 0x2 0x3 0x0 0x14 0x0 0x2
2022-07-21 11:31:16,360 pymodbus.client.sync - DEBUG - New Transaction state 'SENDING'
2022-07-21 11:31:16,360 pymodbus.transaction - DEBUG - Changing transaction state from 'SENDING' to 'WAITING FOR REPLY'
2022-07-21 11:31:16,390 pymodbus.transaction - DEBUG - Changing transaction state from 'WAITING FOR REPLY' to 'PROCESSING REPLY'
2022-07-21 11:31:16,391 pymodbus.transaction - DEBUG - RECV: 0x0 0x47 0x0 0x0 0x0 0x7 0x2 0x3 0x4 0x0 0x0 0x0 0x0
2022-07-21 11:31:16,391 pymodbus.framer.socket_framer - DEBUG - Processing: 0x0 0x47 0x0 0x0 0x0 0x7 0x2 0x3 0x4 0x0 0x0 0x0 0x0
2022-07-21 11:31:16,391 pymodbus.factory - DEBUG - Factory Response[ReadHoldingRegistersResponse: 3]
2022-07-21 11:31:16,391 pymodbus.transaction - DEBUG - Adding transaction 71
2022-07-21 11:31:16,391 pymodbus.transaction - DEBUG - Getting transaction 71
2022-07-21 11:31:16,391 pymodbus.transaction - DEBUG - Changing transaction state from 'PROCESSING REPLY' to 'TRANSACTION_COMPLETE'
2022-07-21 11:31:16,391 pymodbus.transaction - DEBUG - Current transaction state - TRANSACTION_COMPLETE
2022-07-21 11:31:16,391 pymodbus.transaction - DEBUG - Running transaction 72
2022-07-21 11:31:16,391 pymodbus.transaction - DEBUG - SEND: 0x0 0x48 0x0 0x0 0x0 0x6 0x2 0x3 0x0 0x16 0x0 0x2
2022-07-21 11:31:16,392 pymodbus.client.sync - DEBUG - New Transaction state 'SENDING'
2022-07-21 11:31:16,392 pymodbus.transaction - DEBUG - Changing transaction state from 'SENDING' to 'WAITING FOR REPLY'
2022-07-21 11:31:16,422 pymodbus.transaction - DEBUG - Changing transaction state from 'WAITING FOR REPLY' to 'PROCESSING REPLY'
2022-07-21 11:31:16,422 pymodbus.transaction - DEBUG - RECV: 0x0 0x48 0x0 0x0 0x0 0x7 0x2 0x3 0x4 0x0 0x0 0x0 0x0
2022-07-21 11:31:16,422 pymodbus.framer.socket_framer - DEBUG - Processing: 0x0 0x48 0x0 0x0 0x0 0x7 0x2 0x3 0x4 0x0 0x0 0x0 0x0
2022-07-21 11:31:16,422 pymodbus.factory - DEBUG - Factory Response[ReadHoldingRegistersResponse: 3]
2022-07-21 11:31:16,422 pymodbus.transaction - DEBUG - Adding transaction 72
2022-07-21 11:31:16,422 pymodbus.transaction - DEBUG - Getting transaction 72
2022-07-21 11:31:16,424 pymodbus.transaction - DEBUG - Changing transaction state from 'PROCESSING REPLY' to 'TRANSACTION_COMPLETE'
2022-07-21 11:31:16,424 pymodbus.transaction - DEBUG - Current transaction state - TRANSACTION_COMPLETE
2022-07-21 11:31:16,424 pymodbus.transaction - DEBUG - Running transaction 73
2022-07-21 11:31:16,424 pymodbus.transaction - DEBUG - SEND: 0x0 0x49 0x0 0x0 0x0 0x6 0x2 0x3 0x0 0x18 0x0 0x2
2022-07-21 11:31:16,424 pymodbus.client.sync - DEBUG - New Transaction state 'SENDING'
2022-07-21 11:31:16,424 pymodbus.transaction - DEBUG - Changing transaction state from 'SENDING' to 'WAITING FOR REPLY'
2022-07-21 11:31:16,453 pymodbus.transaction - DEBUG - Changing transaction state from 'WAITING FOR REPLY' to 'PROCESSING REPLY'
2022-07-21 11:31:16,454 pymodbus.transaction - DEBUG - RECV: 0x0 0x49 0x0 0x0 0x0 0x7 0x2 0x3 0x4 0x0 0x0 0x0 0x0
2022-07-21 11:31:16,454 pymodbus.framer.socket_framer - DEBUG - Processing: 0x0 0x49 0x0 0x0 0x0 0x7 0x2 0x3 0x4 0x0 0x0 0x0 0x0
2022-07-21 11:31:16,454 pymodbus.factory - DEBUG - Factory Response[ReadHoldingRegistersResponse: 3]
2022-07-21 11:31:16,454 pymodbus.transaction - DEBUG - Adding transaction 73
2022-07-21 11:31:16,454 pymodbus.transaction - DEBUG - Getting transaction 73
2022-07-21 11:31:16,455 pymodbus.transaction - DEBUG - Changing transaction state from 'PROCESSING REPLY' to 'TRANSACTION_COMPLETE'
2022-07-21 11:31:16,455 pymodbus.transaction - DEBUG - Current transaction state - TRANSACTION_COMPLETE
2022-07-21 11:31:16,455 pymodbus.transaction - DEBUG - Running transaction 74
2022-07-21 11:31:16,455 pymodbus.transaction - DEBUG - SEND: 0x0 0x4a 0x0 0x0 0x0 0x6 0x2 0x3 0x0 0x1a 0x0 0x2
2022-07-21 11:31:16,455 pymodbus.client.sync - DEBUG - New Transaction state 'SENDING'
2022-07-21 11:31:16,455 pymodbus.transaction - DEBUG - Changing transaction state from 'SENDING' to 'WAITING FOR REPLY'
2022-07-21 11:31:16,484 pymodbus.transaction - DEBUG - Changing transaction state from 'WAITING FOR REPLY' to 'PROCESSING REPLY'
2022-07-21 11:31:16,484 pymodbus.transaction - DEBUG - RECV: 0x0 0x4a 0x0 0x0 0x0 0x7 0x2 0x3 0x4 0x0 0x0 0x0 0x0
2022-07-21 11:31:16,484 pymodbus.framer.socket_framer - DEBUG - Processing: 0x0 0x4a 0x0 0x0 0x0 0x7 0x2 0x3 0x4 0x0 0x0 0x0 0x0
2022-07-21 11:31:16,484 pymodbus.factory - DEBUG - Factory Response[ReadHoldingRegistersResponse: 3]
2022-07-21 11:31:16,484 pymodbus.transaction - DEBUG - Adding transaction 74
2022-07-21 11:31:16,484 pymodbus.transaction - DEBUG - Getting transaction 74
2022-07-21 11:31:16,484 pymodbus.transaction - DEBUG - Changing transaction state from 'PROCESSING REPLY' to 'TRANSACTION_COMPLETE'
2022-07-21 11:31:16,485 pymodbus.transaction - DEBUG - Current transaction state - TRANSACTION_COMPLETE
2022-07-21 11:31:16,485 pymodbus.transaction - DEBUG - Running transaction 75
2022-07-21 11:31:16,485 pymodbus.transaction - DEBUG - SEND: 0x0 0x4b 0x0 0x0 0x0 0x6 0x2 0x3 0x0 0x1c 0x0 0x2
2022-07-21 11:31:16,485 pymodbus.client.sync - DEBUG - New Transaction state 'SENDING'
2022-07-21 11:31:16,485 pymodbus.transaction - DEBUG - Changing transaction state from 'SENDING' to 'WAITING FOR REPLY'
2022-07-21 11:31:16,514 pymodbus.transaction - DEBUG - Changing transaction state from 'WAITING FOR REPLY' to 'PROCESSING REPLY'
2022-07-21 11:31:16,514 pymodbus.transaction - DEBUG - RECV: 0x0 0x4b 0x0 0x0 0x0 0x7 0x2 0x3 0x4 0x0 0x0 0x0 0x0
2022-07-21 11:31:16,514 pymodbus.framer.socket_framer - DEBUG - Processing: 0x0 0x4b 0x0 0x0 0x0 0x7 0x2 0x3 0x4 0x0 0x0 0x0 0x0
2022-07-21 11:31:16,514 pymodbus.factory - DEBUG - Factory Response[ReadHoldingRegistersResponse: 3]
2022-07-21 11:31:16,514 pymodbus.transaction - DEBUG - Adding transaction 75
2022-07-21 11:31:16,514 pymodbus.transaction - DEBUG - Getting transaction 75
2022-07-21 11:31:16,514 pymodbus.transaction - DEBUG - Changing transaction state from 'PROCESSING REPLY' to 'TRANSACTION_COMPLETE'
2022-07-21 11:31:16,514 pymodbus.transaction - DEBUG - Current transaction state - TRANSACTION_COMPLETE
2022-07-21 11:31:16,514 pymodbus.transaction - DEBUG - Running transaction 76
