2022-07-20 10:40:10,101 pymodbus.client.sync - DEBUG - Connection to Modbus server established. Socket ('192.168.1.36', 51431)
2022-07-20 10:40:10,101 root - DEBUG - True
2022-07-20 10:40:10,101 root - DEBUG - Reading Registers
2022-07-20 10:40:10,101 pymodbus.transaction - DEBUG - Current transaction state - IDLE
2022-07-20 10:40:10,101 pymodbus.transaction - DEBUG - Running transaction 1
2022-07-20 10:40:10,102 pymodbus.transaction - DEBUG - SEND: 0x0 0x1 0x0 0x0 0x0 0x6 0x0 0x3 0x0 0x0 0x0 0x2
2022-07-20 10:40:10,102 pymodbus.client.sync - DEBUG - New Transaction state 'SENDING'
2022-07-20 10:40:10,102 pymodbus.transaction - DEBUG - Changing transaction state from 'SENDING' to 'WAITING FOR REPLY'
2022-07-20 10:40:10,129 pymodbus.transaction - DEBUG - Changing transaction state from 'WAITING FOR REPLY' to 'PROCESSING REPLY'
2022-07-20 10:40:10,129 pymodbus.transaction - DEBUG - RECV: 0x0 0x1 0x0 0x0 0x0 0x7 0x0 0x3 0x4 0x0 0x1 0x0 0x1
2022-07-20 10:40:10,129 pymodbus.framer.socket_framer - DEBUG - Processing: 0x0 0x1 0x0 0x0 0x0 0x7 0x0 0x3 0x4 0x0 0x1 0x0 0x1
2022-07-20 10:40:10,129 pymodbus.factory - DEBUG - Factory Response[ReadHoldingRegistersResponse: 3]
2022-07-20 10:40:10,129 pymodbus.transaction - DEBUG - Adding transaction 1
2022-07-20 10:40:10,130 pymodbus.transaction - DEBUG - Getting transaction 1
2022-07-20 10:40:10,130 pymodbus.transaction - DEBUG - Changing transaction state from 'PROCESSING REPLY' to 'TRANSACTION_COMPLETE'
2022-07-20 10:40:10,130 pymodbus.transaction - DEBUG - Current transaction state - TRANSACTION_COMPLETE
2022-07-20 10:40:10,130 pymodbus.transaction - DEBUG - Running transaction 2
2022-07-20 10:40:10,130 pymodbus.transaction - DEBUG - SEND: 0x0 0x2 0x0 0x0 0x0 0x6 0x0 0x3 0x0 0x2 0x0 0x2
2022-07-20 10:40:10,130 pymodbus.client.sync - DEBUG - New Transaction state 'SENDING'
2022-07-20 10:40:10,130 pymodbus.transaction - DEBUG - Changing transaction state from 'SENDING' to 'WAITING FOR REPLY'
2022-07-20 10:40:10,161 pymodbus.transaction - DEBUG - Changing transaction state from 'WAITING FOR REPLY' to 'PROCESSING REPLY'
2022-07-20 10:40:10,161 pymodbus.transaction - DEBUG - RECV: 0x0 0x2 0x0 0x0 0x0 0x7 0x0 0x3 0x4 0x0 0x0 0x0 0x50
2022-07-20 10:40:10,161 pymodbus.framer.socket_framer - DEBUG - Processing: 0x0 0x2 0x0 0x0 0x0 0x7 0x0 0x3 0x4 0x0 0x0 0x0 0x50
2022-07-20 10:40:10,161 pymodbus.factory - DEBUG - Factory Response[ReadHoldingRegistersResponse: 3]
2022-07-20 10:40:10,161 pymodbus.transaction - DEBUG - Adding transaction 2
2022-07-20 10:40:10,161 pymodbus.transaction - DEBUG - Getting transaction 2
2022-07-20 10:40:10,161 pymodbus.transaction - DEBUG - Changing transaction state from 'PROCESSING REPLY' to 'TRANSACTION_COMPLETE'
2022-07-20 10:40:10,161 pymodbus.transaction - DEBUG - Current transaction state - TRANSACTION_COMPLETE
2022-07-20 10:40:10,161 pymodbus.transaction - DEBUG - Running transaction 3
2022-07-20 10:40:10,161 pymodbus.transaction - DEBUG - SEND: 0x0 0x3 0x0 0x0 0x0 0x6 0x0 0x3 0x0 0x4 0x0 0x2
2022-07-20 10:40:10,161 pymodbus.client.sync - DEBUG - New Transaction state 'SENDING'
2022-07-20 10:40:10,161 pymodbus.transaction - DEBUG - Changing transaction state from 'SENDING' to 'WAITING FOR REPLY'
2022-07-20 10:40:10,192 pymodbus.transaction - DEBUG - Changing transaction state from 'WAITING FOR REPLY' to 'PROCESSING REPLY'
2022-07-20 10:40:10,193 pymodbus.transaction - DEBUG - RECV: 0x0 0x3 0x0 0x0 0x0 0x7 0x0 0x3 0x4 0x0 0x0 0x0 0x0
2022-07-20 10:40:10,193 pymodbus.framer.socket_framer - DEBUG - Processing: 0x0 0x3 0x0 0x0 0x0 0x7 0x0 0x3 0x4 0x0 0x0 0x0 0x0
2022-07-20 10:40:10,193 pymodbus.factory - DEBUG - Factory Response[ReadHoldingRegistersResponse: 3]
2022-07-20 10:40:10,193 pymodbus.transaction - DEBUG - Adding transaction 3
2022-07-20 10:40:10,193 pymodbus.transaction - DEBUG - Getting transaction 3
2022-07-20 10:40:10,193 pymodbus.transaction - DEBUG - Changing transaction state from 'PROCESSING REPLY' to 'TRANSACTION_COMPLETE'
2022-07-20 10:40:10,193 pymodbus.transaction - DEBUG - Current transaction state - TRANSACTION_COMPLETE
2022-07-20 10:40:10,193 pymodbus.transaction - DEBUG - Running transaction 4
2022-07-20 10:40:10,193 pymodbus.transaction - DEBUG - SEND: 0x0 0x4 0x0 0x0 0x0 0x6 0x0 0x3 0x0 0x6 0x0 0x2
2022-07-20 10:40:10,193 pymodbus.client.sync - DEBUG - New Transaction state 'SENDING'
2022-07-20 10:40:10,194 pymodbus.transaction - DEBUG - Changing transaction state from 'SENDING' to 'WAITING FOR REPLY'
2022-07-20 10:40:10,224 pymodbus.transaction - DEBUG - Changing transaction state from 'WAITING FOR REPLY' to 'PROCESSING REPLY'
2022-07-20 10:40:10,224 pymodbus.transaction - DEBUG - RECV: 0x0 0x4 0x0 0x0 0x0 0x7 0x0 0x3 0x4 0x0 0x0 0x0 0x0
2022-07-20 10:40:10,224 pymodbus.framer.socket_framer - DEBUG - Processing: 0x0 0x4 0x0 0x0 0x0 0x7 0x0 0x3 0x4 0x0 0x0 0x0 0x0
2022-07-20 10:40:10,224 pymodbus.factory - DEBUG - Factory Response[ReadHoldingRegistersResponse: 3]
2022-07-20 10:40:10,224 pymodbus.transaction - DEBUG - Adding transaction 4
2022-07-20 10:40:10,224 pymodbus.transaction - DEBUG - Getting transaction 4
2022-07-20 10:40:10,224 pymodbus.transaction - DEBUG - Changing transaction state from 'PROCESSING REPLY' to 'TRANSACTION_COMPLETE'
2022-07-20 10:40:10,225 pymodbus.transaction - DEBUG - Current transaction state - TRANSACTION_COMPLETE
2022-07-20 10:40:10,225 pymodbus.transaction - DEBUG - Running transaction 5
2022-07-20 10:40:10,225 pymodbus.transaction - DEBUG - SEND: 0x0 0x5 0x0 0x0 0x0 0x6 0x0 0x3 0x0 0x8 0x0 0x2
2022-07-20 10:40:10,225 pymodbus.client.sync - DEBUG - New Transaction state 'SENDING'
2022-07-20 10:40:10,225 pymodbus.transaction - DEBUG - Changing transaction state from 'SENDING' to 'WAITING FOR REPLY'
2022-07-20 10:40:10,255 pymodbus.transaction - DEBUG - Changing transaction state from 'WAITING FOR REPLY' to 'PROCESSING REPLY'
2022-07-20 10:40:10,255 pymodbus.transaction - DEBUG - RECV: 0x0 0x5 0x0 0x0 0x0 0x7 0x0 0x3 0x4 0x0 0x0 0x0 0x0
2022-07-20 10:40:10,255 pymodbus.framer.socket_framer - DEBUG - Processing: 0x0 0x5 0x0 0x0 0x0 0x7 0x0 0x3 0x4 0x0 0x0 0x0 0x0
2022-07-20 10:40:10,255 pymodbus.factory - DEBUG - Factory Response[ReadHoldingRegistersResponse: 3]
2022-07-20 10:40:10,255 pymodbus.transaction - DEBUG - Adding transaction 5
2022-07-20 10:40:10,255 pymodbus.transaction - DEBUG - Getting transaction 5
2022-07-20 10:40:10,255 pymodbus.transaction - DEBUG - Changing transaction state from 'PROCESSING REPLY' to 'TRANSACTION_COMPLETE'
2022-07-20 10:40:10,255 pymodbus.transaction - DEBUG - Current transaction state - TRANSACTION_COMPLETE
2022-07-20 10:40:10,255 pymodbus.transaction - DEBUG - Running transaction 6
2022-07-20 10:40:10,255 pymodbus.transaction - DEBUG - SEND: 0x0 0x6 0x0 0x0 0x0 0x6 0x0 0x3 0x0 0xa 0x0 0x2
2022-07-20 10:40:10,255 pymodbus.client.sync - DEBUG - New Transaction state 'SENDING'
2022-07-20 10:40:10,255 pymodbus.transaction - DEBUG - Changing transaction state from 'SENDING' to 'WAITING FOR REPLY'
2022-07-20 10:40:10,286 pymodbus.transaction - DEBUG - Changing transaction state from 'WAITING FOR REPLY' to 'PROCESSING REPLY'
2022-07-20 10:40:10,286 pymodbus.transaction - DEBUG - RECV: 0x0 0x6 0x0 0x0 0x0 0x7 0x0 0x3 0x4 0x0 0x0 0x0 0x0
2022-07-20 10:40:10,286 pymodbus.framer.socket_framer - DEBUG - Processing: 0x0 0x6 0x0 0x0 0x0 0x7 0x0 0x3 0x4 0x0 0x0 0x0 0x0
2022-07-20 10:40:10,286 pymodbus.factory - DEBUG - Factory Response[ReadHoldingRegistersResponse: 3]
2022-07-20 10:40:10,286 pymodbus.transaction - DEBUG - Adding transaction 6
2022-07-20 10:40:10,287 pymodbus.transaction - DEBUG - Getting transaction 6
2022-07-20 10:40:10,287 pymodbus.transaction - DEBUG - Changing transaction state from 'PROCESSING REPLY' to 'TRANSACTION_COMPLETE'
2022-07-20 10:40:10,287 pymodbus.transaction - DEBUG - Current transaction state - TRANSACTION_COMPLETE
2022-07-20 10:40:10,287 pymodbus.transaction - DEBUG - Running transaction 7
2022-07-20 10:40:10,287 pymodbus.transaction - DEBUG - SEND: 0x0 0x7 0x0 0x0 0x0 0x6 0x0 0x3 0x0 0xc 0x0 0x2
2022-07-20 10:40:10,287 pymodbus.client.sync - DEBUG - New Transaction state 'SENDING'
2022-07-20 10:40:10,287 pymodbus.transaction - DEBUG - Changing transaction state from 'SENDING' to 'WAITING FOR REPLY'
2022-07-20 10:40:10,317 pymodbus.transaction - DEBUG - Changing transaction state from 'WAITING FOR REPLY' to 'PROCESSING REPLY'
2022-07-20 10:40:10,317 pymodbus.transaction - DEBUG - RECV: 0x0 0x7 0x0 0x0 0x0 0x7 0x0 0x3 0x4 0x0 0x0 0x0 0x0
2022-07-20 10:40:10,317 pymodbus.framer.socket_framer - DEBUG - Processing: 0x0 0x7 0x0 0x0 0x0 0x7 0x0 0x3 0x4 0x0 0x0 0x0 0x0
2022-07-20 10:40:10,317 pymodbus.factory - DEBUG - Factory Response[ReadHoldingRegistersResponse: 3]
2022-07-20 10:40:10,317 pymodbus.transaction - DEBUG - Adding transaction 7
2022-07-20 10:40:10,317 pymodbus.transaction - DEBUG - Getting transaction 7
2022-07-20 10:40:10,317 pymodbus.transaction - DEBUG - Changing transaction state from 'PROCESSING REPLY' to 'TRANSACTION_COMPLETE'
2022-07-20 10:40:10,317 pymodbus.transaction - DEBUG - Current transaction state - TRANSACTION_COMPLETE
2022-07-20 10:40:10,317 pymodbus.transaction - DEBUG - Running transaction 8
2022-07-20 10:40:10,317 pymodbus.transaction - DEBUG - SEND: 0x0 0x8 0x0 0x0 0x0 0x6 0x0 0x3 0x0 0xe 0x0 0x2
2022-07-20 10:40:10,317 pymodbus.client.sync - DEBUG - New Transaction state 'SENDING'
2022-07-20 10:40:10,318 pymodbus.transaction - DEBUG - Changing transaction state from 'SENDING' to 'WAITING FOR REPLY'
2022-07-20 10:40:10,348 pymodbus.transaction - DEBUG - Changing transaction state from 'WAITING FOR REPLY' to 'PROCESSING REPLY'
2022-07-20 10:40:10,348 pymodbus.transaction - DEBUG - RECV: 0x0 0x8 0x0 0x0 0x0 0x7 0x0 0x3 0x4 0x0 0x0 0x0 0x0
2022-07-20 10:40:10,348 pymodbus.framer.socket_framer - DEBUG - Processing: 0x0 0x8 0x0 0x0 0x0 0x7 0x0 0x3 0x4 0x0 0x0 0x0 0x0
2022-07-20 10:40:10,348 pymodbus.factory - DEBUG - Factory Response[ReadHoldingRegistersResponse: 3]
2022-07-20 10:40:10,348 pymodbus.transaction - DEBUG - Adding transaction 8
2022-07-20 10:40:10,348 pymodbus.transaction - DEBUG - Getting transaction 8
2022-07-20 10:40:10,348 pymodbus.transaction - DEBUG - Changing transaction state from 'PROCESSING REPLY' to 'TRANSACTION_COMPLETE'
2022-07-20 10:40:10,348 pymodbus.transaction - DEBUG - Current transaction state - TRANSACTION_COMPLETE
2022-07-20 10:40:10,348 pymodbus.transaction - DEBUG - Running transaction 9
2022-07-20 10:40:10,349 pymodbus.transaction - DEBUG - SEND: 0x0 0x9 0x0 0x0 0x0 0x6 0x0 0x3 0x0 0x10 0x0 0x2
2022-07-20 10:40:10,349 pymodbus.client.sync - DEBUG - New Transaction state 'SENDING'
2022-07-20 10:40:10,349 pymodbus.transaction - DEBUG - Changing transaction state from 'SENDING' to 'WAITING FOR REPLY'
2022-07-20 10:40:10,379 pymodbus.transaction - DEBUG - Changing transaction state from 'WAITING FOR REPLY' to 'PROCESSING REPLY'
2022-07-20 10:40:10,379 pymodbus.transaction - DEBUG - RECV: 0x0 0x9 0x0 0x0 0x0 0x7 0x0 0x3 0x4 0x0 0x0 0x0 0x0
2022-07-20 10:40:10,379 pymodbus.framer.socket_framer - DEBUG - Processing: 0x0 0x9 0x0 0x0 0x0 0x7 0x0 0x3 0x4 0x0 0x0 0x0 0x0
2022-07-20 10:40:10,379 pymodbus.factory - DEBUG - Factory Response[ReadHoldingRegistersResponse: 3]
2022-07-20 10:40:10,379 pymodbus.transaction - DEBUG - Adding transaction 9
2022-07-20 10:40:10,379 pymodbus.transaction - DEBUG - Getting transaction 9
2022-07-20 10:40:10,381 pymodbus.transaction - DEBUG - Changing transaction state from 'PROCESSING REPLY' to 'TRANSACTION_COMPLETE'
2022-07-20 10:40:10,381 pymodbus.transaction - DEBUG - Current transaction state - TRANSACTION_COMPLETE
2022-07-20 10:40:10,381 pymodbus.transaction - DEBUG - Running transaction 10
2022-07-20 10:40:10,381 pymodbus.transaction - DEBUG - SEND: 0x0 0xa 0x0 0x0 0x0 0x6 0x0 0x3 0x0 0x12 0x0 0x2
2022-07-20 10:40:10,381 pymodbus.client.sync - DEBUG - New Transaction state 'SENDING'
2022-07-20 10:40:10,381 pymodbus.transaction - DEBUG - Changing transaction state from 'SENDING' to 'WAITING FOR REPLY'
2022-07-20 10:40:10,411 pymodbus.transaction - DEBUG - Changing transaction state from 'WAITING FOR REPLY' to 'PROCESSING REPLY'
2022-07-20 10:40:10,411 pymodbus.transaction - DEBUG - RECV: 0x0 0xa 0x0 0x0 0x0 0x7 0x0 0x3 0x4 0x0 0x0 0x0 0x0
2022-07-20 10:40:10,411 pymodbus.framer.socket_framer - DEBUG - Processing: 0x0 0xa 0x0 0x0 0x0 0x7 0x0 0x3 0x4 0x0 0x0 0x0 0x0
2022-07-20 10:40:10,412 pymodbus.factory - DEBUG - Factory Response[ReadHoldingRegistersResponse: 3]
2022-07-20 10:40:10,412 pymodbus.transaction - DEBUG - Adding transaction 10
2022-07-20 10:40:10,412 pymodbus.transaction - DEBUG - Getting transaction 10
2022-07-20 10:40:10,412 pymodbus.transaction - DEBUG - Changing transaction state from 'PROCESSING REPLY' to 'TRANSACTION_COMPLETE'
2022-07-20 10:40:10,412 pymodbus.transaction - DEBUG - Current transaction state - TRANSACTION_COMPLETE
2022-07-20 10:40:10,412 pymodbus.transaction - DEBUG - Running transaction 11
2022-07-20 10:40:10,413 pymodbus.transaction - DEBUG - SEND: 0x0 0xb 0x0 0x0 0x0 0x6 0x0 0x3 0x0 0x14 0x0 0x2
2022-07-20 10:40:10,413 pymodbus.client.sync - DEBUG - New Transaction state 'SENDING'
2022-07-20 10:40:10,413 pymodbus.transaction - DEBUG - Changing transaction state from 'SENDING' to 'WAITING FOR REPLY'
2022-07-20 10:40:10,441 pymodbus.transaction - DEBUG - Changing transaction state from 'WAITING FOR REPLY' to 'PROCESSING REPLY'
2022-07-20 10:40:10,441 pymodbus.transaction - DEBUG - RECV: 0x0 0xb 0x0 0x0 0x0 0x7 0x0 0x3 0x4 0x0 0x0 0x0 0x0
2022-07-20 10:40:10,441 pymodbus.framer.socket_framer - DEBUG - Processing: 0x0 0xb 0x0 0x0 0x0 0x7 0x0 0x3 0x4 0x0 0x0 0x0 0x0
2022-07-20 10:40:10,442 pymodbus.factory - DEBUG - Factory Response[ReadHoldingRegistersResponse: 3]
2022-07-20 10:40:10,442 pymodbus.transaction - DEBUG - Adding transaction 11
2022-07-20 10:40:10,442 pymodbus.transaction - DEBUG - Getting transaction 11
2022-07-20 10:40:10,442 pymodbus.transaction - DEBUG - Changing transaction state from 'PROCESSING REPLY' to 'TRANSACTION_COMPLETE'
2022-07-20 10:40:10,442 pymodbus.transaction - DEBUG - Current transaction state - TRANSACTION_COMPLETE
2022-07-20 10:40:10,442 pymodbus.transaction - DEBUG - Running transaction 12
2022-07-20 10:40:10,442 pymodbus.transaction - DEBUG - SEND: 0x0 0xc 0x0 0x0 0x0 0x6 0x0 0x3 0x0 0x16 0x0 0x2
2022-07-20 10:40:10,442 pymodbus.client.sync - DEBUG - New Transaction state 'SENDING'
2022-07-20 10:40:10,442 pymodbus.transaction - DEBUG - Changing transaction state from 'SENDING' to 'WAITING FOR REPLY'
2022-07-20 10:40:10,472 pymodbus.transaction - DEBUG - Changing transaction state from 'WAITING FOR REPLY' to 'PROCESSING REPLY'
2022-07-20 10:40:10,473 pymodbus.transaction - DEBUG - RECV: 0x0 0xc 0x0 0x0 0x0 0x7 0x0 0x3 0x4 0x0 0x0 0x0 0x0
2022-07-20 10:40:10,473 pymodbus.framer.socket_framer - DEBUG - Processing: 0x0 0xc 0x0 0x0 0x0 0x7 0x0 0x3 0x4 0x0 0x0 0x0 0x0
2022-07-20 10:40:10,473 pymodbus.factory - DEBUG - Factory Response[ReadHoldingRegistersResponse: 3]
2022-07-20 10:40:10,473 pymodbus.transaction - DEBUG - Adding transaction 12
2022-07-20 10:40:10,473 pymodbus.transaction - DEBUG - Getting transaction 12
2022-07-20 10:40:10,473 pymodbus.transaction - DEBUG - Changing transaction state from 'PROCESSING REPLY' to 'TRANSACTION_COMPLETE'
2022-07-20 10:40:10,474 pymodbus.transaction - DEBUG - Current transaction state - TRANSACTION_COMPLETE
2022-07-20 10:40:10,474 pymodbus.transaction - DEBUG - Running transaction 13
2022-07-20 10:40:10,474 pymodbus.transaction - DEBUG - SEND: 0x0 0xd 0x0 0x0 0x0 0x6 0x0 0x3 0x0 0x18 0x0 0x2
2022-07-20 10:40:10,474 pymodbus.client.sync - DEBUG - New Transaction state 'SENDING'
2022-07-20 10:40:10,474 pymodbus.transaction - DEBUG - Changing transaction state from 'SENDING' to 'WAITING FOR REPLY'
2022-07-20 10:40:10,504 pymodbus.transaction - DEBUG - Changing transaction state from 'WAITING FOR REPLY' to 'PROCESSING REPLY'
2022-07-20 10:40:10,504 pymodbus.transaction - DEBUG - RECV: 0x0 0xd 0x0 0x0 0x0 0x7 0x0 0x3 0x4 0x0 0x0 0x0 0x0
2022-07-20 10:40:10,504 pymodbus.framer.socket_framer - DEBUG - Processing: 0x0 0xd 0x0 0x0 0x0 0x7 0x0 0x3 0x4 0x0 0x0 0x0 0x0
2022-07-20 10:40:10,504 pymodbus.factory - DEBUG - Factory Response[ReadHoldingRegistersResponse: 3]
2022-07-20 10:40:10,504 pymodbus.transaction - DEBUG - Adding transaction 13
2022-07-20 10:40:10,504 pymodbus.transaction - DEBUG - Getting transaction 13
2022-07-20 10:40:10,504 pymodbus.transaction - DEBUG - Changing transaction state from 'PROCESSING REPLY' to 'TRANSACTION_COMPLETE'
2022-07-20 10:40:10,504 pymodbus.transaction - DEBUG - Current transaction state - TRANSACTION_COMPLETE
2022-07-20 10:40:10,504 pymodbus.transaction - DEBUG - Running transaction 14
2022-07-20 10:40:10,504 pymodbus.transaction - DEBUG - SEND: 0x0 0xe 0x0 0x0 0x0 0x6 0x0 0x3 0x0 0x1a 0x0 0x2
2022-07-20 10:40:10,504 pymodbus.client.sync - DEBUG - New Transaction state 'SENDING'
2022-07-20 10:40:10,504 pymodbus.transaction - DEBUG - Changing transaction state from 'SENDING' to 'WAITING FOR REPLY'
2022-07-20 10:40:10,534 pymodbus.transaction - DEBUG - Changing transaction state from 'WAITING FOR REPLY' to 'PROCESSING REPLY'
2022-07-20 10:40:10,534 pymodbus.transaction - DEBUG - RECV: 0x0 0xe 0x0 0x0 0x0 0x7 0x0 0x3 0x4 0x0 0x0 0x0 0x0
2022-07-20 10:40:10,534 pymodbus.framer.socket_framer - DEBUG - Processing: 0x0 0xe 0x0 0x0 0x0 0x7 0x0 0x3 0x4 0x0 0x0 0x0 0x0
2022-07-20 10:40:10,535 pymodbus.factory - DEBUG - Factory Response[ReadHoldingRegistersResponse: 3]
2022-07-20 10:40:10,535 pymodbus.transaction - DEBUG - Adding transaction 14
2022-07-20 10:40:10,535 pymodbus.transaction - DEBUG - Getting transaction 14
2022-07-20 10:40:10,535 pymodbus.transaction - DEBUG - Changing transaction state from 'PROCESSING REPLY' to 'TRANSACTION_COMPLETE'
2022-07-20 10:40:10,535 pymodbus.transaction - DEBUG - Current transaction state - TRANSACTION_COMPLETE
2022-07-20 10:40:10,535 pymodbus.transaction - DEBUG - Running transaction 15
2022-07-20 10:40:10,535 pymodbus.transaction - DEBUG - SEND: 0x0 0xf 0x0 0x0 0x0 0x6 0x0 0x3 0x0 0x1c 0x0 0x2
2022-07-20 10:40:10,535 pymodbus.client.sync - DEBUG - New Transaction state 'SENDING'
2022-07-20 10:40:10,535 pymodbus.transaction - DEBUG - Changing transaction state from 'SENDING' to 'WAITING FOR REPLY'
2022-07-20 10:40:10,565 pymodbus.transaction - DEBUG - Changing transaction state from 'WAITING FOR REPLY' to 'PROCESSING REPLY'
2022-07-20 10:40:10,565 pymodbus.transaction - DEBUG - RECV: 0x0 0xf 0x0 0x0 0x0 0x7 0x0 0x3 0x4 0x0 0x0 0x0 0x0
2022-07-20 10:40:10,565 pymodbus.framer.socket_framer - DEBUG - Processing: 0x0 0xf 0x0 0x0 0x0 0x7 0x0 0x3 0x4 0x0 0x0 0x0 0x0
2022-07-20 10:40:10,565 pymodbus.factory - DEBUG - Factory Response[ReadHoldingRegistersResponse: 3]
2022-07-20 10:40:10,565 pymodbus.transaction - DEBUG - Adding transaction 15
2022-07-20 10:40:10,565 pymodbus.transaction - DEBUG - Getting transaction 15
2022-07-20 10:40:10,565 pymodbus.transaction - DEBUG - Changing transaction state from 'PROCESSING REPLY' to 'TRANSACTION_COMPLETE'
2022-07-20 10:40:10,565 pymodbus.transaction - DEBUG - Current transaction state - TRANSACTION_COMPLETE
2022-07-20 10:40:10,565 pymodbus.transaction - DEBUG - Running transaction 16
2022-07-20 10:40:10,565 pymodbus.transaction - DEBUG - SEND: 0x0 0x10 0x0 0x0 0x0 0x6 0x0 0x3 0x0 0x1e 0x0 0x2
2022-07-20 10:40:10,565 pymodbus.client.sync - DEBUG - New Transaction state 'SENDING'
2022-07-20 10:40:10,565 pymodbus.transaction - DEBUG - Changing transaction state from 'SENDING' to 'WAITING FOR REPLY'
2022-07-20 10:40:10,596 pymodbus.transaction - DEBUG - Changing transaction state from 'WAITING FOR REPLY' to 'PROCESSING REPLY'
2022-07-20 10:40:10,596 pymodbus.transaction - DEBUG - RECV: 0x0 0x10 0x0 0x0 0x0 0x7 0x0 0x3 0x4 0x0 0x0 0x0 0x0
2022-07-20 10:40:10,596 pymodbus.framer.socket_framer - DEBUG - Processing: 0x0 0x10 0x0 0x0 0x0 0x7 0x0 0x3 0x4 0x0 0x0 0x0 0x0
2022-07-20 10:40:10,596 pymodbus.factory - DEBUG - Factory Response[ReadHoldingRegistersResponse: 3]
2022-07-20 10:40:10,597 pymodbus.transaction - DEBUG - Adding transaction 16
2022-07-20 10:40:10,597 pymodbus.transaction - DEBUG - Getting transaction 16
2022-07-20 10:40:10,597 pymodbus.transaction - DEBUG - Changing transaction state from 'PROCESSING REPLY' to 'TRANSACTION_COMPLETE'
2022-07-20 10:40:10,597 pymodbus.transaction - DEBUG - Current transaction state - TRANSACTION_COMPLETE
2022-07-20 10:40:10,597 pymodbus.transaction - DEBUG - Running transaction 17
2022-07-20 10:40:10,598 pymodbus.transaction - DEBUG - SEND: 0x0 0x11 0x0 0x0 0x0 0x6 0x0 0x3 0x0 0x20 0x0 0x2
2022-07-20 10:40:10,598 pymodbus.client.sync - DEBUG - New Transaction state 'SENDING'
2022-07-20 10:40:10,598 pymodbus.transaction - DEBUG - Changing transaction state from 'SENDING' to 'WAITING FOR REPLY'
2022-07-20 10:40:10,626 pymodbus.transaction - DEBUG - Changing transaction state from 'WAITING FOR REPLY' to 'PROCESSING REPLY'
2022-07-20 10:40:10,627 pymodbus.transaction - DEBUG - RECV: 0x0 0x11 0x0 0x0 0x0 0x7 0x0 0x3 0x4 0x0 0x0 0x0 0x0
2022-07-20 10:40:10,627 pymodbus.framer.socket_framer - DEBUG - Processing: 0x0 0x11 0x0 0x0 0x0 0x7 0x0 0x3 0x4 0x0 0x0 0x0 0x0
2022-07-20 10:40:10,627 pymodbus.factory - DEBUG - Factory Response[ReadHoldingRegistersResponse: 3]
2022-07-20 10:40:10,627 pymodbus.transaction - DEBUG - Adding transaction 17
2022-07-20 10:40:10,627 pymodbus.transaction - DEBUG - Getting transaction 17
2022-07-20 10:40:10,627 pymodbus.transaction - DEBUG - Changing transaction state from 'PROCESSING REPLY' to 'TRANSACTION_COMPLETE'
2022-07-20 10:40:10,628 pymodbus.transaction - DEBUG - Current transaction state - TRANSACTION_COMPLETE
2022-07-20 10:40:10,628 pymodbus.transaction - DEBUG - Running transaction 18
2022-07-20 10:40:10,628 pymodbus.transaction - DEBUG - SEND: 0x0 0x12 0x0 0x0 0x0 0x6 0x0 0x3 0x0 0x22 0x0 0x2
2022-07-20 10:40:10,628 pymodbus.client.sync - DEBUG - New Transaction state 'SENDING'
2022-07-20 10:40:10,628 pymodbus.transaction - DEBUG - Changing transaction state from 'SENDING' to 'WAITING FOR REPLY'
2022-07-20 10:40:10,658 pymodbus.transaction - DEBUG - Changing transaction state from 'WAITING FOR REPLY' to 'PROCESSING REPLY'
2022-07-20 10:40:10,658 pymodbus.transaction - DEBUG - RECV: 0x0 0x12 0x0 0x0 0x0 0x7 0x0 0x3 0x4 0x0 0x0 0x0 0x0
2022-07-20 10:40:10,659 pymodbus.framer.socket_framer - DEBUG - Processing: 0x0 0x12 0x0 0x0 0x0 0x7 0x0 0x3 0x4 0x0 0x0 0x0 0x0
2022-07-20 10:40:10,659 pymodbus.factory - DEBUG - Factory Response[ReadHoldingRegistersResponse: 3]
2022-07-20 10:40:10,659 pymodbus.transaction - DEBUG - Adding transaction 18
2022-07-20 10:40:10,659 pymodbus.transaction - DEBUG - Getting transaction 18
2022-07-20 10:40:10,659 pymodbus.transaction - DEBUG - Changing transaction state from 'PROCESSING REPLY' to 'TRANSACTION_COMPLETE'
2022-07-20 10:40:10,659 pymodbus.transaction - DEBUG - Current transaction state - TRANSACTION_COMPLETE
2022-07-20 10:40:10,659 pymodbus.transaction - DEBUG - Running transaction 19
2022-07-20 10:40:10,659 pymodbus.transaction - DEBUG - SEND: 0x0 0x13 0x0 0x0 0x0 0x6 0x0 0x3 0x0 0x24 0x0 0x2
2022-07-20 10:40:10,659 pymodbus.client.sync - DEBUG - New Transaction state 'SENDING'
2022-07-20 10:40:10,659 pymodbus.transaction - DEBUG - Changing transaction state from 'SENDING' to 'WAITING FOR REPLY'
2022-07-20 10:40:10,689 pymodbus.transaction - DEBUG - Changing transaction state from 'WAITING FOR REPLY' to 'PROCESSING REPLY'
2022-07-20 10:40:10,689 pymodbus.transaction - DEBUG - RECV: 0x0 0x13 0x0 0x0 0x0 0x7 0x0 0x3 0x4 0x0 0x0 0x0 0x0
2022-07-20 10:40:10,689 pymodbus.framer.socket_framer - DEBUG - Processing: 0x0 0x13 0x0 0x0 0x0 0x7 0x0 0x3 0x4 0x0 0x0 0x0 0x0
2022-07-20 10:40:10,689 pymodbus.factory - DEBUG - Factory Response[ReadHoldingRegistersResponse: 3]
2022-07-20 10:40:10,689 pymodbus.transaction - DEBUG - Adding transaction 19
2022-07-20 10:40:10,689 pymodbus.transaction - DEBUG - Getting transaction 19
2022-07-20 10:40:10,689 pymodbus.transaction - DEBUG - Changing transaction state from 'PROCESSING REPLY' to 'TRANSACTION_COMPLETE'
2022-07-20 10:40:10,689 pymodbus.transaction - DEBUG - Current transaction state - TRANSACTION_COMPLETE
2022-07-20 10:40:10,689 pymodbus.transaction - DEBUG - Running transaction 20
2022-07-20 10:40:10,690 pymodbus.transaction - DEBUG - SEND: 0x0 0x14 0x0 0x0 0x0 0x6 0x0 0x3 0x0 0x26 0x0 0x2
2022-07-20 10:40:10,690 pymodbus.client.sync - DEBUG - New Transaction state 'SENDING'
2022-07-20 10:40:10,690 pymodbus.transaction - DEBUG - Changing transaction state from 'SENDING' to 'WAITING FOR REPLY'
2022-07-20 10:40:10,720 pymodbus.transaction - DEBUG - Changing transaction state from 'WAITING FOR REPLY' to 'PROCESSING REPLY'
2022-07-20 10:40:10,720 pymodbus.transaction - DEBUG - RECV: 0x0 0x14 0x0 0x0 0x0 0x7 0x0 0x3 0x4 0x0 0x0 0x0 0x0
2022-07-20 10:40:10,720 pymodbus.framer.socket_framer - DEBUG - Processing: 0x0 0x14 0x0 0x0 0x0 0x7 0x0 0x3 0x4 0x0 0x0 0x0 0x0
2022-07-20 10:40:10,721 pymodbus.factory - DEBUG - Factory Response[ReadHoldingRegistersResponse: 3]
2022-07-20 10:40:10,721 pymodbus.transaction - DEBUG - Adding transaction 20
2022-07-20 10:40:10,721 pymodbus.transaction - DEBUG - Getting transaction 20
2022-07-20 10:40:10,721 pymodbus.transaction - DEBUG - Changing transaction state from 'PROCESSING REPLY' to 'TRANSACTION_COMPLETE'
2022-07-20 10:40:10,721 pymodbus.transaction - DEBUG - Current transaction state - TRANSACTION_COMPLETE
2022-07-20 10:40:10,721 pymodbus.transaction - DEBUG - Running transaction 21
2022-07-20 10:40:10,721 pymodbus.transaction - DEBUG - SEND: 0x0 0x15 0x0 0x0 0x0 0x6 0x0 0x3 0x0 0x28 0x0 0x2
2022-07-20 10:40:10,721 pymodbus.client.sync - DEBUG - New Transaction state 'SENDING'
2022-07-20 10:40:10,721 pymodbus.transaction - DEBUG - Changing transaction state from 'SENDING' to 'WAITING FOR REPLY'
2022-07-20 10:40:10,751 pymodbus.transaction - DEBUG - Changing transaction state from 'WAITING FOR REPLY' to 'PROCESSING REPLY'
2022-07-20 10:40:10,751 pymodbus.transaction - DEBUG - RECV: 0x0 0x15 0x0 0x0 0x0 0x7 0x0 0x3 0x4 0x0 0x0 0x0 0x0
2022-07-20 10:40:10,751 pymodbus.framer.socket_framer - DEBUG - Processing: 0x0 0x15 0x0 0x0 0x0 0x7 0x0 0x3 0x4 0x0 0x0 0x0 0x0
2022-07-20 10:40:10,751 pymodbus.factory - DEBUG - Factory Response[ReadHoldingRegistersResponse: 3]
2022-07-20 10:40:10,751 pymodbus.transaction - DEBUG - Adding transaction 21
2022-07-20 10:40:10,751 pymodbus.transaction - DEBUG - Getting transaction 21
2022-07-20 10:40:10,751 pymodbus.transaction - DEBUG - Changing transaction state from 'PROCESSING REPLY' to 'TRANSACTION_COMPLETE'
2022-07-20 10:40:10,751 pymodbus.transaction - DEBUG - Current transaction state - TRANSACTION_COMPLETE
2022-07-20 10:40:10,751 pymodbus.transaction - DEBUG - Running transaction 22
2022-07-20 10:40:10,751 pymodbus.transaction - DEBUG - SEND: 0x0 0x16 0x0 0x0 0x0 0x6 0x0 0x3 0x0 0x2a 0x0 0x2
2022-07-20 10:40:10,751 pymodbus.client.sync - DEBUG - New Transaction state 'SENDING'
2022-07-20 10:40:10,751 pymodbus.transaction - DEBUG - Changing transaction state from 'SENDING' to 'WAITING FOR REPLY'
2022-07-20 10:40:10,783 pymodbus.transaction - DEBUG - Changing transaction state from 'WAITING FOR REPLY' to 'PROCESSING REPLY'
2022-07-20 10:40:10,784 pymodbus.transaction - DEBUG - RECV: 0x0 0x16 0x0 0x0 0x0 0x7 0x0 0x3 0x4 0x0 0x0 0x0 0x0
2022-07-20 10:40:10,784 pymodbus.framer.socket_framer - DEBUG - Processing: 0x0 0x16 0x0 0x0 0x0 0x7 0x0 0x3 0x4 0x0 0x0 0x0 0x0
2022-07-20 10:40:10,784 pymodbus.factory - DEBUG - Factory Response[ReadHoldingRegistersResponse: 3]
2022-07-20 10:40:10,784 pymodbus.transaction - DEBUG - Adding transaction 22
2022-07-20 10:40:10,784 pymodbus.transaction - DEBUG - Getting transaction 22
2022-07-20 10:40:10,784 pymodbus.transaction - DEBUG - Changing transaction state from 'PROCESSING REPLY' to 'TRANSACTION_COMPLETE'
2022-07-20 10:40:10,785 pymodbus.transaction - DEBUG - Current transaction state - TRANSACTION_COMPLETE
2022-07-20 10:40:10,785 pymodbus.transaction - DEBUG - Running transaction 23
2022-07-20 10:40:10,785 pymodbus.transaction - DEBUG - SEND: 0x0 0x17 0x0 0x0 0x0 0x6 0x0 0x3 0x0 0x2c 0x0 0x2
2022-07-20 10:40:10,785 pymodbus.client.sync - DEBUG - New Transaction state 'SENDING'
2022-07-20 10:40:10,785 pymodbus.transaction - DEBUG - Changing transaction state from 'SENDING' to 'WAITING FOR REPLY'
2022-07-20 10:40:10,814 pymodbus.transaction - DEBUG - Changing transaction state from 'WAITING FOR REPLY' to 'PROCESSING REPLY'
2022-07-20 10:40:10,814 pymodbus.transaction - DEBUG - RECV: 0x0 0x17 0x0 0x0 0x0 0x7 0x0 0x3 0x4 0x0 0x0 0x0 0x0
2022-07-20 10:40:10,814 pymodbus.framer.socket_framer - DEBUG - Processing: 0x0 0x17 0x0 0x0 0x0 0x7 0x0 0x3 0x4 0x0 0x0 0x0 0x0
2022-07-20 10:40:10,815 pymodbus.factory - DEBUG - Factory Response[ReadHoldingRegistersResponse: 3]
2022-07-20 10:40:10,815 pymodbus.transaction - DEBUG - Adding transaction 23
2022-07-20 10:40:10,815 pymodbus.transaction - DEBUG - Getting transaction 23
2022-07-20 10:40:10,815 pymodbus.transaction - DEBUG - Changing transaction state from 'PROCESSING REPLY' to 'TRANSACTION_COMPLETE'
2022-07-20 10:40:10,815 pymodbus.transaction - DEBUG - Current transaction state - TRANSACTION_COMPLETE
2022-07-20 10:40:10,816 pymodbus.transaction - DEBUG - Running transaction 24
2022-07-20 10:40:10,816 pymodbus.transaction - DEBUG - SEND: 0x0 0x18 0x0 0x0 0x0 0x6 0x0 0x3 0x0 0x30 0x0 0x2
2022-07-20 10:40:10,816 pymodbus.client.sync - DEBUG - New Transaction state 'SENDING'
2022-07-20 10:40:10,817 pymodbus.transaction - DEBUG - Changing transaction state from 'SENDING' to 'WAITING FOR REPLY'
2022-07-20 10:40:10,845 pymodbus.transaction - DEBUG - Changing transaction state from 'WAITING FOR REPLY' to 'PROCESSING REPLY'
2022-07-20 10:40:10,845 pymodbus.transaction - DEBUG - RECV: 0x0 0x18 0x0 0x0 0x0 0x7 0x0 0x3 0x4 0x0 0x0 0x0 0x0
2022-07-20 10:40:10,845 pymodbus.framer.socket_framer - DEBUG - Processing: 0x0 0x18 0x0 0x0 0x0 0x7 0x0 0x3 0x4 0x0 0x0 0x0 0x0
2022-07-20 10:40:10,845 pymodbus.factory - DEBUG - Factory Response[ReadHoldingRegistersResponse: 3]
2022-07-20 10:40:10,846 pymodbus.transaction - DEBUG - Adding transaction 24
2022-07-20 10:40:10,846 pymodbus.transaction - DEBUG - Getting transaction 24
2022-07-20 10:40:10,846 pymodbus.transaction - DEBUG - Changing transaction state from 'PROCESSING REPLY' to 'TRANSACTION_COMPLETE'
2022-07-20 10:40:10,846 pymodbus.transaction - DEBUG - Current transaction state - TRANSACTION_COMPLETE
2022-07-20 10:40:10,846 pymodbus.transaction - DEBUG - Running transaction 25
2022-07-20 10:40:10,846 pymodbus.transaction - DEBUG - SEND: 0x0 0x19 0x0 0x0 0x0 0x6 0x0 0x3 0x0 0x2e 0x0 0x2
2022-07-20 10:40:10,846 pymodbus.client.sync - DEBUG - New Transaction state 'SENDING'
2022-07-20 10:40:10,846 pymodbus.transaction - DEBUG - Changing transaction state from 'SENDING' to 'WAITING FOR REPLY'
2022-07-20 10:40:10,876 pymodbus.transaction - DEBUG - Changing transaction state from 'WAITING FOR REPLY' to 'PROCESSING REPLY'
2022-07-20 10:40:10,877 pymodbus.transaction - DEBUG - RECV: 0x0 0x19 0x0 0x0 0x0 0x7 0x0 0x3 0x4 0x0 0x0 0x0 0x0
2022-07-20 10:40:10,877 pymodbus.framer.socket_framer - DEBUG - Processing: 0x0 0x19 0x0 0x0 0x0 0x7 0x0 0x3 0x4 0x0 0x0 0x0 0x0
2022-07-20 10:40:10,877 pymodbus.factory - DEBUG - Factory Response[ReadHoldingRegistersResponse: 3]
2022-07-20 10:40:10,877 pymodbus.transaction - DEBUG - Adding transaction 25
2022-07-20 10:40:10,877 pymodbus.transaction - DEBUG - Getting transaction 25
2022-07-20 10:40:10,877 pymodbus.transaction - DEBUG - Changing transaction state from 'PROCESSING REPLY' to 'TRANSACTION_COMPLETE'
2022-07-20 10:40:10,878 pymodbus.transaction - DEBUG - Current transaction state - TRANSACTION_COMPLETE
2022-07-20 10:40:10,878 pymodbus.transaction - DEBUG - Running transaction 26
2022-07-20 10:40:10,878 pymodbus.transaction - DEBUG - SEND: 0x0 0x1a 0x0 0x0 0x0 0x6 0x0 0x3 0x0 0x30 0x0 0x2
2022-07-20 10:40:10,878 pymodbus.client.sync - DEBUG - New Transaction state 'SENDING'
2022-07-20 10:40:10,878 pymodbus.transaction - DEBUG - Changing transaction state from 'SENDING' to 'WAITING FOR REPLY'
2022-07-20 10:40:10,907 pymodbus.transaction - DEBUG - Changing transaction state from 'WAITING FOR REPLY' to 'PROCESSING REPLY'
2022-07-20 10:40:10,908 pymodbus.transaction - DEBUG - RECV: 0x0 0x1a 0x0 0x0 0x0 0x7 0x0 0x3 0x4 0x0 0x0 0x0 0x0
2022-07-20 10:40:10,908 pymodbus.framer.socket_framer - DEBUG - Processing: 0x0 0x1a 0x0 0x0 0x0 0x7 0x0 0x3 0x4 0x0 0x0 0x0 0x0
2022-07-20 10:40:10,908 pymodbus.factory - DEBUG - Factory Response[ReadHoldingRegistersResponse: 3]
2022-07-20 10:40:10,908 pymodbus.transaction - DEBUG - Adding transaction 26
2022-07-20 10:40:10,908 pymodbus.transaction - DEBUG - Getting transaction 26
2022-07-20 10:40:10,908 pymodbus.transaction - DEBUG - Changing transaction state from 'PROCESSING REPLY' to 'TRANSACTION_COMPLETE'
2022-07-20 10:40:10,908 pymodbus.transaction - DEBUG - Current transaction state - TRANSACTION_COMPLETE
2022-07-20 10:40:10,908 pymodbus.transaction - DEBUG - Running transaction 27
2022-07-20 10:40:10,908 pymodbus.transaction - DEBUG - SEND: 0x0 0x1b 0x0 0x0 0x0 0x6 0x0 0x3 0x0 0x32 0x0 0x2
2022-07-20 10:40:10,908 pymodbus.client.sync - DEBUG - New Transaction state 'SENDING'
2022-07-20 10:40:10,908 pymodbus.transaction - DEBUG - Changing transaction state from 'SENDING' to 'WAITING FOR REPLY'
2022-07-20 10:40:10,938 pymodbus.transaction - DEBUG - Changing transaction state from 'WAITING FOR REPLY' to 'PROCESSING REPLY'
2022-07-20 10:40:10,938 pymodbus.transaction - DEBUG - RECV: 0x0 0x1b 0x0 0x0 0x0 0x7 0x0 0x3 0x4 0x0 0x0 0x0 0x0
2022-07-20 10:40:10,938 pymodbus.framer.socket_framer - DEBUG - Processing: 0x0 0x1b 0x0 0x0 0x0 0x7 0x0 0x3 0x4 0x0 0x0 0x0 0x0
2022-07-20 10:40:10,938 pymodbus.factory - DEBUG - Factory Response[ReadHoldingRegistersResponse: 3]
2022-07-20 10:40:10,938 pymodbus.transaction - DEBUG - Adding transaction 27
2022-07-20 10:40:10,938 pymodbus.transaction - DEBUG - Getting transaction 27
2022-07-20 10:40:10,938 pymodbus.transaction - DEBUG - Changing transaction state from 'PROCESSING REPLY' to 'TRANSACTION_COMPLETE'
2022-07-20 10:40:10,940 pymodbus.transaction - DEBUG - Current transaction state - TRANSACTION_COMPLETE
2022-07-20 10:40:10,940 pymodbus.transaction - DEBUG - Running transaction 28
2022-07-20 10:40:10,940 pymodbus.transaction - DEBUG - SEND: 0x0 0x1c 0x0 0x0 0x0 0x6 0x0 0x3 0x0 0x34 0x0 0x2
2022-07-20 10:40:10,940 pymodbus.client.sync - DEBUG - New Transaction state 'SENDING'
2022-07-20 10:40:10,940 pymodbus.transaction - DEBUG - Changing transaction state from 'SENDING' to 'WAITING FOR REPLY'
2022-07-20 10:40:10,969 pymodbus.transaction - DEBUG - Changing transaction state from 'WAITING FOR REPLY' to 'PROCESSING REPLY'
2022-07-20 10:40:10,969 pymodbus.transaction - DEBUG - RECV: 0x0 0x1c 0x0 0x0 0x0 0x7 0x0 0x3 0x4 0x0 0x0 0x0 0x0
2022-07-20 10:40:10,969 pymodbus.framer.socket_framer - DEBUG - Processing: 0x0 0x1c 0x0 0x0 0x0 0x7 0x0 0x3 0x4 0x0 0x0 0x0 0x0
2022-07-20 10:40:10,969 pymodbus.factory - DEBUG - Factory Response[ReadHoldingRegistersResponse: 3]
2022-07-20 10:40:10,969 pymodbus.transaction - DEBUG - Adding transaction 28
2022-07-20 10:40:10,969 pymodbus.transaction - DEBUG - Getting transaction 28
2022-07-20 10:40:10,969 pymodbus.transaction - DEBUG - Changing transaction state from 'PROCESSING REPLY' to 'TRANSACTION_COMPLETE'
2022-07-20 10:40:10,969 pymodbus.transaction - DEBUG - Current transaction state - TRANSACTION_COMPLETE
2022-07-20 10:40:10,969 pymodbus.transaction - DEBUG - Running transaction 29
2022-07-20 10:40:10,969 pymodbus.transaction - DEBUG - SEND: 0x0 0x1d 0x0 0x0 0x0 0x6 0x0 0x3 0x0 0x36 0x0 0x2
2022-07-20 10:40:10,969 pymodbus.client.sync - DEBUG - New Transaction state 'SENDING'
2022-07-20 10:40:10,969 pymodbus.transaction - DEBUG - Changing transaction state from 'SENDING' to 'WAITING FOR REPLY'
2022-07-20 10:40:11,000 pymodbus.transaction - DEBUG - Changing transaction state from 'WAITING FOR REPLY' to 'PROCESSING REPLY'
2022-07-20 10:40:11,000 pymodbus.transaction - DEBUG - RECV: 0x0 0x1d 0x0 0x0 0x0 0x7 0x0 0x3 0x4 0x0 0x0 0x0 0x0
2022-07-20 10:40:11,000 pymodbus.framer.socket_framer - DEBUG - Processing: 0x0 0x1d 0x0 0x0 0x0 0x7 0x0 0x3 0x4 0x0 0x0 0x0 0x0
2022-07-20 10:40:11,000 pymodbus.factory - DEBUG - Factory Response[ReadHoldingRegistersResponse: 3]
2022-07-20 10:40:11,002 pymodbus.transaction - DEBUG - Adding transaction 29
2022-07-20 10:40:11,002 pymodbus.transaction - DEBUG - Getting transaction 29
2022-07-20 10:40:11,002 pymodbus.transaction - DEBUG - Changing transaction state from 'PROCESSING REPLY' to 'TRANSACTION_COMPLETE'
2022-07-20 10:40:11,002 pymodbus.transaction - DEBUG - Current transaction state - TRANSACTION_COMPLETE
2022-07-20 10:40:11,002 pymodbus.transaction - DEBUG - Running transaction 30
2022-07-20 10:40:11,002 pymodbus.transaction - DEBUG - SEND: 0x0 0x1e 0x0 0x0 0x0 0x6 0x0 0x3 0x0 0x38 0x0 0x2
2022-07-20 10:40:11,002 pymodbus.client.sync - DEBUG - New Transaction state 'SENDING'
2022-07-20 10:40:11,003 pymodbus.transaction - DEBUG - Changing transaction state from 'SENDING' to 'WAITING FOR REPLY'
2022-07-20 10:40:11,032 pymodbus.transaction - DEBUG - Changing transaction state from 'WAITING FOR REPLY' to 'PROCESSING REPLY'
2022-07-20 10:40:11,032 pymodbus.transaction - DEBUG - RECV: 0x0 0x1e 0x0 0x0 0x0 0x7 0x0 0x3 0x4 0x0 0x0 0x0 0x0
2022-07-20 10:40:11,032 pymodbus.framer.socket_framer - DEBUG - Processing: 0x0 0x1e 0x0 0x0 0x0 0x7 0x0 0x3 0x4 0x0 0x0 0x0 0x0
2022-07-20 10:40:11,032 pymodbus.factory - DEBUG - Factory Response[ReadHoldingRegistersResponse: 3]
2022-07-20 10:40:11,032 pymodbus.transaction - DEBUG - Adding transaction 30
2022-07-20 10:40:11,032 pymodbus.transaction - DEBUG - Getting transaction 30
2022-07-20 10:40:11,032 pymodbus.transaction - DEBUG - Changing transaction state from 'PROCESSING REPLY' to 'TRANSACTION_COMPLETE'
2022-07-20 10:40:11,032 pymodbus.transaction - DEBUG - Current transaction state - TRANSACTION_COMPLETE
2022-07-20 10:40:11,032 pymodbus.transaction - DEBUG - Running transaction 31
2022-07-20 10:40:11,034 pymodbus.transaction - DEBUG - SEND: 0x0 0x1f 0x0 0x0 0x0 0x6 0x0 0x3 0x0 0x3a 0x0 0x2
2022-07-20 10:40:11,034 pymodbus.client.sync - DEBUG - New Transaction state 'SENDING'
2022-07-20 10:40:11,034 pymodbus.transaction - DEBUG - Changing transaction state from 'SENDING' to 'WAITING FOR REPLY'
2022-07-20 10:40:11,063 pymodbus.transaction - DEBUG - Changing transaction state from 'WAITING FOR REPLY' to 'PROCESSING REPLY'
2022-07-20 10:40:11,063 pymodbus.transaction - DEBUG - RECV: 0x0 0x1f 0x0 0x0 0x0 0x7 0x0 0x3 0x4 0x0 0x0 0x0 0x0
2022-07-20 10:40:11,063 pymodbus.framer.socket_framer - DEBUG - Processing: 0x0 0x1f 0x0 0x0 0x0 0x7 0x0 0x3 0x4 0x0 0x0 0x0 0x0
2022-07-20 10:40:11,063 pymodbus.factory - DEBUG - Factory Response[ReadHoldingRegistersResponse: 3]
2022-07-20 10:40:11,063 pymodbus.transaction - DEBUG - Adding transaction 31
2022-07-20 10:40:11,063 pymodbus.transaction - DEBUG - Getting transaction 31
2022-07-20 10:40:11,063 pymodbus.transaction - DEBUG - Changing transaction state from 'PROCESSING REPLY' to 'TRANSACTION_COMPLETE'
2022-07-20 10:40:11,063 pymodbus.transaction - DEBUG - Current transaction state - TRANSACTION_COMPLETE
2022-07-20 10:40:11,063 pymodbus.transaction - DEBUG - Running transaction 32
2022-07-20 10:40:11,063 pymodbus.transaction - DEBUG - SEND: 0x0 0x20 0x0 0x0 0x0 0x6 0x0 0x3 0x0 0x3c 0x0 0x2
2022-07-20 10:40:11,063 pymodbus.client.sync - DEBUG - New Transaction state 'SENDING'
2022-07-20 10:40:11,065 pymodbus.transaction - DEBUG - Changing transaction state from 'SENDING' to 'WAITING FOR REPLY'
2022-07-20 10:40:11,094 pymodbus.transaction - DEBUG - Changing transaction state from 'WAITING FOR REPLY' to 'PROCESSING REPLY'
2022-07-20 10:40:11,094 pymodbus.transaction - DEBUG - RECV: 0x0 0x20 0x0 0x0 0x0 0x7 0x0 0x3 0x4 0x0 0x0 0x0 0x0
2022-07-20 10:40:11,094 pymodbus.framer.socket_framer - DEBUG - Processing: 0x0 0x20 0x0 0x0 0x0 0x7 0x0 0x3 0x4 0x0 0x0 0x0 0x0
2022-07-20 10:40:11,094 pymodbus.factory - DEBUG - Factory Response[ReadHoldingRegistersResponse: 3]
2022-07-20 10:40:11,094 pymodbus.transaction - DEBUG - Adding transaction 32
2022-07-20 10:40:11,094 pymodbus.transaction - DEBUG - Getting transaction 32
2022-07-20 10:40:11,094 pymodbus.transaction - DEBUG - Changing transaction state from 'PROCESSING REPLY' to 'TRANSACTION_COMPLETE'
2022-07-20 10:40:11,094 pymodbus.transaction - DEBUG - Current transaction state - TRANSACTION_COMPLETE
2022-07-20 10:40:11,094 pymodbus.transaction - DEBUG - Running transaction 33
2022-07-20 10:40:11,094 pymodbus.transaction - DEBUG - SEND: 0x0 0x21 0x0 0x0 0x0 0x6 0x0 0x3 0x0 0x3e 0x0 0x2
2022-07-20 10:40:11,094 pymodbus.client.sync - DEBUG - New Transaction state 'SENDING'
2022-07-20 10:40:11,094 pymodbus.transaction - DEBUG - Changing transaction state from 'SENDING' to 'WAITING FOR REPLY'
2022-07-20 10:40:11,125 pymodbus.transaction - DEBUG - Changing transaction state from 'WAITING FOR REPLY' to 'PROCESSING REPLY'
2022-07-20 10:40:11,125 pymodbus.transaction - DEBUG - RECV: 0x0 0x21 0x0 0x0 0x0 0x7 0x0 0x3 0x4 0x0 0x0 0x0 0x0
2022-07-20 10:40:11,125 pymodbus.framer.socket_framer - DEBUG - Processing: 0x0 0x21 0x0 0x0 0x0 0x7 0x0 0x3 0x4 0x0 0x0 0x0 0x0
2022-07-20 10:40:11,125 pymodbus.factory - DEBUG - Factory Response[ReadHoldingRegistersResponse: 3]
2022-07-20 10:40:11,125 pymodbus.transaction - DEBUG - Adding transaction 33
2022-07-20 10:40:11,126 pymodbus.transaction - DEBUG - Getting transaction 33
2022-07-20 10:40:11,126 pymodbus.transaction - DEBUG - Changing transaction state from 'PROCESSING REPLY' to 'TRANSACTION_COMPLETE'
2022-07-20 10:40:11,126 pymodbus.transaction - DEBUG - Current transaction state - TRANSACTION_COMPLETE
2022-07-20 10:40:11,126 pymodbus.transaction - DEBUG - Running transaction 34
2022-07-20 10:40:11,126 pymodbus.transaction - DEBUG - SEND: 0x0 0x22 0x0 0x0 0x0 0x6 0x0 0x3 0x0 0x40 0x0 0x2
2022-07-20 10:40:11,126 pymodbus.client.sync - DEBUG - New Transaction state 'SENDING'
2022-07-20 10:40:11,126 pymodbus.transaction - DEBUG - Changing transaction state from 'SENDING' to 'WAITING FOR REPLY'
2022-07-20 10:40:11,156 pymodbus.transaction - DEBUG - Changing transaction state from 'WAITING FOR REPLY' to 'PROCESSING REPLY'
2022-07-20 10:40:11,157 pymodbus.transaction - DEBUG - RECV: 0x0 0x22 0x0 0x0 0x0 0x7 0x0 0x3 0x4 0x0 0x0 0x0 0x0
2022-07-20 10:40:11,157 pymodbus.framer.socket_framer - DEBUG - Processing: 0x0 0x22 0x0 0x0 0x0 0x7 0x0 0x3 0x4 0x0 0x0 0x0 0x0
2022-07-20 10:40:11,157 pymodbus.factory - DEBUG - Factory Response[ReadHoldingRegistersResponse: 3]
2022-07-20 10:40:11,157 pymodbus.transaction - DEBUG - Adding transaction 34
2022-07-20 10:40:11,157 pymodbus.transaction - DEBUG - Getting transaction 34
2022-07-20 10:40:11,158 pymodbus.transaction - DEBUG - Changing transaction state from 'PROCESSING REPLY' to 'TRANSACTION_COMPLETE'
2022-07-20 10:40:11,158 pymodbus.transaction - DEBUG - Current transaction state - TRANSACTION_COMPLETE
2022-07-20 10:40:11,158 pymodbus.transaction - DEBUG - Running transaction 35
2022-07-20 10:40:11,158 pymodbus.transaction - DEBUG - SEND: 0x0 0x23 0x0 0x0 0x0 0x6 0x0 0x3 0x0 0x42 0x0 0x2
2022-07-20 10:40:11,158 pymodbus.client.sync - DEBUG - New Transaction state 'SENDING'
2022-07-20 10:40:11,158 pymodbus.transaction - DEBUG - Changing transaction state from 'SENDING' to 'WAITING FOR REPLY'
2022-07-20 10:40:11,187 pymodbus.transaction - DEBUG - Changing transaction state from 'WAITING FOR REPLY' to 'PROCESSING REPLY'
2022-07-20 10:40:11,187 pymodbus.transaction - DEBUG - RECV: 0x0 0x23 0x0 0x0 0x0 0x7 0x0 0x3 0x4 0x0 0x0 0x0 0x0
2022-07-20 10:40:11,187 pymodbus.framer.socket_framer - DEBUG - Processing: 0x0 0x23 0x0 0x0 0x0 0x7 0x0 0x3 0x4 0x0 0x0 0x0 0x0
2022-07-20 10:40:11,187 pymodbus.factory - DEBUG - Factory Response[ReadHoldingRegistersResponse: 3]
2022-07-20 10:40:11,187 pymodbus.transaction - DEBUG - Adding transaction 35
2022-07-20 10:40:11,187 pymodbus.transaction - DEBUG - Getting transaction 35
2022-07-20 10:40:11,187 pymodbus.transaction - DEBUG - Changing transaction state from 'PROCESSING REPLY' to 'TRANSACTION_COMPLETE'
2022-07-20 10:40:11,187 pymodbus.transaction - DEBUG - Current transaction state - TRANSACTION_COMPLETE
2022-07-20 10:40:11,187 pymodbus.transaction - DEBUG - Running transaction 36
2022-07-20 10:40:11,187 pymodbus.transaction - DEBUG - SEND: 0x0 0x24 0x0 0x0 0x0 0x6 0x0 0x3 0x0 0x44 0x0 0x2
2022-07-20 10:40:11,187 pymodbus.client.sync - DEBUG - New Transaction state 'SENDING'
2022-07-20 10:40:11,188 pymodbus.transaction - DEBUG - Changing transaction state from 'SENDING' to 'WAITING FOR REPLY'
2022-07-20 10:40:11,218 pymodbus.transaction - DEBUG - Changing transaction state from 'WAITING FOR REPLY' to 'PROCESSING REPLY'
2022-07-20 10:40:11,218 pymodbus.transaction - DEBUG - RECV: 0x0 0x24 0x0 0x0 0x0 0x7 0x0 0x3 0x4 0x0 0x0 0x0 0x0
2022-07-20 10:40:11,218 pymodbus.framer.socket_framer - DEBUG - Processing: 0x0 0x24 0x0 0x0 0x0 0x7 0x0 0x3 0x4 0x0 0x0 0x0 0x0
2022-07-20 10:40:11,218 pymodbus.factory - DEBUG - Factory Response[ReadHoldingRegistersResponse: 3]
2022-07-20 10:40:11,218 pymodbus.transaction - DEBUG - Adding transaction 36
2022-07-20 10:40:11,218 pymodbus.transaction - DEBUG - Getting transaction 36
2022-07-20 10:40:11,218 pymodbus.transaction - DEBUG - Changing transaction state from 'PROCESSING REPLY' to 'TRANSACTION_COMPLETE'
2022-07-20 10:40:11,218 pymodbus.transaction - DEBUG - Current transaction state - TRANSACTION_COMPLETE
2022-07-20 10:40:11,218 pymodbus.transaction - DEBUG - Running transaction 37
2022-07-20 10:40:11,220 pymodbus.transaction - DEBUG - SEND: 0x0 0x25 0x0 0x0 0x0 0x6 0x0 0x3 0x0 0x46 0x0 0x2
2022-07-20 10:40:11,220 pymodbus.client.sync - DEBUG - New Transaction state 'SENDING'
2022-07-20 10:40:11,220 pymodbus.transaction - DEBUG - Changing transaction state from 'SENDING' to 'WAITING FOR REPLY'
2022-07-20 10:40:11,250 pymodbus.transaction - DEBUG - Changing transaction state from 'WAITING FOR REPLY' to 'PROCESSING REPLY'
2022-07-20 10:40:11,250 pymodbus.transaction - DEBUG - RECV: 0x0 0x25 0x0 0x0 0x0 0x7 0x0 0x3 0x4 0x0 0x0 0x0 0x0
2022-07-20 10:40:11,250 pymodbus.framer.socket_framer - DEBUG - Processing: 0x0 0x25 0x0 0x0 0x0 0x7 0x0 0x3 0x4 0x0 0x0 0x0 0x0
2022-07-20 10:40:11,250 pymodbus.factory - DEBUG - Factory Response[ReadHoldingRegistersResponse: 3]
2022-07-20 10:40:11,250 pymodbus.transaction - DEBUG - Adding transaction 37
2022-07-20 10:40:11,251 pymodbus.transaction - DEBUG - Getting transaction 37
2022-07-20 10:40:11,251 pymodbus.transaction - DEBUG - Changing transaction state from 'PROCESSING REPLY' to 'TRANSACTION_COMPLETE'
2022-07-20 10:40:11,251 pymodbus.transaction - DEBUG - Current transaction state - TRANSACTION_COMPLETE
2022-07-20 10:40:11,251 pymodbus.transaction - DEBUG - Running transaction 38
2022-07-20 10:40:11,251 pymodbus.transaction - DEBUG - SEND: 0x0 0x26 0x0 0x0 0x0 0x6 0x0 0x3 0x0 0x48 0x0 0x2
2022-07-20 10:40:11,251 pymodbus.client.sync - DEBUG - New Transaction state 'SENDING'
2022-07-20 10:40:11,251 pymodbus.transaction - DEBUG - Changing transaction state from 'SENDING' to 'WAITING FOR REPLY'
2022-07-20 10:40:11,280 pymodbus.transaction - DEBUG - Changing transaction state from 'WAITING FOR REPLY' to 'PROCESSING REPLY'
2022-07-20 10:40:11,280 pymodbus.transaction - DEBUG - RECV: 0x0 0x26 0x0 0x0 0x0 0x7 0x0 0x3 0x4 0x0 0x0 0x0 0x0
2022-07-20 10:40:11,280 pymodbus.framer.socket_framer - DEBUG - Processing: 0x0 0x26 0x0 0x0 0x0 0x7 0x0 0x3 0x4 0x0 0x0 0x0 0x0
2022-07-20 10:40:11,280 pymodbus.factory - DEBUG - Factory Response[ReadHoldingRegistersResponse: 3]
2022-07-20 10:40:11,280 pymodbus.transaction - DEBUG - Adding transaction 38
2022-07-20 10:40:11,280 pymodbus.transaction - DEBUG - Getting transaction 38
2022-07-20 10:40:11,280 pymodbus.transaction - DEBUG - Changing transaction state from 'PROCESSING REPLY' to 'TRANSACTION_COMPLETE'
2022-07-20 10:40:11,282 pymodbus.transaction - DEBUG - Current transaction state - TRANSACTION_COMPLETE
2022-07-20 10:40:11,282 pymodbus.transaction - DEBUG - Running transaction 39
2022-07-20 10:40:11,282 pymodbus.transaction - DEBUG - SEND: 0x0 0x27 0x0 0x0 0x0 0x6 0x0 0x3 0x0 0x4a 0x0 0x2
2022-07-20 10:40:11,282 pymodbus.client.sync - DEBUG - New Transaction state 'SENDING'
2022-07-20 10:40:11,282 pymodbus.transaction - DEBUG - Changing transaction state from 'SENDING' to 'WAITING FOR REPLY'
2022-07-20 10:40:11,312 pymodbus.transaction - DEBUG - Changing transaction state from 'WAITING FOR REPLY' to 'PROCESSING REPLY'
2022-07-20 10:40:11,312 pymodbus.transaction - DEBUG - RECV: 0x0 0x27 0x0 0x0 0x0 0x7 0x0 0x3 0x4 0x0 0x0 0x0 0x0
2022-07-20 10:40:11,312 pymodbus.framer.socket_framer - DEBUG - Processing: 0x0 0x27 0x0 0x0 0x0 0x7 0x0 0x3 0x4 0x0 0x0 0x0 0x0
2022-07-20 10:40:11,312 pymodbus.factory - DEBUG - Factory Response[ReadHoldingRegistersResponse: 3]
2022-07-20 10:40:11,314 pymodbus.transaction - DEBUG - Adding transaction 39
2022-07-20 10:40:11,314 pymodbus.transaction - DEBUG - Getting transaction 39
2022-07-20 10:40:11,314 pymodbus.transaction - DEBUG - Changing transaction state from 'PROCESSING REPLY' to 'TRANSACTION_COMPLETE'
2022-07-20 10:40:11,314 pymodbus.transaction - DEBUG - Current transaction state - TRANSACTION_COMPLETE
2022-07-20 10:40:11,314 pymodbus.transaction - DEBUG - Running transaction 40
2022-07-20 10:40:11,314 pymodbus.transaction - DEBUG - SEND: 0x0 0x28 0x0 0x0 0x0 0x6 0x0 0x3 0x0 0x4c 0x0 0x2
2022-07-20 10:40:11,314 pymodbus.client.sync - DEBUG - New Transaction state 'SENDING'
2022-07-20 10:40:11,314 pymodbus.transaction - DEBUG - Changing transaction state from 'SENDING' to 'WAITING FOR REPLY'
2022-07-20 10:40:11,343 pymodbus.transaction - DEBUG - Changing transaction state from 'WAITING FOR REPLY' to 'PROCESSING REPLY'
2022-07-20 10:40:11,344 pymodbus.transaction - DEBUG - RECV: 0x0 0x28 0x0 0x0 0x0 0x7 0x0 0x3 0x4 0x0 0x0 0x0 0x0
2022-07-20 10:40:11,344 pymodbus.framer.socket_framer - DEBUG - Processing: 0x0 0x28 0x0 0x0 0x0 0x7 0x0 0x3 0x4 0x0 0x0 0x0 0x0
2022-07-20 10:40:11,344 pymodbus.factory - DEBUG - Factory Response[ReadHoldingRegistersResponse: 3]
2022-07-20 10:40:11,344 pymodbus.transaction - DEBUG - Adding transaction 40
2022-07-20 10:40:11,344 pymodbus.transaction - DEBUG - Getting transaction 40
2022-07-20 10:40:11,345 pymodbus.transaction - DEBUG - Changing transaction state from 'PROCESSING REPLY' to 'TRANSACTION_COMPLETE'
2022-07-20 10:40:11,345 pymodbus.transaction - DEBUG - Current transaction state - TRANSACTION_COMPLETE
2022-07-20 10:40:11,345 pymodbus.transaction - DEBUG - Running transaction 41
2022-07-20 10:40:11,345 pymodbus.transaction - DEBUG - SEND: 0x0 0x29 0x0 0x0 0x0 0x6 0x0 0x3 0x0 0x4e 0x0 0x2
2022-07-20 10:40:11,345 pymodbus.client.sync - DEBUG - New Transaction state 'SENDING'
2022-07-20 10:40:11,345 pymodbus.transaction - DEBUG - Changing transaction state from 'SENDING' to 'WAITING FOR REPLY'
2022-07-20 10:40:11,374 pymodbus.transaction - DEBUG - Changing transaction state from 'WAITING FOR REPLY' to 'PROCESSING REPLY'
2022-07-20 10:40:11,375 pymodbus.transaction - DEBUG - RECV: 0x0 0x29 0x0 0x0 0x0 0x7 0x0 0x3 0x4 0x0 0x0 0x0 0x0
2022-07-20 10:40:11,375 pymodbus.framer.socket_framer - DEBUG - Processing: 0x0 0x29 0x0 0x0 0x0 0x7 0x0 0x3 0x4 0x0 0x0 0x0 0x0
2022-07-20 10:40:11,375 pymodbus.factory - DEBUG - Factory Response[ReadHoldingRegistersResponse: 3]
2022-07-20 10:40:11,375 pymodbus.transaction - DEBUG - Adding transaction 41
2022-07-20 10:40:11,376 pymodbus.transaction - DEBUG - Getting transaction 41
2022-07-20 10:40:11,376 pymodbus.transaction - DEBUG - Changing transaction state from 'PROCESSING REPLY' to 'TRANSACTION_COMPLETE'
2022-07-20 10:40:11,376 pymodbus.transaction - DEBUG - Current transaction state - TRANSACTION_COMPLETE
2022-07-20 10:40:11,376 pymodbus.transaction - DEBUG - Running transaction 42
2022-07-20 10:40:11,376 pymodbus.transaction - DEBUG - SEND: 0x0 0x2a 0x0 0x0 0x0 0x6 0x0 0x3 0x0 0x50 0x0 0x2
2022-07-20 10:40:11,376 pymodbus.client.sync - DEBUG - New Transaction state 'SENDING'
2022-07-20 10:40:11,376 pymodbus.transaction - DEBUG - Changing transaction state from 'SENDING' to 'WAITING FOR REPLY'
2022-07-20 10:40:11,405 pymodbus.transaction - DEBUG - Changing transaction state from 'WAITING FOR REPLY' to 'PROCESSING REPLY'
2022-07-20 10:40:11,405 pymodbus.transaction - DEBUG - RECV: 0x0 0x2a 0x0 0x0 0x0 0x7 0x0 0x3 0x4 0x0 0x0 0x0 0x0
2022-07-20 10:40:11,406 pymodbus.framer.socket_framer - DEBUG - Processing: 0x0 0x2a 0x0 0x0 0x0 0x7 0x0 0x3 0x4 0x0 0x0 0x0 0x0
2022-07-20 10:40:11,406 pymodbus.factory - DEBUG - Factory Response[ReadHoldingRegistersResponse: 3]
2022-07-20 10:40:11,406 pymodbus.transaction - DEBUG - Adding transaction 42
2022-07-20 10:40:11,406 pymodbus.transaction - DEBUG - Getting transaction 42
2022-07-20 10:40:11,406 pymodbus.transaction - DEBUG - Changing transaction state from 'PROCESSING REPLY' to 'TRANSACTION_COMPLETE'
2022-07-20 10:40:11,406 pymodbus.transaction - DEBUG - Current transaction state - TRANSACTION_COMPLETE
2022-07-20 10:40:11,406 pymodbus.transaction - DEBUG - Running transaction 43
2022-07-20 10:40:11,406 pymodbus.transaction - DEBUG - SEND: 0x0 0x2b 0x0 0x0 0x0 0x6 0x0 0x3 0x0 0x52 0x0 0x2
2022-07-20 10:40:11,406 pymodbus.client.sync - DEBUG - New Transaction state 'SENDING'
2022-07-20 10:40:11,407 pymodbus.transaction - DEBUG - Changing transaction state from 'SENDING' to 'WAITING FOR REPLY'
2022-07-20 10:40:11,437 pymodbus.transaction - DEBUG - Changing transaction state from 'WAITING FOR REPLY' to 'PROCESSING REPLY'
2022-07-20 10:40:11,437 pymodbus.transaction - DEBUG - RECV: 0x0 0x2b 0x0 0x0 0x0 0x7 0x0 0x3 0x4 0x0 0x0 0x0 0x0
2022-07-20 10:40:11,437 pymodbus.framer.socket_framer - DEBUG - Processing: 0x0 0x2b 0x0 0x0 0x0 0x7 0x0 0x3 0x4 0x0 0x0 0x0 0x0
2022-07-20 10:40:11,438 pymodbus.factory - DEBUG - Factory Response[ReadHoldingRegistersResponse: 3]
2022-07-20 10:40:11,438 pymodbus.transaction - DEBUG - Adding transaction 43
2022-07-20 10:40:11,438 pymodbus.transaction - DEBUG - Getting transaction 43
2022-07-20 10:40:11,438 pymodbus.transaction - DEBUG - Changing transaction state from 'PROCESSING REPLY' to 'TRANSACTION_COMPLETE'
2022-07-20 10:40:11,438 pymodbus.transaction - DEBUG - Current transaction state - TRANSACTION_COMPLETE
2022-07-20 10:40:11,438 pymodbus.transaction - DEBUG - Running transaction 44
2022-07-20 10:40:11,439 pymodbus.transaction - DEBUG - SEND: 0x0 0x2c 0x0 0x0 0x0 0x6 0x0 0x3 0x0 0x54 0x0 0x2
2022-07-20 10:40:11,439 pymodbus.client.sync - DEBUG - New Transaction state 'SENDING'
2022-07-20 10:40:11,439 pymodbus.transaction - DEBUG - Changing transaction state from 'SENDING' to 'WAITING FOR REPLY'
2022-07-20 10:40:11,467 pymodbus.transaction - DEBUG - Changing transaction state from 'WAITING FOR REPLY' to 'PROCESSING REPLY'
2022-07-20 10:40:11,467 pymodbus.transaction - DEBUG - RECV: 0x0 0x2c 0x0 0x0 0x0 0x7 0x0 0x3 0x4 0x0 0x0 0x0 0x0
2022-07-20 10:40:11,467 pymodbus.framer.socket_framer - DEBUG - Processing: 0x0 0x2c 0x0 0x0 0x0 0x7 0x0 0x3 0x4 0x0 0x0 0x0 0x0
2022-07-20 10:40:11,468 pymodbus.factory - DEBUG - Factory Response[ReadHoldingRegistersResponse: 3]
2022-07-20 10:40:11,468 pymodbus.transaction - DEBUG - Adding transaction 44
2022-07-20 10:40:11,468 pymodbus.transaction - DEBUG - Getting transaction 44
2022-07-20 10:40:11,468 pymodbus.transaction - DEBUG - Changing transaction state from 'PROCESSING REPLY' to 'TRANSACTION_COMPLETE'
2022-07-20 10:40:11,468 pymodbus.transaction - DEBUG - Current transaction state - TRANSACTION_COMPLETE
2022-07-20 10:40:11,468 pymodbus.transaction - DEBUG - Running transaction 45
2022-07-20 10:40:11,468 pymodbus.transaction - DEBUG - SEND: 0x0 0x2d 0x0 0x0 0x0 0x6 0x0 0x3 0x0 0x56 0x0 0x2
2022-07-20 10:40:11,468 pymodbus.client.sync - DEBUG - New Transaction state 'SENDING'
2022-07-20 10:40:11,468 pymodbus.transaction - DEBUG - Changing transaction state from 'SENDING' to 'WAITING FOR REPLY'
2022-07-20 10:40:11,498 pymodbus.transaction - DEBUG - Changing transaction state from 'WAITING FOR REPLY' to 'PROCESSING REPLY'
2022-07-20 10:40:11,499 pymodbus.transaction - DEBUG - RECV: 0x0 0x2d 0x0 0x0 0x0 0x7 0x0 0x3 0x4 0x0 0x0 0x0 0x0
2022-07-20 10:40:11,499 pymodbus.framer.socket_framer - DEBUG - Processing: 0x0 0x2d 0x0 0x0 0x0 0x7 0x0 0x3 0x4 0x0 0x0 0x0 0x0
2022-07-20 10:40:11,499 pymodbus.factory - DEBUG - Factory Response[ReadHoldingRegistersResponse: 3]
2022-07-20 10:40:11,499 pymodbus.transaction - DEBUG - Adding transaction 45
2022-07-20 10:40:11,499 pymodbus.transaction - DEBUG - Getting transaction 45
2022-07-20 10:40:11,499 pymodbus.transaction - DEBUG - Changing transaction state from 'PROCESSING REPLY' to 'TRANSACTION_COMPLETE'
2022-07-20 10:40:11,500 pymodbus.transaction - DEBUG - Current transaction state - TRANSACTION_COMPLETE
2022-07-20 10:40:11,500 pymodbus.transaction - DEBUG - Running transaction 46
2022-07-20 10:40:11,500 pymodbus.transaction - DEBUG - SEND: 0x0 0x2e 0x0 0x0 0x0 0x6 0x0 0x3 0x0 0x58 0x0 0x2
2022-07-20 10:40:11,500 pymodbus.client.sync - DEBUG - New Transaction state 'SENDING'
2022-07-20 10:40:11,500 pymodbus.transaction - DEBUG - Changing transaction state from 'SENDING' to 'WAITING FOR REPLY'
2022-07-20 10:40:11,529 pymodbus.transaction - DEBUG - Changing transaction state from 'WAITING FOR REPLY' to 'PROCESSING REPLY'
2022-07-20 10:40:11,529 pymodbus.transaction - DEBUG - RECV: 0x0 0x2e 0x0 0x0 0x0 0x7 0x0 0x3 0x4 0x0 0x0 0x0 0x0
2022-07-20 10:40:11,530 pymodbus.framer.socket_framer - DEBUG - Processing: 0x0 0x2e 0x0 0x0 0x0 0x7 0x0 0x3 0x4 0x0 0x0 0x0 0x0
2022-07-20 10:40:11,530 pymodbus.factory - DEBUG - Factory Response[ReadHoldingRegistersResponse: 3]
2022-07-20 10:40:11,530 pymodbus.transaction - DEBUG - Adding transaction 46
2022-07-20 10:40:11,530 pymodbus.transaction - DEBUG - Getting transaction 46
2022-07-20 10:40:11,530 pymodbus.transaction - DEBUG - Changing transaction state from 'PROCESSING REPLY' to 'TRANSACTION_COMPLETE'
2022-07-20 10:40:11,530 pymodbus.transaction - DEBUG - Current transaction state - TRANSACTION_COMPLETE
2022-07-20 10:40:11,530 pymodbus.transaction - DEBUG - Running transaction 47
2022-07-20 10:40:11,530 pymodbus.transaction - DEBUG - SEND: 0x0 0x2f 0x0 0x0 0x0 0x6 0x0 0x3 0x0 0x5a 0x0 0x2
2022-07-20 10:40:11,530 pymodbus.client.sync - DEBUG - New Transaction state 'SENDING'
2022-07-20 10:40:11,530 pymodbus.transaction - DEBUG - Changing transaction state from 'SENDING' to 'WAITING FOR REPLY'
2022-07-20 10:40:11,560 pymodbus.transaction - DEBUG - Changing transaction state from 'WAITING FOR REPLY' to 'PROCESSING REPLY'
2022-07-20 10:40:11,561 pymodbus.transaction - DEBUG - RECV: 0x0 0x2f 0x0 0x0 0x0 0x7 0x0 0x3 0x4 0x0 0x0 0x0 0x0
2022-07-20 10:40:11,561 pymodbus.framer.socket_framer - DEBUG - Processing: 0x0 0x2f 0x0 0x0 0x0 0x7 0x0 0x3 0x4 0x0 0x0 0x0 0x0
2022-07-20 10:40:11,561 pymodbus.factory - DEBUG - Factory Response[ReadHoldingRegistersResponse: 3]
2022-07-20 10:40:11,561 pymodbus.transaction - DEBUG - Adding transaction 47
2022-07-20 10:40:11,562 pymodbus.transaction - DEBUG - Getting transaction 47
2022-07-20 10:40:11,562 pymodbus.transaction - DEBUG - Changing transaction state from 'PROCESSING REPLY' to 'TRANSACTION_COMPLETE'
2022-07-20 10:40:11,562 pymodbus.transaction - DEBUG - Current transaction state - TRANSACTION_COMPLETE
2022-07-20 10:40:11,562 pymodbus.transaction - DEBUG - Running transaction 48
2022-07-20 10:40:11,562 pymodbus.transaction - DEBUG - SEND: 0x0 0x30 0x0 0x0 0x0 0x6 0x0 0x3 0x0 0x5c 0x0 0x2
2022-07-20 10:40:11,562 pymodbus.client.sync - DEBUG - New Transaction state 'SENDING'
2022-07-20 10:40:11,562 pymodbus.transaction - DEBUG - Changing transaction state from 'SENDING' to 'WAITING FOR REPLY'
2022-07-20 10:40:11,590 pymodbus.transaction - DEBUG - Changing transaction state from 'WAITING FOR REPLY' to 'PROCESSING REPLY'
2022-07-20 10:40:11,591 pymodbus.transaction - DEBUG - RECV: 0x0 0x30 0x0 0x0 0x0 0x7 0x0 0x3 0x4 0x0 0x0 0x0 0x0
2022-07-20 10:40:11,591 pymodbus.framer.socket_framer - DEBUG - Processing: 0x0 0x30 0x0 0x0 0x0 0x7 0x0 0x3 0x4 0x0 0x0 0x0 0x0
2022-07-20 10:40:11,591 pymodbus.factory - DEBUG - Factory Response[ReadHoldingRegistersResponse: 3]
2022-07-20 10:40:11,591 pymodbus.transaction - DEBUG - Adding transaction 48
2022-07-20 10:40:11,591 pymodbus.transaction - DEBUG - Getting transaction 48
2022-07-20 10:40:11,591 pymodbus.transaction - DEBUG - Changing transaction state from 'PROCESSING REPLY' to 'TRANSACTION_COMPLETE'
2022-07-20 10:40:11,591 pymodbus.transaction - DEBUG - Current transaction state - TRANSACTION_COMPLETE
2022-07-20 10:40:11,591 pymodbus.transaction - DEBUG - Running transaction 49
2022-07-20 10:40:11,591 pymodbus.transaction - DEBUG - SEND: 0x0 0x31 0x0 0x0 0x0 0x6 0x0 0x3 0x0 0x5e 0x0 0x2
2022-07-20 10:40:11,591 pymodbus.client.sync - DEBUG - New Transaction state 'SENDING'
2022-07-20 10:40:11,592 pymodbus.transaction - DEBUG - Changing transaction state from 'SENDING' to 'WAITING FOR REPLY'
2022-07-20 10:40:11,623 pymodbus.transaction - DEBUG - Changing transaction state from 'WAITING FOR REPLY' to 'PROCESSING REPLY'
2022-07-20 10:40:11,623 pymodbus.transaction - DEBUG - RECV: 0x0 0x31 0x0 0x0 0x0 0x7 0x0 0x3 0x4 0x0 0x0 0x0 0x0
2022-07-20 10:40:11,623 pymodbus.framer.socket_framer - DEBUG - Processing: 0x0 0x31 0x0 0x0 0x0 0x7 0x0 0x3 0x4 0x0 0x0 0x0 0x0
2022-07-20 10:40:11,623 pymodbus.factory - DEBUG - Factory Response[ReadHoldingRegistersResponse: 3]
2022-07-20 10:40:11,624 pymodbus.transaction - DEBUG - Adding transaction 49
2022-07-20 10:40:11,624 pymodbus.transaction - DEBUG - Getting transaction 49
2022-07-20 10:40:11,624 pymodbus.transaction - DEBUG - Changing transaction state from 'PROCESSING REPLY' to 'TRANSACTION_COMPLETE'
2022-07-20 10:40:11,624 pymodbus.transaction - DEBUG - Current transaction state - TRANSACTION_COMPLETE
2022-07-20 10:40:11,624 pymodbus.transaction - DEBUG - Running transaction 50
2022-07-20 10:40:11,624 pymodbus.transaction - DEBUG - SEND: 0x0 0x32 0x0 0x0 0x0 0x6 0x0 0x3 0x0 0x60 0x0 0x2
2022-07-20 10:40:11,624 pymodbus.client.sync - DEBUG - New Transaction state 'SENDING'
2022-07-20 10:40:11,625 pymodbus.transaction - DEBUG - Changing transaction state from 'SENDING' to 'WAITING FOR REPLY'
2022-07-20 10:40:11,654 pymodbus.transaction - DEBUG - Changing transaction state from 'WAITING FOR REPLY' to 'PROCESSING REPLY'
2022-07-20 10:40:11,655 pymodbus.transaction - DEBUG - RECV: 0x0 0x32 0x0 0x0 0x0 0x7 0x0 0x3 0x4 0x0 0x0 0x0 0x0
2022-07-20 10:40:11,655 pymodbus.framer.socket_framer - DEBUG - Processing: 0x0 0x32 0x0 0x0 0x0 0x7 0x0 0x3 0x4 0x0 0x0 0x0 0x0
2022-07-20 10:40:11,655 pymodbus.factory - DEBUG - Factory Response[ReadHoldingRegistersResponse: 3]
2022-07-20 10:40:11,655 pymodbus.transaction - DEBUG - Adding transaction 50
2022-07-20 10:40:11,655 pymodbus.transaction - DEBUG - Getting transaction 50
2022-07-20 10:40:11,655 pymodbus.transaction - DEBUG - Changing transaction state from 'PROCESSING REPLY' to 'TRANSACTION_COMPLETE'
2022-07-20 10:40:11,657 root - DEBUG - Reading Registers
2022-07-20 10:40:11,657 pymodbus.transaction - DEBUG - Current transaction state - TRANSACTION_COMPLETE
2022-07-20 10:40:11,657 pymodbus.transaction - DEBUG - Running transaction 51
2022-07-20 10:40:11,658 pymodbus.transaction - DEBUG - SEND: 0x0 0x33 0x0 0x0 0x0 0x6 0x0 0x3 0x0 0x0 0x0 0x2
2022-07-20 10:40:11,658 pymodbus.client.sync - DEBUG - New Transaction state 'SENDING'
2022-07-20 10:40:11,658 pymodbus.transaction - DEBUG - Changing transaction state from 'SENDING' to 'WAITING FOR REPLY'
2022-07-20 10:40:11,686 pymodbus.transaction - DEBUG - Changing transaction state from 'WAITING FOR REPLY' to 'PROCESSING REPLY'
2022-07-20 10:40:11,686 pymodbus.transaction - DEBUG - RECV: 0x0 0x33 0x0 0x0 0x0 0x7 0x0 0x3 0x4 0x0 0x1 0x0 0x1
2022-07-20 10:40:11,687 pymodbus.framer.socket_framer - DEBUG - Processing: 0x0 0x33 0x0 0x0 0x0 0x7 0x0 0x3 0x4 0x0 0x1 0x0 0x1
2022-07-20 10:40:11,687 pymodbus.factory - DEBUG - Factory Response[ReadHoldingRegistersResponse: 3]
2022-07-20 10:40:11,687 pymodbus.transaction - DEBUG - Adding transaction 51
2022-07-20 10:40:11,687 pymodbus.transaction - DEBUG - Getting transaction 51
2022-07-20 10:40:11,687 pymodbus.transaction - DEBUG - Changing transaction state from 'PROCESSING REPLY' to 'TRANSACTION_COMPLETE'
2022-07-20 10:40:11,687 pymodbus.transaction - DEBUG - Current transaction state - TRANSACTION_COMPLETE
2022-07-20 10:40:11,687 pymodbus.transaction - DEBUG - Running transaction 52
2022-07-20 10:40:11,687 pymodbus.transaction - DEBUG - SEND: 0x0 0x34 0x0 0x0 0x0 0x6 0x0 0x3 0x0 0x2 0x0 0x2
2022-07-20 10:40:11,687 pymodbus.client.sync - DEBUG - New Transaction state 'SENDING'
2022-07-20 10:40:11,688 pymodbus.transaction - DEBUG - Changing transaction state from 'SENDING' to 'WAITING FOR REPLY'
2022-07-20 10:40:11,733 pymodbus.transaction - DEBUG - Changing transaction state from 'WAITING FOR REPLY' to 'PROCESSING REPLY'
2022-07-20 10:40:11,733 pymodbus.transaction - DEBUG - RECV: 0x0 0x34 0x0 0x0 0x0 0x7 0x0 0x3 0x4 0x0 0x0 0x0 0x50
2022-07-20 10:40:11,733 pymodbus.framer.socket_framer - DEBUG - Processing: 0x0 0x34 0x0 0x0 0x0 0x7 0x0 0x3 0x4 0x0 0x0 0x0 0x50
2022-07-20 10:40:11,733 pymodbus.factory - DEBUG - Factory Response[ReadHoldingRegistersResponse: 3]
2022-07-20 10:40:11,733 pymodbus.transaction - DEBUG - Adding transaction 52
2022-07-20 10:40:11,733 pymodbus.transaction - DEBUG - Getting transaction 52
2022-07-20 10:40:11,733 pymodbus.transaction - DEBUG - Changing transaction state from 'PROCESSING REPLY' to 'TRANSACTION_COMPLETE'
2022-07-20 10:40:11,733 pymodbus.transaction - DEBUG - Current transaction state - TRANSACTION_COMPLETE
2022-07-20 10:40:11,733 pymodbus.transaction - DEBUG - Running transaction 53
2022-07-20 10:40:11,734 pymodbus.transaction - DEBUG - SEND: 0x0 0x35 0x0 0x0 0x0 0x6 0x0 0x3 0x0 0x4 0x0 0x2
2022-07-20 10:40:11,734 pymodbus.client.sync - DEBUG - New Transaction state 'SENDING'
2022-07-20 10:40:11,734 pymodbus.transaction - DEBUG - Changing transaction state from 'SENDING' to 'WAITING FOR REPLY'
2022-07-20 10:40:11,763 pymodbus.transaction - DEBUG - Changing transaction state from 'WAITING FOR REPLY' to 'PROCESSING REPLY'
2022-07-20 10:40:11,763 pymodbus.transaction - DEBUG - RECV: 0x0 0x35 0x0 0x0 0x0 0x7 0x0 0x3 0x4 0x0 0x0 0x0 0x0
2022-07-20 10:40:11,763 pymodbus.framer.socket_framer - DEBUG - Processing: 0x0 0x35 0x0 0x0 0x0 0x7 0x0 0x3 0x4 0x0 0x0 0x0 0x0
2022-07-20 10:40:11,764 pymodbus.factory - DEBUG - Factory Response[ReadHoldingRegistersResponse: 3]
2022-07-20 10:40:11,764 pymodbus.transaction - DEBUG - Adding transaction 53
2022-07-20 10:40:11,764 pymodbus.transaction - DEBUG - Getting transaction 53
2022-07-20 10:40:11,764 pymodbus.transaction - DEBUG - Changing transaction state from 'PROCESSING REPLY' to 'TRANSACTION_COMPLETE'
2022-07-20 10:40:11,764 pymodbus.transaction - DEBUG - Current transaction state - TRANSACTION_COMPLETE
2022-07-20 10:40:11,764 pymodbus.transaction - DEBUG - Running transaction 54
2022-07-20 10:40:11,764 pymodbus.transaction - DEBUG - SEND: 0x0 0x36 0x0 0x0 0x0 0x6 0x0 0x3 0x0 0x6 0x0 0x2
2022-07-20 10:40:11,764 pymodbus.client.sync - DEBUG - New Transaction state 'SENDING'
2022-07-20 10:40:11,764 pymodbus.transaction - DEBUG - Changing transaction state from 'SENDING' to 'WAITING FOR REPLY'
2022-07-20 10:40:11,795 pymodbus.transaction - DEBUG - Changing transaction state from 'WAITING FOR REPLY' to 'PROCESSING REPLY'
2022-07-20 10:40:11,795 pymodbus.transaction - DEBUG - RECV: 0x0 0x36 0x0 0x0 0x0 0x7 0x0 0x3 0x4 0x0 0x0 0x0 0x0
2022-07-20 10:40:11,795 pymodbus.framer.socket_framer - DEBUG - Processing: 0x0 0x36 0x0 0x0 0x0 0x7 0x0 0x3 0x4 0x0 0x0 0x0 0x0
2022-07-20 10:40:11,795 pymodbus.factory - DEBUG - Factory Response[ReadHoldingRegistersResponse: 3]
2022-07-20 10:40:11,795 pymodbus.transaction - DEBUG - Adding transaction 54
2022-07-20 10:40:11,795 pymodbus.transaction - DEBUG - Getting transaction 54
2022-07-20 10:40:11,795 pymodbus.transaction - DEBUG - Changing transaction state from 'PROCESSING REPLY' to 'TRANSACTION_COMPLETE'
2022-07-20 10:40:11,795 pymodbus.transaction - DEBUG - Current transaction state - TRANSACTION_COMPLETE
2022-07-20 10:40:11,795 pymodbus.transaction - DEBUG - Running transaction 55
2022-07-20 10:40:11,795 pymodbus.transaction - DEBUG - SEND: 0x0 0x37 0x0 0x0 0x0 0x6 0x0 0x3 0x0 0x8 0x0 0x2
2022-07-20 10:40:11,796 pymodbus.client.sync - DEBUG - New Transaction state 'SENDING'
2022-07-20 10:40:11,796 pymodbus.transaction - DEBUG - Changing transaction state from 'SENDING' to 'WAITING FOR REPLY'
2022-07-20 10:40:11,826 pymodbus.transaction - DEBUG - Changing transaction state from 'WAITING FOR REPLY' to 'PROCESSING REPLY'
2022-07-20 10:40:11,826 pymodbus.transaction - DEBUG - RECV: 0x0 0x37 0x0 0x0 0x0 0x7 0x0 0x3 0x4 0x0 0x0 0x0 0x0
2022-07-20 10:40:11,826 pymodbus.framer.socket_framer - DEBUG - Processing: 0x0 0x37 0x0 0x0 0x0 0x7 0x0 0x3 0x4 0x0 0x0 0x0 0x0
2022-07-20 10:40:11,826 pymodbus.factory - DEBUG - Factory Response[ReadHoldingRegistersResponse: 3]
2022-07-20 10:40:11,826 pymodbus.transaction - DEBUG - Adding transaction 55
2022-07-20 10:40:11,826 pymodbus.transaction - DEBUG - Getting transaction 55
2022-07-20 10:40:11,826 pymodbus.transaction - DEBUG - Changing transaction state from 'PROCESSING REPLY' to 'TRANSACTION_COMPLETE'
2022-07-20 10:40:11,826 pymodbus.transaction - DEBUG - Current transaction state - TRANSACTION_COMPLETE
2022-07-20 10:40:11,826 pymodbus.transaction - DEBUG - Running transaction 56
2022-07-20 10:40:11,826 pymodbus.transaction - DEBUG - SEND: 0x0 0x38 0x0 0x0 0x0 0x6 0x0 0x3 0x0 0xa 0x0 0x2
2022-07-20 10:40:11,826 pymodbus.client.sync - DEBUG - New Transaction state 'SENDING'
2022-07-20 10:40:11,826 pymodbus.transaction - DEBUG - Changing transaction state from 'SENDING' to 'WAITING FOR REPLY'
2022-07-20 10:40:11,857 pymodbus.transaction - DEBUG - Changing transaction state from 'WAITING FOR REPLY' to 'PROCESSING REPLY'
2022-07-20 10:40:11,857 pymodbus.transaction - DEBUG - RECV: 0x0 0x38 0x0 0x0 0x0 0x7 0x0 0x3 0x4 0x0 0x0 0x0 0x0
2022-07-20 10:40:11,857 pymodbus.framer.socket_framer - DEBUG - Processing: 0x0 0x38 0x0 0x0 0x0 0x7 0x0 0x3 0x4 0x0 0x0 0x0 0x0
2022-07-20 10:40:11,858 pymodbus.factory - DEBUG - Factory Response[ReadHoldingRegistersResponse: 3]
2022-07-20 10:40:11,858 pymodbus.transaction - DEBUG - Adding transaction 56
2022-07-20 10:40:11,858 pymodbus.transaction - DEBUG - Getting transaction 56
2022-07-20 10:40:11,858 pymodbus.transaction - DEBUG - Changing transaction state from 'PROCESSING REPLY' to 'TRANSACTION_COMPLETE'
2022-07-20 10:40:11,858 pymodbus.transaction - DEBUG - Current transaction state - TRANSACTION_COMPLETE
2022-07-20 10:40:11,858 pymodbus.transaction - DEBUG - Running transaction 57
2022-07-20 10:40:11,858 pymodbus.transaction - DEBUG - SEND: 0x0 0x39 0x0 0x0 0x0 0x6 0x0 0x3 0x0 0xc 0x0 0x2
2022-07-20 10:40:11,858 pymodbus.client.sync - DEBUG - New Transaction state 'SENDING'
2022-07-20 10:40:11,859 pymodbus.transaction - DEBUG - Changing transaction state from 'SENDING' to 'WAITING FOR REPLY'
2022-07-20 10:40:11,888 pymodbus.transaction - DEBUG - Changing transaction state from 'WAITING FOR REPLY' to 'PROCESSING REPLY'
2022-07-20 10:40:11,888 pymodbus.transaction - DEBUG - RECV: 0x0 0x39 0x0 0x0 0x0 0x7 0x0 0x3 0x4 0x0 0x0 0x0 0x0
2022-07-20 10:40:11,888 pymodbus.framer.socket_framer - DEBUG - Processing: 0x0 0x39 0x0 0x0 0x0 0x7 0x0 0x3 0x4 0x0 0x0 0x0 0x0
2022-07-20 10:40:11,888 pymodbus.factory - DEBUG - Factory Response[ReadHoldingRegistersResponse: 3]
2022-07-20 10:40:11,888 pymodbus.transaction - DEBUG - Adding transaction 57
2022-07-20 10:40:11,888 pymodbus.transaction - DEBUG - Getting transaction 57
2022-07-20 10:40:11,888 pymodbus.transaction - DEBUG - Changing transaction state from 'PROCESSING REPLY' to 'TRANSACTION_COMPLETE'
2022-07-20 10:40:11,889 pymodbus.transaction - DEBUG - Current transaction state - TRANSACTION_COMPLETE
2022-07-20 10:40:11,889 pymodbus.transaction - DEBUG - Running transaction 58
2022-07-20 10:40:11,889 pymodbus.transaction - DEBUG - SEND: 0x0 0x3a 0x0 0x0 0x0 0x6 0x0 0x3 0x0 0xe 0x0 0x2
2022-07-20 10:40:11,889 pymodbus.client.sync - DEBUG - New Transaction state 'SENDING'
2022-07-20 10:40:11,889 pymodbus.transaction - DEBUG - Changing transaction state from 'SENDING' to 'WAITING FOR REPLY'
2022-07-20 10:40:11,919 pymodbus.transaction - DEBUG - Changing transaction state from 'WAITING FOR REPLY' to 'PROCESSING REPLY'
2022-07-20 10:40:11,920 pymodbus.transaction - DEBUG - RECV: 0x0 0x3a 0x0 0x0 0x0 0x7 0x0 0x3 0x4 0x0 0x0 0x0 0x0
2022-07-20 10:40:11,920 pymodbus.framer.socket_framer - DEBUG - Processing: 0x0 0x3a 0x0 0x0 0x0 0x7 0x0 0x3 0x4 0x0 0x0 0x0 0x0
2022-07-20 10:40:11,920 pymodbus.factory - DEBUG - Factory Response[ReadHoldingRegistersResponse: 3]
2022-07-20 10:40:11,920 pymodbus.transaction - DEBUG - Adding transaction 58
2022-07-20 10:40:11,921 pymodbus.transaction - DEBUG - Getting transaction 58
2022-07-20 10:40:11,921 pymodbus.transaction - DEBUG - Changing transaction state from 'PROCESSING REPLY' to 'TRANSACTION_COMPLETE'
2022-07-20 10:40:11,921 pymodbus.transaction - DEBUG - Current transaction state - TRANSACTION_COMPLETE
2022-07-20 10:40:11,921 pymodbus.transaction - DEBUG - Running transaction 59
2022-07-20 10:40:11,921 pymodbus.transaction - DEBUG - SEND: 0x0 0x3b 0x0 0x0 0x0 0x6 0x0 0x3 0x0 0x10 0x0 0x2
2022-07-20 10:40:11,921 pymodbus.client.sync - DEBUG - New Transaction state 'SENDING'
2022-07-20 10:40:11,922 pymodbus.transaction - DEBUG - Changing transaction state from 'SENDING' to 'WAITING FOR REPLY'
2022-07-20 10:40:11,951 pymodbus.transaction - DEBUG - Changing transaction state from 'WAITING FOR REPLY' to 'PROCESSING REPLY'
2022-07-20 10:40:11,951 pymodbus.transaction - DEBUG - RECV: 0x0 0x3b 0x0 0x0 0x0 0x7 0x0 0x3 0x4 0x0 0x0 0x0 0x0
2022-07-20 10:40:11,951 pymodbus.framer.socket_framer - DEBUG - Processing: 0x0 0x3b 0x0 0x0 0x0 0x7 0x0 0x3 0x4 0x0 0x0 0x0 0x0
2022-07-20 10:40:11,951 pymodbus.factory - DEBUG - Factory Response[ReadHoldingRegistersResponse: 3]
2022-07-20 10:40:11,951 pymodbus.transaction - DEBUG - Adding transaction 59
2022-07-20 10:40:11,952 pymodbus.transaction - DEBUG - Getting transaction 59
2022-07-20 10:40:11,952 pymodbus.transaction - DEBUG - Changing transaction state from 'PROCESSING REPLY' to 'TRANSACTION_COMPLETE'
2022-07-20 10:40:11,952 pymodbus.transaction - DEBUG - Current transaction state - TRANSACTION_COMPLETE
2022-07-20 10:40:11,952 pymodbus.transaction - DEBUG - Running transaction 60
2022-07-20 10:40:11,952 pymodbus.transaction - DEBUG - SEND: 0x0 0x3c 0x0 0x0 0x0 0x6 0x0 0x3 0x0 0x12 0x0 0x2
2022-07-20 10:40:11,952 pymodbus.client.sync - DEBUG - New Transaction state 'SENDING'
2022-07-20 10:40:11,952 pymodbus.transaction - DEBUG - Changing transaction state from 'SENDING' to 'WAITING FOR REPLY'
2022-07-20 10:40:11,982 pymodbus.transaction - DEBUG - Changing transaction state from 'WAITING FOR REPLY' to 'PROCESSING REPLY'
2022-07-20 10:40:11,983 pymodbus.transaction - DEBUG - RECV: 0x0 0x3c 0x0 0x0 0x0 0x7 0x0 0x3 0x4 0x0 0x0 0x0 0x0
2022-07-20 10:40:11,983 pymodbus.framer.socket_framer - DEBUG - Processing: 0x0 0x3c 0x0 0x0 0x0 0x7 0x0 0x3 0x4 0x0 0x0 0x0 0x0
2022-07-20 10:40:11,983 pymodbus.factory - DEBUG - Factory Response[ReadHoldingRegistersResponse: 3]
2022-07-20 10:40:11,983 pymodbus.transaction - DEBUG - Adding transaction 60
2022-07-20 10:40:11,983 pymodbus.transaction - DEBUG - Getting transaction 60
2022-07-20 10:40:11,983 pymodbus.transaction - DEBUG - Changing transaction state from 'PROCESSING REPLY' to 'TRANSACTION_COMPLETE'
2022-07-20 10:40:11,984 pymodbus.transaction - DEBUG - Current transaction state - TRANSACTION_COMPLETE
2022-07-20 10:40:11,984 pymodbus.transaction - DEBUG - Running transaction 61
2022-07-20 10:40:11,984 pymodbus.transaction - DEBUG - SEND: 0x0 0x3d 0x0 0x0 0x0 0x6 0x0 0x3 0x0 0x14 0x0 0x2
2022-07-20 10:40:11,984 pymodbus.client.sync - DEBUG - New Transaction state 'SENDING'
2022-07-20 10:40:11,984 pymodbus.transaction - DEBUG - Changing transaction state from 'SENDING' to 'WAITING FOR REPLY'
2022-07-20 10:40:12,013 pymodbus.transaction - DEBUG - Changing transaction state from 'WAITING FOR REPLY' to 'PROCESSING REPLY'
2022-07-20 10:40:12,014 pymodbus.transaction - DEBUG - RECV: 0x0 0x3d 0x0 0x0 0x0 0x7 0x0 0x3 0x4 0x0 0x0 0x0 0x0
2022-07-20 10:40:12,014 pymodbus.framer.socket_framer - DEBUG - Processing: 0x0 0x3d 0x0 0x0 0x0 0x7 0x0 0x3 0x4 0x0 0x0 0x0 0x0
2022-07-20 10:40:12,014 pymodbus.factory - DEBUG - Factory Response[ReadHoldingRegistersResponse: 3]
2022-07-20 10:40:12,014 pymodbus.transaction - DEBUG - Adding transaction 61
2022-07-20 10:40:12,014 pymodbus.transaction - DEBUG - Getting transaction 61
2022-07-20 10:40:12,014 pymodbus.transaction - DEBUG - Changing transaction state from 'PROCESSING REPLY' to 'TRANSACTION_COMPLETE'
2022-07-20 10:40:12,014 pymodbus.transaction - DEBUG - Current transaction state - TRANSACTION_COMPLETE
2022-07-20 10:40:12,014 pymodbus.transaction - DEBUG - Running transaction 62
2022-07-20 10:40:12,014 pymodbus.transaction - DEBUG - SEND: 0x0 0x3e 0x0 0x0 0x0 0x6 0x0 0x3 0x0 0x16 0x0 0x2
2022-07-20 10:40:12,014 pymodbus.client.sync - DEBUG - New Transaction state 'SENDING'
2022-07-20 10:40:12,014 pymodbus.transaction - DEBUG - Changing transaction state from 'SENDING' to 'WAITING FOR REPLY'
2022-07-20 10:40:12,044 pymodbus.transaction - DEBUG - Changing transaction state from 'WAITING FOR REPLY' to 'PROCESSING REPLY'
2022-07-20 10:40:12,045 pymodbus.transaction - DEBUG - RECV: 0x0 0x3e 0x0 0x0 0x0 0x7 0x0 0x3 0x4 0x0 0x0 0x0 0x0
2022-07-20 10:40:12,045 pymodbus.framer.socket_framer - DEBUG - Processing: 0x0 0x3e 0x0 0x0 0x0 0x7 0x0 0x3 0x4 0x0 0x0 0x0 0x0
2022-07-20 10:40:12,045 pymodbus.factory - DEBUG - Factory Response[ReadHoldingRegistersResponse: 3]
2022-07-20 10:40:12,045 pymodbus.transaction - DEBUG - Adding transaction 62
2022-07-20 10:40:12,045 pymodbus.transaction - DEBUG - Getting transaction 62
2022-07-20 10:40:12,045 pymodbus.transaction - DEBUG - Changing transaction state from 'PROCESSING REPLY' to 'TRANSACTION_COMPLETE'
2022-07-20 10:40:12,045 pymodbus.transaction - DEBUG - Current transaction state - TRANSACTION_COMPLETE
2022-07-20 10:40:12,045 pymodbus.transaction - DEBUG - Running transaction 63
2022-07-20 10:40:12,045 pymodbus.transaction - DEBUG - SEND: 0x0 0x3f 0x0 0x0 0x0 0x6 0x0 0x3 0x0 0x18 0x0 0x2
2022-07-20 10:40:12,045 pymodbus.client.sync - DEBUG - New Transaction state 'SENDING'
2022-07-20 10:40:12,046 pymodbus.transaction - DEBUG - Changing transaction state from 'SENDING' to 'WAITING FOR REPLY'
2022-07-20 10:40:12,075 pymodbus.transaction - DEBUG - Changing transaction state from 'WAITING FOR REPLY' to 'PROCESSING REPLY'
2022-07-20 10:40:12,076 pymodbus.transaction - DEBUG - RECV: 0x0 0x3f 0x0 0x0 0x0 0x7 0x0 0x3 0x4 0x0 0x0 0x0 0x0
2022-07-20 10:40:12,076 pymodbus.framer.socket_framer - DEBUG - Processing: 0x0 0x3f 0x0 0x0 0x0 0x7 0x0 0x3 0x4 0x0 0x0 0x0 0x0
2022-07-20 10:40:12,076 pymodbus.factory - DEBUG - Factory Response[ReadHoldingRegistersResponse: 3]
2022-07-20 10:40:12,076 pymodbus.transaction - DEBUG - Adding transaction 63
2022-07-20 10:40:12,076 pymodbus.transaction - DEBUG - Getting transaction 63
2022-07-20 10:40:12,076 pymodbus.transaction - DEBUG - Changing transaction state from 'PROCESSING REPLY' to 'TRANSACTION_COMPLETE'
2022-07-20 10:40:12,076 pymodbus.transaction - DEBUG - Current transaction state - TRANSACTION_COMPLETE
2022-07-20 10:40:12,076 pymodbus.transaction - DEBUG - Running transaction 64
2022-07-20 10:40:12,076 pymodbus.transaction - DEBUG - SEND: 0x0 0x40 0x0 0x0 0x0 0x6 0x0 0x3 0x0 0x1a 0x0 0x2
2022-07-20 10:40:12,077 pymodbus.client.sync - DEBUG - New Transaction state 'SENDING'
2022-07-20 10:40:12,077 pymodbus.transaction - DEBUG - Changing transaction state from 'SENDING' to 'WAITING FOR REPLY'
2022-07-20 10:40:12,107 pymodbus.transaction - DEBUG - Changing transaction state from 'WAITING FOR REPLY' to 'PROCESSING REPLY'
2022-07-20 10:40:12,108 pymodbus.transaction - DEBUG - RECV: 0x0 0x40 0x0 0x0 0x0 0x7 0x0 0x3 0x4 0x0 0x0 0x0 0x0
2022-07-20 10:40:12,108 pymodbus.framer.socket_framer - DEBUG - Processing: 0x0 0x40 0x0 0x0 0x0 0x7 0x0 0x3 0x4 0x0 0x0 0x0 0x0
2022-07-20 10:40:12,108 pymodbus.factory - DEBUG - Factory Response[ReadHoldingRegistersResponse: 3]
2022-07-20 10:40:12,108 pymodbus.transaction - DEBUG - Adding transaction 64
2022-07-20 10:40:12,109 pymodbus.transaction - DEBUG - Getting transaction 64
2022-07-20 10:40:12,109 pymodbus.transaction - DEBUG - Changing transaction state from 'PROCESSING REPLY' to 'TRANSACTION_COMPLETE'
2022-07-20 10:40:12,109 pymodbus.transaction - DEBUG - Current transaction state - TRANSACTION_COMPLETE
2022-07-20 10:40:12,109 pymodbus.transaction - DEBUG - Running transaction 65
2022-07-20 10:40:12,109 pymodbus.transaction - DEBUG - SEND: 0x0 0x41 0x0 0x0 0x0 0x6 0x0 0x3 0x0 0x1c 0x0 0x2
2022-07-20 10:40:12,109 pymodbus.client.sync - DEBUG - New Transaction state 'SENDING'
2022-07-20 10:40:12,109 pymodbus.transaction - DEBUG - Changing transaction state from 'SENDING' to 'WAITING FOR REPLY'
2022-07-20 10:40:12,138 pymodbus.transaction - DEBUG - Changing transaction state from 'WAITING FOR REPLY' to 'PROCESSING REPLY'
2022-07-20 10:40:12,138 pymodbus.transaction - DEBUG - RECV: 0x0 0x41 0x0 0x0 0x0 0x7 0x0 0x3 0x4 0x0 0x0 0x0 0x0
2022-07-20 10:40:12,139 pymodbus.framer.socket_framer - DEBUG - Processing: 0x0 0x41 0x0 0x0 0x0 0x7 0x0 0x3 0x4 0x0 0x0 0x0 0x0
2022-07-20 10:40:12,139 pymodbus.factory - DEBUG - Factory Response[ReadHoldingRegistersResponse: 3]
2022-07-20 10:40:12,139 pymodbus.transaction - DEBUG - Adding transaction 65
2022-07-20 10:40:12,139 pymodbus.transaction - DEBUG - Getting transaction 65
2022-07-20 10:40:12,139 pymodbus.transaction - DEBUG - Changing transaction state from 'PROCESSING REPLY' to 'TRANSACTION_COMPLETE'
2022-07-20 10:40:12,139 pymodbus.transaction - DEBUG - Current transaction state - TRANSACTION_COMPLETE
2022-07-20 10:40:12,139 pymodbus.transaction - DEBUG - Running transaction 66
2022-07-20 10:40:12,139 pymodbus.transaction - DEBUG - SEND: 0x0 0x42 0x0 0x0 0x0 0x6 0x0 0x3 0x0 0x1e 0x0 0x2
2022-07-20 10:40:12,139 pymodbus.client.sync - DEBUG - New Transaction state 'SENDING'
2022-07-20 10:40:12,139 pymodbus.transaction - DEBUG - Changing transaction state from 'SENDING' to 'WAITING FOR REPLY'
2022-07-20 10:40:12,169 pymodbus.transaction - DEBUG - Changing transaction state from 'WAITING FOR REPLY' to 'PROCESSING REPLY'
2022-07-20 10:40:12,169 pymodbus.transaction - DEBUG - RECV: 0x0 0x42 0x0 0x0 0x0 0x7 0x0 0x3 0x4 0x0 0x0 0x0 0x0
2022-07-20 10:40:12,171 pymodbus.framer.socket_framer - DEBUG - Processing: 0x0 0x42 0x0 0x0 0x0 0x7 0x0 0x3 0x4 0x0 0x0 0x0 0x0
2022-07-20 10:40:12,171 pymodbus.factory - DEBUG - Factory Response[ReadHoldingRegistersResponse: 3]
2022-07-20 10:40:12,171 pymodbus.transaction - DEBUG - Adding transaction 66
2022-07-20 10:40:12,171 pymodbus.transaction - DEBUG - Getting transaction 66
2022-07-20 10:40:12,171 pymodbus.transaction - DEBUG - Changing transaction state from 'PROCESSING REPLY' to 'TRANSACTION_COMPLETE'
2022-07-20 10:40:12,172 pymodbus.transaction - DEBUG - Current transaction state - TRANSACTION_COMPLETE
2022-07-20 10:40:12,172 pymodbus.transaction - DEBUG - Running transaction 67
2022-07-20 10:40:12,172 pymodbus.transaction - DEBUG - SEND: 0x0 0x43 0x0 0x0 0x0 0x6 0x0 0x3 0x0 0x20 0x0 0x2
2022-07-20 10:40:12,172 pymodbus.client.sync - DEBUG - New Transaction state 'SENDING'
2022-07-20 10:40:12,172 pymodbus.transaction - DEBUG - Changing transaction state from 'SENDING' to 'WAITING FOR REPLY'
2022-07-20 10:40:12,199 pymodbus.transaction - DEBUG - Changing transaction state from 'WAITING FOR REPLY' to 'PROCESSING REPLY'
2022-07-20 10:40:12,199 pymodbus.transaction - DEBUG - RECV: 0x0 0x43 0x0 0x0 0x0 0x7 0x0 0x3 0x4 0x0 0x0 0x0 0x0
2022-07-20 10:40:12,199 pymodbus.framer.socket_framer - DEBUG - Processing: 0x0 0x43 0x0 0x0 0x0 0x7 0x0 0x3 0x4 0x0 0x0 0x0 0x0
2022-07-20 10:40:12,199 pymodbus.factory - DEBUG - Factory Response[ReadHoldingRegistersResponse: 3]
2022-07-20 10:40:12,199 pymodbus.transaction - DEBUG - Adding transaction 67
2022-07-20 10:40:12,199 pymodbus.transaction - DEBUG - Getting transaction 67
2022-07-20 10:40:12,199 pymodbus.transaction - DEBUG - Changing transaction state from 'PROCESSING REPLY' to 'TRANSACTION_COMPLETE'
2022-07-20 10:40:12,199 pymodbus.transaction - DEBUG - Current transaction state - TRANSACTION_COMPLETE
2022-07-20 10:40:12,199 pymodbus.transaction - DEBUG - Running transaction 68
2022-07-20 10:40:12,199 pymodbus.transaction - DEBUG - SEND: 0x0 0x44 0x0 0x0 0x0 0x6 0x0 0x3 0x0 0x22 0x0 0x2
2022-07-20 10:40:12,199 pymodbus.client.sync - DEBUG - New Transaction state 'SENDING'
2022-07-20 10:40:12,200 pymodbus.transaction - DEBUG - Changing transaction state from 'SENDING' to 'WAITING FOR REPLY'
2022-07-20 10:40:12,230 pymodbus.transaction - DEBUG - Changing transaction state from 'WAITING FOR REPLY' to 'PROCESSING REPLY'
2022-07-20 10:40:12,231 pymodbus.transaction - DEBUG - RECV: 0x0 0x44 0x0 0x0 0x0 0x7 0x0 0x3 0x4 0x0 0x0 0x0 0x0
2022-07-20 10:40:12,231 pymodbus.framer.socket_framer - DEBUG - Processing: 0x0 0x44 0x0 0x0 0x0 0x7 0x0 0x3 0x4 0x0 0x0 0x0 0x0
2022-07-20 10:40:12,231 pymodbus.factory - DEBUG - Factory Response[ReadHoldingRegistersResponse: 3]
2022-07-20 10:40:12,231 pymodbus.transaction - DEBUG - Adding transaction 68
2022-07-20 10:40:12,231 pymodbus.transaction - DEBUG - Getting transaction 68
2022-07-20 10:40:12,231 pymodbus.transaction - DEBUG - Changing transaction state from 'PROCESSING REPLY' to 'TRANSACTION_COMPLETE'
2022-07-20 10:40:12,231 pymodbus.transaction - DEBUG - Current transaction state - TRANSACTION_COMPLETE
2022-07-20 10:40:12,232 pymodbus.transaction - DEBUG - Running transaction 69
2022-07-20 10:40:12,232 pymodbus.transaction - DEBUG - SEND: 0x0 0x45 0x0 0x0 0x0 0x6 0x0 0x3 0x0 0x24 0x0 0x2
2022-07-20 10:40:12,232 pymodbus.client.sync - DEBUG - New Transaction state 'SENDING'
2022-07-20 10:40:12,232 pymodbus.transaction - DEBUG - Changing transaction state from 'SENDING' to 'WAITING FOR REPLY'
2022-07-20 10:40:12,262 pymodbus.transaction - DEBUG - Changing transaction state from 'WAITING FOR REPLY' to 'PROCESSING REPLY'
2022-07-20 10:40:12,262 pymodbus.transaction - DEBUG - RECV: 0x0 0x45 0x0 0x0 0x0 0x7 0x0 0x3 0x4 0x0 0x0 0x0 0x0
2022-07-20 10:40:12,262 pymodbus.framer.socket_framer - DEBUG - Processing: 0x0 0x45 0x0 0x0 0x0 0x7 0x0 0x3 0x4 0x0 0x0 0x0 0x0
2022-07-20 10:40:12,262 pymodbus.factory - DEBUG - Factory Response[ReadHoldingRegistersResponse: 3]
2022-07-20 10:40:12,262 pymodbus.transaction - DEBUG - Adding transaction 69
2022-07-20 10:40:12,262 pymodbus.transaction - DEBUG - Getting transaction 69
2022-07-20 10:40:12,262 pymodbus.transaction - DEBUG - Changing transaction state from 'PROCESSING REPLY' to 'TRANSACTION_COMPLETE'
2022-07-20 10:40:12,262 pymodbus.transaction - DEBUG - Current transaction state - TRANSACTION_COMPLETE
2022-07-20 10:40:12,263 pymodbus.transaction - DEBUG - Running transaction 70
2022-07-20 10:40:12,263 pymodbus.transaction - DEBUG - SEND: 0x0 0x46 0x0 0x0 0x0 0x6 0x0 0x3 0x0 0x26 0x0 0x2
2022-07-20 10:40:12,263 pymodbus.client.sync - DEBUG - New Transaction state 'SENDING'
2022-07-20 10:40:12,263 pymodbus.transaction - DEBUG - Changing transaction state from 'SENDING' to 'WAITING FOR REPLY'
2022-07-20 10:40:12,292 pymodbus.transaction - DEBUG - Changing transaction state from 'WAITING FOR REPLY' to 'PROCESSING REPLY'
2022-07-20 10:40:12,292 pymodbus.transaction - DEBUG - RECV: 0x0 0x46 0x0 0x0 0x0 0x7 0x0 0x3 0x4 0x0 0x0 0x0 0x0
2022-07-20 10:40:12,292 pymodbus.framer.socket_framer - DEBUG - Processing: 0x0 0x46 0x0 0x0 0x0 0x7 0x0 0x3 0x4 0x0 0x0 0x0 0x0
2022-07-20 10:40:12,292 pymodbus.factory - DEBUG - Factory Response[ReadHoldingRegistersResponse: 3]
2022-07-20 10:40:12,292 pymodbus.transaction - DEBUG - Adding transaction 70
2022-07-20 10:40:12,294 pymodbus.transaction - DEBUG - Getting transaction 70
2022-07-20 10:40:12,294 pymodbus.transaction - DEBUG - Changing transaction state from 'PROCESSING REPLY' to 'TRANSACTION_COMPLETE'
2022-07-20 10:40:12,294 pymodbus.transaction - DEBUG - Current transaction state - TRANSACTION_COMPLETE
2022-07-20 10:40:12,294 pymodbus.transaction - DEBUG - Running transaction 71
2022-07-20 10:40:12,294 pymodbus.transaction - DEBUG - SEND: 0x0 0x47 0x0 0x0 0x0 0x6 0x0 0x3 0x0 0x28 0x0 0x2
2022-07-20 10:40:12,294 pymodbus.client.sync - DEBUG - New Transaction state 'SENDING'
2022-07-20 10:40:12,294 pymodbus.transaction - DEBUG - Changing transaction state from 'SENDING' to 'WAITING FOR REPLY'
2022-07-20 10:40:12,323 pymodbus.transaction - DEBUG - Changing transaction state from 'WAITING FOR REPLY' to 'PROCESSING REPLY'
2022-07-20 10:40:12,323 pymodbus.transaction - DEBUG - RECV: 0x0 0x47 0x0 0x0 0x0 0x7 0x0 0x3 0x4 0x0 0x0 0x0 0x0
2022-07-20 10:40:12,323 pymodbus.framer.socket_framer - DEBUG - Processing: 0x0 0x47 0x0 0x0 0x0 0x7 0x0 0x3 0x4 0x0 0x0 0x0 0x0
2022-07-20 10:40:12,323 pymodbus.factory - DEBUG - Factory Response[ReadHoldingRegistersResponse: 3]
2022-07-20 10:40:12,323 pymodbus.transaction - DEBUG - Adding transaction 71
2022-07-20 10:40:12,323 pymodbus.transaction - DEBUG - Getting transaction 71
2022-07-20 10:40:12,323 pymodbus.transaction - DEBUG - Changing transaction state from 'PROCESSING REPLY' to 'TRANSACTION_COMPLETE'
2022-07-20 10:40:12,325 pymodbus.transaction - DEBUG - Current transaction state - TRANSACTION_COMPLETE
2022-07-20 10:40:12,325 pymodbus.transaction - DEBUG - Running transaction 72
2022-07-20 10:40:12,325 pymodbus.transaction - DEBUG - SEND: 0x0 0x48 0x0 0x0 0x0 0x6 0x0 0x3 0x0 0x2a 0x0 0x2
2022-07-20 10:40:12,325 pymodbus.client.sync - DEBUG - New Transaction state 'SENDING'
2022-07-20 10:40:12,325 pymodbus.transaction - DEBUG - Changing transaction state from 'SENDING' to 'WAITING FOR REPLY'
2022-07-20 10:40:12,354 pymodbus.transaction - DEBUG - Changing transaction state from 'WAITING FOR REPLY' to 'PROCESSING REPLY'
2022-07-20 10:40:12,354 pymodbus.transaction - DEBUG - RECV: 0x0 0x48 0x0 0x0 0x0 0x7 0x0 0x3 0x4 0x0 0x0 0x0 0x0
2022-07-20 10:40:12,354 pymodbus.framer.socket_framer - DEBUG - Processing: 0x0 0x48 0x0 0x0 0x0 0x7 0x0 0x3 0x4 0x0 0x0 0x0 0x0
2022-07-20 10:40:12,354 pymodbus.factory - DEBUG - Factory Response[ReadHoldingRegistersResponse: 3]
2022-07-20 10:40:12,354 pymodbus.transaction - DEBUG - Adding transaction 72
2022-07-20 10:40:12,355 pymodbus.transaction - DEBUG - Getting transaction 72
2022-07-20 10:40:12,355 pymodbus.transaction - DEBUG - Changing transaction state from 'PROCESSING REPLY' to 'TRANSACTION_COMPLETE'
2022-07-20 10:40:12,355 pymodbus.transaction - DEBUG - Current transaction state - TRANSACTION_COMPLETE
2022-07-20 10:40:12,355 pymodbus.transaction - DEBUG - Running transaction 73
2022-07-20 10:40:12,355 pymodbus.transaction - DEBUG - SEND: 0x0 0x49 0x0 0x0 0x0 0x6 0x0 0x3 0x0 0x2c 0x0 0x2
2022-07-20 10:40:12,355 pymodbus.client.sync - DEBUG - New Transaction state 'SENDING'
2022-07-20 10:40:12,355 pymodbus.transaction - DEBUG - Changing transaction state from 'SENDING' to 'WAITING FOR REPLY'
2022-07-20 10:40:12,385 pymodbus.transaction - DEBUG - Changing transaction state from 'WAITING FOR REPLY' to 'PROCESSING REPLY'
2022-07-20 10:40:12,386 pymodbus.transaction - DEBUG - RECV: 0x0 0x49 0x0 0x0 0x0 0x7 0x0 0x3 0x4 0x0 0x0 0x0 0x0
2022-07-20 10:40:12,386 pymodbus.framer.socket_framer - DEBUG - Processing: 0x0 0x49 0x0 0x0 0x0 0x7 0x0 0x3 0x4 0x0 0x0 0x0 0x0
2022-07-20 10:40:12,386 pymodbus.factory - DEBUG - Factory Response[ReadHoldingRegistersResponse: 3]
2022-07-20 10:40:12,386 pymodbus.transaction - DEBUG - Adding transaction 73
2022-07-20 10:40:12,387 pymodbus.transaction - DEBUG - Getting transaction 73
2022-07-20 10:40:12,387 pymodbus.transaction - DEBUG - Changing transaction state from 'PROCESSING REPLY' to 'TRANSACTION_COMPLETE'
2022-07-20 10:40:12,387 pymodbus.transaction - DEBUG - Current transaction state - TRANSACTION_COMPLETE
2022-07-20 10:40:12,387 pymodbus.transaction - DEBUG - Running transaction 74
2022-07-20 10:40:12,387 pymodbus.transaction - DEBUG - SEND: 0x0 0x4a 0x0 0x0 0x0 0x6 0x0 0x3 0x0 0x30 0x0 0x2
2022-07-20 10:40:12,387 pymodbus.client.sync - DEBUG - New Transaction state 'SENDING'
2022-07-20 10:40:12,387 pymodbus.transaction - DEBUG - Changing transaction state from 'SENDING' to 'WAITING FOR REPLY'
2022-07-20 10:40:12,416 pymodbus.transaction - DEBUG - Changing transaction state from 'WAITING FOR REPLY' to 'PROCESSING REPLY'
2022-07-20 10:40:12,416 pymodbus.transaction - DEBUG - RECV: 0x0 0x4a 0x0 0x0 0x0 0x7 0x0 0x3 0x4 0x0 0x0 0x0 0x0
2022-07-20 10:40:12,416 pymodbus.framer.socket_framer - DEBUG - Processing: 0x0 0x4a 0x0 0x0 0x0 0x7 0x0 0x3 0x4 0x0 0x0 0x0 0x0
2022-07-20 10:40:12,416 pymodbus.factory - DEBUG - Factory Response[ReadHoldingRegistersResponse: 3]
2022-07-20 10:40:12,416 pymodbus.transaction - DEBUG - Adding transaction 74
2022-07-20 10:40:12,416 pymodbus.transaction - DEBUG - Getting transaction 74
2022-07-20 10:40:12,416 pymodbus.transaction - DEBUG - Changing transaction state from 'PROCESSING REPLY' to 'TRANSACTION_COMPLETE'
2022-07-20 10:40:12,416 pymodbus.transaction - DEBUG - Current transaction state - TRANSACTION_COMPLETE
2022-07-20 10:40:12,416 pymodbus.transaction - DEBUG - Running transaction 75
2022-07-20 10:40:12,416 pymodbus.transaction - DEBUG - SEND: 0x0 0x4b 0x0 0x0 0x0 0x6 0x0 0x3 0x0 0x2e 0x0 0x2
2022-07-20 10:40:12,418 pymodbus.client.sync - DEBUG - New Transaction state 'SENDING'
2022-07-20 10:40:12,418 pymodbus.transaction - DEBUG - Changing transaction state from 'SENDING' to 'WAITING FOR REPLY'
2022-07-20 10:40:12,447 pymodbus.transaction - DEBUG - Changing transaction state from 'WAITING FOR REPLY' to 'PROCESSING REPLY'
2022-07-20 10:40:12,448 pymodbus.transaction - DEBUG - RECV: 0x0 0x4b 0x0 0x0 0x0 0x7 0x0 0x3 0x4 0x0 0x0 0x0 0x0
2022-07-20 10:40:12,448 pymodbus.framer.socket_framer - DEBUG - Processing: 0x0 0x4b 0x0 0x0 0x0 0x7 0x0 0x3 0x4 0x0 0x0 0x0 0x0
2022-07-20 10:40:12,448 pymodbus.factory - DEBUG - Factory Response[ReadHoldingRegistersResponse: 3]
2022-07-20 10:40:12,448 pymodbus.transaction - DEBUG - Adding transaction 75
2022-07-20 10:40:12,448 pymodbus.transaction - DEBUG - Getting transaction 75
2022-07-20 10:40:12,448 pymodbus.transaction - DEBUG - Changing transaction state from 'PROCESSING REPLY' to 'TRANSACTION_COMPLETE'
2022-07-20 10:40:12,448 pymodbus.transaction - DEBUG - Current transaction state - TRANSACTION_COMPLETE
2022-07-20 10:40:12,449 pymodbus.transaction - DEBUG - Running transaction 76
2022-07-20 10:40:12,449 pymodbus.transaction - DEBUG - SEND: 0x0 0x4c 0x0 0x0 0x0 0x6 0x0 0x3 0x0 0x30 0x0 0x2
2022-07-20 10:40:12,449 pymodbus.client.sync - DEBUG - New Transaction state 'SENDING'
2022-07-20 10:40:12,449 pymodbus.transaction - DEBUG - Changing transaction state from 'SENDING' to 'WAITING FOR REPLY'
2022-07-20 10:40:12,478 pymodbus.transaction - DEBUG - Changing transaction state from 'WAITING FOR REPLY' to 'PROCESSING REPLY'
2022-07-20 10:40:12,478 pymodbus.transaction - DEBUG - RECV: 0x0 0x4c 0x0 0x0 0x0 0x7 0x0 0x3 0x4 0x0 0x0 0x0 0x0
2022-07-20 10:40:12,478 pymodbus.framer.socket_framer - DEBUG - Processing: 0x0 0x4c 0x0 0x0 0x0 0x7 0x0 0x3 0x4 0x0 0x0 0x0 0x0
2022-07-20 10:40:12,479 pymodbus.factory - DEBUG - Factory Response[ReadHoldingRegistersResponse: 3]
2022-07-20 10:40:12,479 pymodbus.transaction - DEBUG - Adding transaction 76
2022-07-20 10:40:12,479 pymodbus.transaction - DEBUG - Getting transaction 76
2022-07-20 10:40:12,479 pymodbus.transaction - DEBUG - Changing transaction state from 'PROCESSING REPLY' to 'TRANSACTION_COMPLETE'
2022-07-20 10:40:12,479 pymodbus.transaction - DEBUG - Current transaction state - TRANSACTION_COMPLETE
2022-07-20 10:40:12,479 pymodbus.transaction - DEBUG - Running transaction 77
2022-07-20 10:40:12,479 pymodbus.transaction - DEBUG - SEND: 0x0 0x4d 0x0 0x0 0x0 0x6 0x0 0x3 0x0 0x32 0x0 0x2
2022-07-20 10:40:12,479 pymodbus.client.sync - DEBUG - New Transaction state 'SENDING'
2022-07-20 10:40:12,479 pymodbus.transaction - DEBUG - Changing transaction state from 'SENDING' to 'WAITING FOR REPLY'
2022-07-20 10:40:12,510 pymodbus.transaction - DEBUG - Changing transaction state from 'WAITING FOR REPLY' to 'PROCESSING REPLY'
2022-07-20 10:40:12,510 pymodbus.transaction - DEBUG - RECV: 0x0 0x4d 0x0 0x0 0x0 0x7 0x0 0x3 0x4 0x0 0x0 0x0 0x0
2022-07-20 10:40:12,510 pymodbus.framer.socket_framer - DEBUG - Processing: 0x0 0x4d 0x0 0x0 0x0 0x7 0x0 0x3 0x4 0x0 0x0 0x0 0x0
2022-07-20 10:40:12,511 pymodbus.factory - DEBUG - Factory Response[ReadHoldingRegistersResponse: 3]
2022-07-20 10:40:12,511 pymodbus.transaction - DEBUG - Adding transaction 77
2022-07-20 10:40:12,511 pymodbus.transaction - DEBUG - Getting transaction 77
2022-07-20 10:40:12,511 pymodbus.transaction - DEBUG - Changing transaction state from 'PROCESSING REPLY' to 'TRANSACTION_COMPLETE'
2022-07-20 10:40:12,511 pymodbus.transaction - DEBUG - Current transaction state - TRANSACTION_COMPLETE
2022-07-20 10:40:12,511 pymodbus.transaction - DEBUG - Running transaction 78
2022-07-20 10:40:12,511 pymodbus.transaction - DEBUG - SEND: 0x0 0x4e 0x0 0x0 0x0 0x6 0x0 0x3 0x0 0x34 0x0 0x2
2022-07-20 10:40:12,511 pymodbus.client.sync - DEBUG - New Transaction state 'SENDING'
2022-07-20 10:40:12,511 pymodbus.transaction - DEBUG - Changing transaction state from 'SENDING' to 'WAITING FOR REPLY'
2022-07-20 10:40:12,541 pymodbus.transaction - DEBUG - Changing transaction state from 'WAITING FOR REPLY' to 'PROCESSING REPLY'
2022-07-20 10:40:12,541 pymodbus.transaction - DEBUG - RECV: 0x0 0x4e 0x0 0x0 0x0 0x7 0x0 0x3 0x4 0x0 0x0 0x0 0x0
2022-07-20 10:40:12,541 pymodbus.framer.socket_framer - DEBUG - Processing: 0x0 0x4e 0x0 0x0 0x0 0x7 0x0 0x3 0x4 0x0 0x0 0x0 0x0
2022-07-20 10:40:12,541 pymodbus.factory - DEBUG - Factory Response[ReadHoldingRegistersResponse: 3]
2022-07-20 10:40:12,541 pymodbus.transaction - DEBUG - Adding transaction 78
2022-07-20 10:40:12,542 pymodbus.transaction - DEBUG - Getting transaction 78
2022-07-20 10:40:12,542 pymodbus.transaction - DEBUG - Changing transaction state from 'PROCESSING REPLY' to 'TRANSACTION_COMPLETE'
2022-07-20 10:40:12,542 pymodbus.transaction - DEBUG - Current transaction state - TRANSACTION_COMPLETE
2022-07-20 10:40:12,542 pymodbus.transaction - DEBUG - Running transaction 79
2022-07-20 10:40:12,542 pymodbus.transaction - DEBUG - SEND: 0x0 0x4f 0x0 0x0 0x0 0x6 0x0 0x3 0x0 0x36 0x0 0x2
2022-07-20 10:40:12,542 pymodbus.client.sync - DEBUG - New Transaction state 'SENDING'
2022-07-20 10:40:12,542 pymodbus.transaction - DEBUG - Changing transaction state from 'SENDING' to 'WAITING FOR REPLY'
2022-07-20 10:40:12,573 pymodbus.transaction - DEBUG - Changing transaction state from 'WAITING FOR REPLY' to 'PROCESSING REPLY'
2022-07-20 10:40:12,573 pymodbus.transaction - DEBUG - RECV: 0x0 0x4f 0x0 0x0 0x0 0x7 0x0 0x3 0x4 0x0 0x0 0x0 0x0
2022-07-20 10:40:12,573 pymodbus.framer.socket_framer - DEBUG - Processing: 0x0 0x4f 0x0 0x0 0x0 0x7 0x0 0x3 0x4 0x0 0x0 0x0 0x0
2022-07-20 10:40:12,573 pymodbus.factory - DEBUG - Factory Response[ReadHoldingRegistersResponse: 3]
2022-07-20 10:40:12,573 pymodbus.transaction - DEBUG - Adding transaction 79
2022-07-20 10:40:12,574 pymodbus.transaction - DEBUG - Getting transaction 79
2022-07-20 10:40:12,574 pymodbus.transaction - DEBUG - Changing transaction state from 'PROCESSING REPLY' to 'TRANSACTION_COMPLETE'
2022-07-20 10:40:12,574 pymodbus.transaction - DEBUG - Current transaction state - TRANSACTION_COMPLETE
2022-07-20 10:40:12,574 pymodbus.transaction - DEBUG - Running transaction 80
