2022-07-22 14:41:03,719 log1 - DEBUG - Connecting to Modbus...
2022-07-22 14:41:03,736 pymodbus.client.sync - DEBUG - Connection to Modbus server established. Socket ('192.168.1.36', 58367)
2022-07-22 14:41:03,736 root - DEBUG - True
2022-07-22 14:41:03,736 log1 - DEBUG - Modbus Connection Status: True
2022-07-22 14:41:03,738 root - DEBUG - Reading Registers
2022-07-22 14:41:03,739 log1 - DEBUG - Reading Registers
2022-07-22 14:41:03,740 pymodbus.transaction - DEBUG - Current transaction state - IDLE
2022-07-22 14:41:03,740 pymodbus.transaction - DEBUG - Running transaction 1
2022-07-22 14:41:03,741 pymodbus.transaction - DEBUG - SEND: 0x0 0x1 0x0 0x0 0x0 0x6 0x2 0x3 0x0 0x0 0x0 0x2
2022-07-22 14:41:03,741 pymodbus.client.sync - DEBUG - New Transaction state 'SENDING'
2022-07-22 14:41:03,742 pymodbus.transaction - DEBUG - Changing transaction state from 'SENDING' to 'WAITING FOR REPLY'
2022-07-22 14:41:03,767 pymodbus.transaction - DEBUG - Changing transaction state from 'WAITING FOR REPLY' to 'PROCESSING REPLY'
2022-07-22 14:41:03,768 pymodbus.transaction - DEBUG - RECV: 0x0 0x1 0x0 0x0 0x0 0x7 0x2 0x3 0x4 0x0 0x1 0x0 0x1
2022-07-22 14:41:03,768 pymodbus.framer.socket_framer - DEBUG - Processing: 0x0 0x1 0x0 0x0 0x0 0x7 0x2 0x3 0x4 0x0 0x1 0x0 0x1
2022-07-22 14:41:03,768 pymodbus.factory - DEBUG - Factory Response[ReadHoldingRegistersResponse: 3]
2022-07-22 14:41:03,768 pymodbus.transaction - DEBUG - Adding transaction 1
2022-07-22 14:41:03,768 pymodbus.transaction - DEBUG - Getting transaction 1
2022-07-22 14:41:03,768 pymodbus.transaction - DEBUG - Changing transaction state from 'PROCESSING REPLY' to 'TRANSACTION_COMPLETE'
2022-07-22 14:41:03,768 pymodbus.transaction - DEBUG - Current transaction state - TRANSACTION_COMPLETE
2022-07-22 14:41:03,768 pymodbus.transaction - DEBUG - Running transaction 2
2022-07-22 14:41:03,768 pymodbus.transaction - DEBUG - SEND: 0x0 0x2 0x0 0x0 0x0 0x6 0x2 0x3 0x0 0x2 0x0 0x2
2022-07-22 14:41:03,769 pymodbus.client.sync - DEBUG - New Transaction state 'SENDING'
2022-07-22 14:41:03,769 pymodbus.transaction - DEBUG - Changing transaction state from 'SENDING' to 'WAITING FOR REPLY'
2022-07-22 14:41:03,798 pymodbus.transaction - DEBUG - Changing transaction state from 'WAITING FOR REPLY' to 'PROCESSING REPLY'
2022-07-22 14:41:03,798 pymodbus.transaction - DEBUG - RECV: 0x0 0x2 0x0 0x0 0x0 0x7 0x2 0x3 0x4 0x0 0x0 0x0 0x50
2022-07-22 14:41:03,798 pymodbus.framer.socket_framer - DEBUG - Processing: 0x0 0x2 0x0 0x0 0x0 0x7 0x2 0x3 0x4 0x0 0x0 0x0 0x50
2022-07-22 14:41:03,799 pymodbus.factory - DEBUG - Factory Response[ReadHoldingRegistersResponse: 3]
2022-07-22 14:41:03,799 pymodbus.transaction - DEBUG - Adding transaction 2
2022-07-22 14:41:03,799 pymodbus.transaction - DEBUG - Getting transaction 2
2022-07-22 14:41:03,799 pymodbus.transaction - DEBUG - Changing transaction state from 'PROCESSING REPLY' to 'TRANSACTION_COMPLETE'
2022-07-22 14:41:03,799 pymodbus.transaction - DEBUG - Current transaction state - TRANSACTION_COMPLETE
2022-07-22 14:41:03,800 pymodbus.transaction - DEBUG - Running transaction 3
2022-07-22 14:41:03,800 pymodbus.transaction - DEBUG - SEND: 0x0 0x3 0x0 0x0 0x0 0x6 0x2 0x3 0x0 0x4 0x0 0x2
2022-07-22 14:41:03,800 pymodbus.client.sync - DEBUG - New Transaction state 'SENDING'
2022-07-22 14:41:03,800 pymodbus.transaction - DEBUG - Changing transaction state from 'SENDING' to 'WAITING FOR REPLY'
2022-07-22 14:41:03,829 pymodbus.transaction - DEBUG - Changing transaction state from 'WAITING FOR REPLY' to 'PROCESSING REPLY'
2022-07-22 14:41:03,830 pymodbus.transaction - DEBUG - RECV: 0x0 0x3 0x0 0x0 0x0 0x7 0x2 0x3 0x4 0x0 0x0 0x0 0x17
2022-07-22 14:41:03,830 pymodbus.framer.socket_framer - DEBUG - Processing: 0x0 0x3 0x0 0x0 0x0 0x7 0x2 0x3 0x4 0x0 0x0 0x0 0x17
2022-07-22 14:41:03,830 pymodbus.factory - DEBUG - Factory Response[ReadHoldingRegistersResponse: 3]
2022-07-22 14:41:03,831 pymodbus.transaction - DEBUG - Adding transaction 3
2022-07-22 14:41:03,831 pymodbus.transaction - DEBUG - Getting transaction 3
2022-07-22 14:41:03,831 pymodbus.transaction - DEBUG - Changing transaction state from 'PROCESSING REPLY' to 'TRANSACTION_COMPLETE'
2022-07-22 14:41:03,831 pymodbus.transaction - DEBUG - Current transaction state - TRANSACTION_COMPLETE
2022-07-22 14:41:03,831 pymodbus.transaction - DEBUG - Running transaction 4
2022-07-22 14:41:03,832 pymodbus.transaction - DEBUG - SEND: 0x0 0x4 0x0 0x0 0x0 0x6 0x2 0x3 0x0 0x6 0x0 0x2
2022-07-22 14:41:03,832 pymodbus.client.sync - DEBUG - New Transaction state 'SENDING'
2022-07-22 14:41:03,832 pymodbus.transaction - DEBUG - Changing transaction state from 'SENDING' to 'WAITING FOR REPLY'
2022-07-22 14:41:03,860 pymodbus.transaction - DEBUG - Changing transaction state from 'WAITING FOR REPLY' to 'PROCESSING REPLY'
2022-07-22 14:41:03,860 pymodbus.transaction - DEBUG - RECV: 0x0 0x4 0x0 0x0 0x0 0x7 0x2 0x3 0x4 0x0 0x0 0x0 0x4
2022-07-22 14:41:03,861 pymodbus.framer.socket_framer - DEBUG - Processing: 0x0 0x4 0x0 0x0 0x0 0x7 0x2 0x3 0x4 0x0 0x0 0x0 0x4
2022-07-22 14:41:03,861 pymodbus.factory - DEBUG - Factory Response[ReadHoldingRegistersResponse: 3]
2022-07-22 14:41:03,862 pymodbus.transaction - DEBUG - Adding transaction 4
2022-07-22 14:41:03,862 pymodbus.transaction - DEBUG - Getting transaction 4
2022-07-22 14:41:03,862 pymodbus.transaction - DEBUG - Changing transaction state from 'PROCESSING REPLY' to 'TRANSACTION_COMPLETE'
2022-07-22 14:41:03,862 pymodbus.transaction - DEBUG - Current transaction state - TRANSACTION_COMPLETE
2022-07-22 14:41:03,863 pymodbus.transaction - DEBUG - Running transaction 5
2022-07-22 14:41:03,863 pymodbus.transaction - DEBUG - SEND: 0x0 0x5 0x0 0x0 0x0 0x6 0x2 0x3 0x0 0xc 0x0 0x2
2022-07-22 14:41:03,863 pymodbus.client.sync - DEBUG - New Transaction state 'SENDING'
2022-07-22 14:41:03,863 pymodbus.transaction - DEBUG - Changing transaction state from 'SENDING' to 'WAITING FOR REPLY'
2022-07-22 14:41:03,892 pymodbus.transaction - DEBUG - Changing transaction state from 'WAITING FOR REPLY' to 'PROCESSING REPLY'
2022-07-22 14:41:03,892 pymodbus.transaction - DEBUG - RECV: 0x0 0x5 0x0 0x0 0x0 0x7 0x2 0x3 0x4 0x0 0x0 0x0 0x0
2022-07-22 14:41:03,893 pymodbus.framer.socket_framer - DEBUG - Processing: 0x0 0x5 0x0 0x0 0x0 0x7 0x2 0x3 0x4 0x0 0x0 0x0 0x0
2022-07-22 14:41:03,893 pymodbus.factory - DEBUG - Factory Response[ReadHoldingRegistersResponse: 3]
2022-07-22 14:41:03,893 pymodbus.transaction - DEBUG - Adding transaction 5
2022-07-22 14:41:03,894 pymodbus.transaction - DEBUG - Getting transaction 5
2022-07-22 14:41:03,894 pymodbus.transaction - DEBUG - Changing transaction state from 'PROCESSING REPLY' to 'TRANSACTION_COMPLETE'
2022-07-22 14:41:03,894 pymodbus.transaction - DEBUG - Current transaction state - TRANSACTION_COMPLETE
2022-07-22 14:41:03,894 pymodbus.transaction - DEBUG - Running transaction 6
2022-07-22 14:41:03,895 pymodbus.transaction - DEBUG - SEND: 0x0 0x6 0x0 0x0 0x0 0x6 0x2 0x3 0x0 0xe 0x0 0x2
2022-07-22 14:41:03,895 pymodbus.client.sync - DEBUG - New Transaction state 'SENDING'
2022-07-22 14:41:03,895 pymodbus.transaction - DEBUG - Changing transaction state from 'SENDING' to 'WAITING FOR REPLY'
2022-07-22 14:41:03,923 pymodbus.transaction - DEBUG - Changing transaction state from 'WAITING FOR REPLY' to 'PROCESSING REPLY'
2022-07-22 14:41:03,923 pymodbus.transaction - DEBUG - RECV: 0x0 0x6 0x0 0x0 0x0 0x7 0x2 0x3 0x4 0x0 0x0 0x0 0x0
2022-07-22 14:41:03,923 pymodbus.framer.socket_framer - DEBUG - Processing: 0x0 0x6 0x0 0x0 0x0 0x7 0x2 0x3 0x4 0x0 0x0 0x0 0x0
2022-07-22 14:41:03,924 pymodbus.factory - DEBUG - Factory Response[ReadHoldingRegistersResponse: 3]
2022-07-22 14:41:03,924 pymodbus.transaction - DEBUG - Adding transaction 6
2022-07-22 14:41:03,924 pymodbus.transaction - DEBUG - Getting transaction 6
2022-07-22 14:41:03,924 pymodbus.transaction - DEBUG - Changing transaction state from 'PROCESSING REPLY' to 'TRANSACTION_COMPLETE'
2022-07-22 14:41:03,926 pymodbus.transaction - DEBUG - Current transaction state - TRANSACTION_COMPLETE
2022-07-22 14:41:03,926 pymodbus.transaction - DEBUG - Running transaction 7
2022-07-22 14:41:03,927 pymodbus.transaction - DEBUG - SEND: 0x0 0x7 0x0 0x0 0x0 0x6 0x2 0x3 0x0 0x10 0x0 0x2
2022-07-22 14:41:03,927 pymodbus.client.sync - DEBUG - New Transaction state 'SENDING'
2022-07-22 14:41:03,928 pymodbus.transaction - DEBUG - Changing transaction state from 'SENDING' to 'WAITING FOR REPLY'
2022-07-22 14:41:03,954 pymodbus.transaction - DEBUG - Changing transaction state from 'WAITING FOR REPLY' to 'PROCESSING REPLY'
2022-07-22 14:41:03,954 pymodbus.transaction - DEBUG - RECV: 0x0 0x7 0x0 0x0 0x0 0x7 0x2 0x3 0x4 0x0 0x0 0x0 0x0
2022-07-22 14:41:03,955 pymodbus.framer.socket_framer - DEBUG - Processing: 0x0 0x7 0x0 0x0 0x0 0x7 0x2 0x3 0x4 0x0 0x0 0x0 0x0
2022-07-22 14:41:03,955 pymodbus.factory - DEBUG - Factory Response[ReadHoldingRegistersResponse: 3]
2022-07-22 14:41:03,955 pymodbus.transaction - DEBUG - Adding transaction 7
2022-07-22 14:41:03,956 pymodbus.transaction - DEBUG - Getting transaction 7
2022-07-22 14:41:03,956 pymodbus.transaction - DEBUG - Changing transaction state from 'PROCESSING REPLY' to 'TRANSACTION_COMPLETE'
2022-07-22 14:41:03,956 pymodbus.transaction - DEBUG - Current transaction state - TRANSACTION_COMPLETE
2022-07-22 14:41:03,957 pymodbus.transaction - DEBUG - Running transaction 8
2022-07-22 14:41:03,957 pymodbus.transaction - DEBUG - SEND: 0x0 0x8 0x0 0x0 0x0 0x6 0x2 0x3 0x0 0x12 0x0 0x2
2022-07-22 14:41:03,957 pymodbus.client.sync - DEBUG - New Transaction state 'SENDING'
2022-07-22 14:41:03,958 pymodbus.transaction - DEBUG - Changing transaction state from 'SENDING' to 'WAITING FOR REPLY'
2022-07-22 14:41:03,985 pymodbus.transaction - DEBUG - Changing transaction state from 'WAITING FOR REPLY' to 'PROCESSING REPLY'
2022-07-22 14:41:03,986 pymodbus.transaction - DEBUG - RECV: 0x0 0x8 0x0 0x0 0x0 0x7 0x2 0x3 0x4 0x0 0x0 0x0 0x0
2022-07-22 14:41:03,986 pymodbus.framer.socket_framer - DEBUG - Processing: 0x0 0x8 0x0 0x0 0x0 0x7 0x2 0x3 0x4 0x0 0x0 0x0 0x0
2022-07-22 14:41:03,987 pymodbus.factory - DEBUG - Factory Response[ReadHoldingRegistersResponse: 3]
2022-07-22 14:41:03,987 pymodbus.transaction - DEBUG - Adding transaction 8
2022-07-22 14:41:03,987 pymodbus.transaction - DEBUG - Getting transaction 8
2022-07-22 14:41:03,988 pymodbus.transaction - DEBUG - Changing transaction state from 'PROCESSING REPLY' to 'TRANSACTION_COMPLETE'
2022-07-22 14:41:03,988 pymodbus.transaction - DEBUG - Current transaction state - TRANSACTION_COMPLETE
2022-07-22 14:41:03,988 pymodbus.transaction - DEBUG - Running transaction 9
2022-07-22 14:41:03,989 pymodbus.transaction - DEBUG - SEND: 0x0 0x9 0x0 0x0 0x0 0x6 0x2 0x3 0x0 0x14 0x0 0x2
2022-07-22 14:41:03,990 pymodbus.client.sync - DEBUG - New Transaction state 'SENDING'
2022-07-22 14:41:03,990 pymodbus.transaction - DEBUG - Changing transaction state from 'SENDING' to 'WAITING FOR REPLY'
2022-07-22 14:41:04,016 pymodbus.transaction - DEBUG - Changing transaction state from 'WAITING FOR REPLY' to 'PROCESSING REPLY'
2022-07-22 14:41:04,017 pymodbus.transaction - DEBUG - RECV: 0x0 0x9 0x0 0x0 0x0 0x7 0x2 0x3 0x4 0x0 0x0 0x0 0x0
2022-07-22 14:41:04,017 pymodbus.framer.socket_framer - DEBUG - Processing: 0x0 0x9 0x0 0x0 0x0 0x7 0x2 0x3 0x4 0x0 0x0 0x0 0x0
2022-07-22 14:41:04,017 pymodbus.factory - DEBUG - Factory Response[ReadHoldingRegistersResponse: 3]
2022-07-22 14:41:04,018 pymodbus.transaction - DEBUG - Adding transaction 9
2022-07-22 14:41:04,018 pymodbus.transaction - DEBUG - Getting transaction 9
2022-07-22 14:41:04,018 pymodbus.transaction - DEBUG - Changing transaction state from 'PROCESSING REPLY' to 'TRANSACTION_COMPLETE'
2022-07-22 14:41:04,018 pymodbus.transaction - DEBUG - Current transaction state - TRANSACTION_COMPLETE
2022-07-22 14:41:04,018 pymodbus.transaction - DEBUG - Running transaction 10
2022-07-22 14:41:04,018 pymodbus.transaction - DEBUG - SEND: 0x0 0xa 0x0 0x0 0x0 0x6 0x2 0x3 0x0 0x16 0x0 0x2
2022-07-22 14:41:04,019 pymodbus.client.sync - DEBUG - New Transaction state 'SENDING'
2022-07-22 14:41:04,019 pymodbus.transaction - DEBUG - Changing transaction state from 'SENDING' to 'WAITING FOR REPLY'
2022-07-22 14:41:04,054 pymodbus.transaction - DEBUG - Changing transaction state from 'WAITING FOR REPLY' to 'PROCESSING REPLY'
2022-07-22 14:41:04,054 pymodbus.transaction - DEBUG - RECV: 0x0 0xa 0x0 0x0 0x0 0x7 0x2 0x3 0x4 0x0 0x0 0x0 0x0
2022-07-22 14:41:04,055 pymodbus.framer.socket_framer - DEBUG - Processing: 0x0 0xa 0x0 0x0 0x0 0x7 0x2 0x3 0x4 0x0 0x0 0x0 0x0
2022-07-22 14:41:04,055 pymodbus.factory - DEBUG - Factory Response[ReadHoldingRegistersResponse: 3]
2022-07-22 14:41:04,055 pymodbus.transaction - DEBUG - Adding transaction 10
2022-07-22 14:41:04,056 pymodbus.transaction - DEBUG - Getting transaction 10
2022-07-22 14:41:04,057 pymodbus.transaction - DEBUG - Changing transaction state from 'PROCESSING REPLY' to 'TRANSACTION_COMPLETE'
2022-07-22 14:41:04,057 pymodbus.transaction - DEBUG - Current transaction state - TRANSACTION_COMPLETE
2022-07-22 14:41:04,057 pymodbus.transaction - DEBUG - Running transaction 11
2022-07-22 14:41:04,058 pymodbus.transaction - DEBUG - SEND: 0x0 0xb 0x0 0x0 0x0 0x6 0x2 0x3 0x0 0x18 0x0 0x2
2022-07-22 14:41:04,058 pymodbus.client.sync - DEBUG - New Transaction state 'SENDING'
2022-07-22 14:41:04,059 pymodbus.transaction - DEBUG - Changing transaction state from 'SENDING' to 'WAITING FOR REPLY'
2022-07-22 14:41:04,079 pymodbus.transaction - DEBUG - Changing transaction state from 'WAITING FOR REPLY' to 'PROCESSING REPLY'
2022-07-22 14:41:04,079 pymodbus.transaction - DEBUG - RECV: 0x0 0xb 0x0 0x0 0x0 0x7 0x2 0x3 0x4 0x0 0x0 0x0 0x0
2022-07-22 14:41:04,079 pymodbus.framer.socket_framer - DEBUG - Processing: 0x0 0xb 0x0 0x0 0x0 0x7 0x2 0x3 0x4 0x0 0x0 0x0 0x0
2022-07-22 14:41:04,079 pymodbus.factory - DEBUG - Factory Response[ReadHoldingRegistersResponse: 3]
2022-07-22 14:41:04,080 pymodbus.transaction - DEBUG - Adding transaction 11
2022-07-22 14:41:04,080 pymodbus.transaction - DEBUG - Getting transaction 11
2022-07-22 14:41:04,080 pymodbus.transaction - DEBUG - Changing transaction state from 'PROCESSING REPLY' to 'TRANSACTION_COMPLETE'
2022-07-22 14:41:04,080 pymodbus.transaction - DEBUG - Current transaction state - TRANSACTION_COMPLETE
2022-07-22 14:41:04,080 pymodbus.transaction - DEBUG - Running transaction 12
2022-07-22 14:41:04,080 pymodbus.transaction - DEBUG - SEND: 0x0 0xc 0x0 0x0 0x0 0x6 0x2 0x3 0x0 0x1a 0x0 0x2
2022-07-22 14:41:04,080 pymodbus.client.sync - DEBUG - New Transaction state 'SENDING'
2022-07-22 14:41:04,081 pymodbus.transaction - DEBUG - Changing transaction state from 'SENDING' to 'WAITING FOR REPLY'
2022-07-22 14:41:04,110 pymodbus.transaction - DEBUG - Changing transaction state from 'WAITING FOR REPLY' to 'PROCESSING REPLY'
2022-07-22 14:41:04,112 pymodbus.transaction - DEBUG - RECV: 0x0 0xc 0x0 0x0 0x0 0x7 0x2 0x3 0x4 0x0 0x0 0x0 0x0
2022-07-22 14:41:04,112 pymodbus.framer.socket_framer - DEBUG - Processing: 0x0 0xc 0x0 0x0 0x0 0x7 0x2 0x3 0x4 0x0 0x0 0x0 0x0
2022-07-22 14:41:04,112 pymodbus.factory - DEBUG - Factory Response[ReadHoldingRegistersResponse: 3]
2022-07-22 14:41:04,112 pymodbus.transaction - DEBUG - Adding transaction 12
2022-07-22 14:41:04,113 pymodbus.transaction - DEBUG - Getting transaction 12
2022-07-22 14:41:04,113 pymodbus.transaction - DEBUG - Changing transaction state from 'PROCESSING REPLY' to 'TRANSACTION_COMPLETE'
2022-07-22 14:41:04,113 pymodbus.transaction - DEBUG - Current transaction state - TRANSACTION_COMPLETE
2022-07-22 14:41:04,113 pymodbus.transaction - DEBUG - Running transaction 13
2022-07-22 14:41:04,114 pymodbus.transaction - DEBUG - SEND: 0x0 0xd 0x0 0x0 0x0 0x6 0x2 0x3 0x0 0x1c 0x0 0x2
2022-07-22 14:41:04,114 pymodbus.client.sync - DEBUG - New Transaction state 'SENDING'
2022-07-22 14:41:04,114 pymodbus.transaction - DEBUG - Changing transaction state from 'SENDING' to 'WAITING FOR REPLY'
2022-07-22 14:41:04,142 pymodbus.transaction - DEBUG - Changing transaction state from 'WAITING FOR REPLY' to 'PROCESSING REPLY'
2022-07-22 14:41:04,143 pymodbus.transaction - DEBUG - RECV: 0x0 0xd 0x0 0x0 0x0 0x7 0x2 0x3 0x4 0x0 0x0 0x0 0x0
2022-07-22 14:41:04,143 pymodbus.framer.socket_framer - DEBUG - Processing: 0x0 0xd 0x0 0x0 0x0 0x7 0x2 0x3 0x4 0x0 0x0 0x0 0x0
2022-07-22 14:41:04,143 pymodbus.factory - DEBUG - Factory Response[ReadHoldingRegistersResponse: 3]
2022-07-22 14:41:04,143 pymodbus.transaction - DEBUG - Adding transaction 13
2022-07-22 14:41:04,143 pymodbus.transaction - DEBUG - Getting transaction 13
2022-07-22 14:41:04,144 pymodbus.transaction - DEBUG - Changing transaction state from 'PROCESSING REPLY' to 'TRANSACTION_COMPLETE'
2022-07-22 14:41:04,144 pymodbus.transaction - DEBUG - Current transaction state - TRANSACTION_COMPLETE
2022-07-22 14:41:04,144 pymodbus.transaction - DEBUG - Running transaction 14
2022-07-22 14:41:04,144 pymodbus.transaction - DEBUG - SEND: 0x0 0xe 0x0 0x0 0x0 0x6 0x2 0x3 0x0 0x1e 0x0 0x2
2022-07-22 14:41:04,144 pymodbus.client.sync - DEBUG - New Transaction state 'SENDING'
2022-07-22 14:41:04,144 pymodbus.transaction - DEBUG - Changing transaction state from 'SENDING' to 'WAITING FOR REPLY'
2022-07-22 14:41:04,173 pymodbus.transaction - DEBUG - Changing transaction state from 'WAITING FOR REPLY' to 'PROCESSING REPLY'
2022-07-22 14:41:04,175 pymodbus.transaction - DEBUG - RECV: 0x0 0xe 0x0 0x0 0x0 0x7 0x2 0x3 0x4 0x0 0x0 0x0 0x0
2022-07-22 14:41:04,175 pymodbus.framer.socket_framer - DEBUG - Processing: 0x0 0xe 0x0 0x0 0x0 0x7 0x2 0x3 0x4 0x0 0x0 0x0 0x0
2022-07-22 14:41:04,175 pymodbus.factory - DEBUG - Factory Response[ReadHoldingRegistersResponse: 3]
2022-07-22 14:41:04,176 pymodbus.transaction - DEBUG - Adding transaction 14
2022-07-22 14:41:04,176 pymodbus.transaction - DEBUG - Getting transaction 14
2022-07-22 14:41:04,176 pymodbus.transaction - DEBUG - Changing transaction state from 'PROCESSING REPLY' to 'TRANSACTION_COMPLETE'
2022-07-22 14:41:04,177 pymodbus.transaction - DEBUG - Current transaction state - TRANSACTION_COMPLETE
2022-07-22 14:41:04,177 pymodbus.transaction - DEBUG - Running transaction 15
2022-07-22 14:41:04,178 pymodbus.transaction - DEBUG - SEND: 0x0 0xf 0x0 0x0 0x0 0x6 0x2 0x3 0x0 0x20 0x0 0x2
2022-07-22 14:41:04,178 pymodbus.client.sync - DEBUG - New Transaction state 'SENDING'
2022-07-22 14:41:04,179 pymodbus.transaction - DEBUG - Changing transaction state from 'SENDING' to 'WAITING FOR REPLY'
2022-07-22 14:41:04,205 pymodbus.transaction - DEBUG - Changing transaction state from 'WAITING FOR REPLY' to 'PROCESSING REPLY'
2022-07-22 14:41:04,206 pymodbus.transaction - DEBUG - RECV: 0x0 0xf 0x0 0x0 0x0 0x7 0x2 0x3 0x4 0x0 0x0 0x0 0x0
2022-07-22 14:41:04,206 pymodbus.framer.socket_framer - DEBUG - Processing: 0x0 0xf 0x0 0x0 0x0 0x7 0x2 0x3 0x4 0x0 0x0 0x0 0x0
2022-07-22 14:41:04,206 pymodbus.factory - DEBUG - Factory Response[ReadHoldingRegistersResponse: 3]
2022-07-22 14:41:04,206 pymodbus.transaction - DEBUG - Adding transaction 15
2022-07-22 14:41:04,206 pymodbus.transaction - DEBUG - Getting transaction 15
2022-07-22 14:41:04,207 pymodbus.transaction - DEBUG - Changing transaction state from 'PROCESSING REPLY' to 'TRANSACTION_COMPLETE'
2022-07-22 14:41:04,207 pymodbus.transaction - DEBUG - Current transaction state - TRANSACTION_COMPLETE
2022-07-22 14:41:04,207 pymodbus.transaction - DEBUG - Running transaction 16
2022-07-22 14:41:04,207 pymodbus.transaction - DEBUG - SEND: 0x0 0x10 0x0 0x0 0x0 0x6 0x2 0x3 0x0 0x22 0x0 0x2
2022-07-22 14:41:04,208 pymodbus.client.sync - DEBUG - New Transaction state 'SENDING'
2022-07-22 14:41:04,208 pymodbus.transaction - DEBUG - Changing transaction state from 'SENDING' to 'WAITING FOR REPLY'
2022-07-22 14:41:04,237 pymodbus.transaction - DEBUG - Changing transaction state from 'WAITING FOR REPLY' to 'PROCESSING REPLY'
2022-07-22 14:41:04,238 pymodbus.transaction - DEBUG - RECV: 0x0 0x10 0x0 0x0 0x0 0x7 0x2 0x3 0x4 0x0 0x0 0x0 0x0
2022-07-22 14:41:04,239 pymodbus.framer.socket_framer - DEBUG - Processing: 0x0 0x10 0x0 0x0 0x0 0x7 0x2 0x3 0x4 0x0 0x0 0x0 0x0
2022-07-22 14:41:04,239 pymodbus.factory - DEBUG - Factory Response[ReadHoldingRegistersResponse: 3]
2022-07-22 14:41:04,240 pymodbus.transaction - DEBUG - Adding transaction 16
2022-07-22 14:41:04,240 pymodbus.transaction - DEBUG - Getting transaction 16
2022-07-22 14:41:04,241 pymodbus.transaction - DEBUG - Changing transaction state from 'PROCESSING REPLY' to 'TRANSACTION_COMPLETE'
2022-07-22 14:41:04,241 pymodbus.transaction - DEBUG - Current transaction state - TRANSACTION_COMPLETE
2022-07-22 14:41:04,242 pymodbus.transaction - DEBUG - Running transaction 17
2022-07-22 14:41:04,242 pymodbus.transaction - DEBUG - SEND: 0x0 0x11 0x0 0x0 0x0 0x6 0x2 0x3 0x0 0x24 0x0 0x2
2022-07-22 14:41:04,243 pymodbus.client.sync - DEBUG - New Transaction state 'SENDING'
2022-07-22 14:41:04,243 pymodbus.transaction - DEBUG - Changing transaction state from 'SENDING' to 'WAITING FOR REPLY'
2022-07-22 14:41:04,268 pymodbus.transaction - DEBUG - Changing transaction state from 'WAITING FOR REPLY' to 'PROCESSING REPLY'
2022-07-22 14:41:04,268 pymodbus.transaction - DEBUG - RECV: 0x0 0x11 0x0 0x0 0x0 0x7 0x2 0x3 0x4 0x0 0x0 0x0 0x0
2022-07-22 14:41:04,269 pymodbus.framer.socket_framer - DEBUG - Processing: 0x0 0x11 0x0 0x0 0x0 0x7 0x2 0x3 0x4 0x0 0x0 0x0 0x0
2022-07-22 14:41:04,269 pymodbus.factory - DEBUG - Factory Response[ReadHoldingRegistersResponse: 3]
2022-07-22 14:41:04,269 pymodbus.transaction - DEBUG - Adding transaction 17
2022-07-22 14:41:04,269 pymodbus.transaction - DEBUG - Getting transaction 17
2022-07-22 14:41:04,269 pymodbus.transaction - DEBUG - Changing transaction state from 'PROCESSING REPLY' to 'TRANSACTION_COMPLETE'
2022-07-22 14:41:04,270 pymodbus.transaction - DEBUG - Current transaction state - TRANSACTION_COMPLETE
2022-07-22 14:41:04,270 pymodbus.transaction - DEBUG - Running transaction 18
2022-07-22 14:41:04,270 pymodbus.transaction - DEBUG - SEND: 0x0 0x12 0x0 0x0 0x0 0x6 0x2 0x3 0x0 0x26 0x0 0x2
2022-07-22 14:41:04,270 pymodbus.client.sync - DEBUG - New Transaction state 'SENDING'
2022-07-22 14:41:04,270 pymodbus.transaction - DEBUG - Changing transaction state from 'SENDING' to 'WAITING FOR REPLY'
2022-07-22 14:41:04,301 pymodbus.transaction - DEBUG - Changing transaction state from 'WAITING FOR REPLY' to 'PROCESSING REPLY'
2022-07-22 14:41:04,301 pymodbus.transaction - DEBUG - RECV: 0x0 0x12 0x0 0x0 0x0 0x7 0x2 0x3 0x4 0x0 0x0 0x0 0x0
2022-07-22 14:41:04,302 pymodbus.framer.socket_framer - DEBUG - Processing: 0x0 0x12 0x0 0x0 0x0 0x7 0x2 0x3 0x4 0x0 0x0 0x0 0x0
2022-07-22 14:41:04,302 pymodbus.factory - DEBUG - Factory Response[ReadHoldingRegistersResponse: 3]
2022-07-22 14:41:04,302 pymodbus.transaction - DEBUG - Adding transaction 18
2022-07-22 14:41:04,303 pymodbus.transaction - DEBUG - Getting transaction 18
2022-07-22 14:41:04,303 pymodbus.transaction - DEBUG - Changing transaction state from 'PROCESSING REPLY' to 'TRANSACTION_COMPLETE'
2022-07-22 14:41:04,303 pymodbus.transaction - DEBUG - Current transaction state - TRANSACTION_COMPLETE
2022-07-22 14:41:04,303 pymodbus.transaction - DEBUG - Running transaction 19
2022-07-22 14:41:04,304 pymodbus.transaction - DEBUG - SEND: 0x0 0x13 0x0 0x0 0x0 0x6 0x2 0x3 0x0 0x28 0x0 0x2
2022-07-22 14:41:04,304 pymodbus.client.sync - DEBUG - New Transaction state 'SENDING'
2022-07-22 14:41:04,305 pymodbus.transaction - DEBUG - Changing transaction state from 'SENDING' to 'WAITING FOR REPLY'
2022-07-22 14:41:04,331 pymodbus.transaction - DEBUG - Changing transaction state from 'WAITING FOR REPLY' to 'PROCESSING REPLY'
2022-07-22 14:41:04,332 pymodbus.transaction - DEBUG - RECV: 0x0 0x13 0x0 0x0 0x0 0x7 0x2 0x3 0x4 0x0 0x0 0x0 0x0
2022-07-22 14:41:04,332 pymodbus.framer.socket_framer - DEBUG - Processing: 0x0 0x13 0x0 0x0 0x0 0x7 0x2 0x3 0x4 0x0 0x0 0x0 0x0
2022-07-22 14:41:04,332 pymodbus.factory - DEBUG - Factory Response[ReadHoldingRegistersResponse: 3]
2022-07-22 14:41:04,332 pymodbus.transaction - DEBUG - Adding transaction 19
2022-07-22 14:41:04,332 pymodbus.transaction - DEBUG - Getting transaction 19
2022-07-22 14:41:04,332 pymodbus.transaction - DEBUG - Changing transaction state from 'PROCESSING REPLY' to 'TRANSACTION_COMPLETE'
2022-07-22 14:41:04,333 pymodbus.transaction - DEBUG - Current transaction state - TRANSACTION_COMPLETE
2022-07-22 14:41:04,333 pymodbus.transaction - DEBUG - Running transaction 20
2022-07-22 14:41:04,333 pymodbus.transaction - DEBUG - SEND: 0x0 0x14 0x0 0x0 0x0 0x6 0x2 0x3 0x0 0x2a 0x0 0x2
2022-07-22 14:41:04,333 pymodbus.client.sync - DEBUG - New Transaction state 'SENDING'
2022-07-22 14:41:04,334 pymodbus.transaction - DEBUG - Changing transaction state from 'SENDING' to 'WAITING FOR REPLY'
2022-07-22 14:41:04,362 pymodbus.transaction - DEBUG - Changing transaction state from 'WAITING FOR REPLY' to 'PROCESSING REPLY'
2022-07-22 14:41:04,363 pymodbus.transaction - DEBUG - RECV: 0x0 0x14 0x0 0x0 0x0 0x7 0x2 0x3 0x4 0x0 0x0 0x0 0x0
2022-07-22 14:41:04,363 pymodbus.framer.socket_framer - DEBUG - Processing: 0x0 0x14 0x0 0x0 0x0 0x7 0x2 0x3 0x4 0x0 0x0 0x0 0x0
2022-07-22 14:41:04,364 pymodbus.factory - DEBUG - Factory Response[ReadHoldingRegistersResponse: 3]
2022-07-22 14:41:04,364 pymodbus.transaction - DEBUG - Adding transaction 20
2022-07-22 14:41:04,364 pymodbus.transaction - DEBUG - Getting transaction 20
2022-07-22 14:41:04,364 pymodbus.transaction - DEBUG - Changing transaction state from 'PROCESSING REPLY' to 'TRANSACTION_COMPLETE'
2022-07-22 14:41:04,365 pymodbus.transaction - DEBUG - Current transaction state - TRANSACTION_COMPLETE
2022-07-22 14:41:04,365 pymodbus.transaction - DEBUG - Running transaction 21
2022-07-22 14:41:04,365 pymodbus.transaction - DEBUG - SEND: 0x0 0x15 0x0 0x0 0x0 0x6 0x2 0x3 0x0 0x2c 0x0 0x2
2022-07-22 14:41:04,365 pymodbus.client.sync - DEBUG - New Transaction state 'SENDING'
2022-07-22 14:41:04,366 pymodbus.transaction - DEBUG - Changing transaction state from 'SENDING' to 'WAITING FOR REPLY'
2022-07-22 14:41:04,393 pymodbus.transaction - DEBUG - Changing transaction state from 'WAITING FOR REPLY' to 'PROCESSING REPLY'
2022-07-22 14:41:04,393 pymodbus.transaction - DEBUG - RECV: 0x0 0x15 0x0 0x0 0x0 0x7 0x2 0x3 0x4 0x0 0x0 0x0 0x0
2022-07-22 14:41:04,394 pymodbus.framer.socket_framer - DEBUG - Processing: 0x0 0x15 0x0 0x0 0x0 0x7 0x2 0x3 0x4 0x0 0x0 0x0 0x0
2022-07-22 14:41:04,394 pymodbus.factory - DEBUG - Factory Response[ReadHoldingRegistersResponse: 3]
2022-07-22 14:41:04,394 pymodbus.transaction - DEBUG - Adding transaction 21
2022-07-22 14:41:04,396 pymodbus.transaction - DEBUG - Getting transaction 21
2022-07-22 14:41:04,396 pymodbus.transaction - DEBUG - Changing transaction state from 'PROCESSING REPLY' to 'TRANSACTION_COMPLETE'
2022-07-22 14:41:04,396 pymodbus.transaction - DEBUG - Current transaction state - TRANSACTION_COMPLETE
2022-07-22 14:41:04,396 pymodbus.transaction - DEBUG - Running transaction 22
2022-07-22 14:41:04,397 pymodbus.transaction - DEBUG - SEND: 0x0 0x16 0x0 0x0 0x0 0x6 0x2 0x3 0x0 0x2e 0x0 0x2
2022-07-22 14:41:04,397 pymodbus.client.sync - DEBUG - New Transaction state 'SENDING'
2022-07-22 14:41:04,397 pymodbus.transaction - DEBUG - Changing transaction state from 'SENDING' to 'WAITING FOR REPLY'
2022-07-22 14:41:04,426 pymodbus.transaction - DEBUG - Changing transaction state from 'WAITING FOR REPLY' to 'PROCESSING REPLY'
2022-07-22 14:41:04,426 pymodbus.transaction - DEBUG - RECV: 0x0 0x16 0x0 0x0 0x0 0x7 0x2 0x3 0x4 0x0 0x0 0x0 0x0
2022-07-22 14:41:04,427 pymodbus.framer.socket_framer - DEBUG - Processing: 0x0 0x16 0x0 0x0 0x0 0x7 0x2 0x3 0x4 0x0 0x0 0x0 0x0
2022-07-22 14:41:04,427 pymodbus.factory - DEBUG - Factory Response[ReadHoldingRegistersResponse: 3]
2022-07-22 14:41:04,428 pymodbus.transaction - DEBUG - Adding transaction 22
2022-07-22 14:41:04,428 pymodbus.transaction - DEBUG - Getting transaction 22
2022-07-22 14:41:04,428 pymodbus.transaction - DEBUG - Changing transaction state from 'PROCESSING REPLY' to 'TRANSACTION_COMPLETE'
2022-07-22 14:41:04,429 pymodbus.transaction - DEBUG - Current transaction state - TRANSACTION_COMPLETE
2022-07-22 14:41:04,429 pymodbus.transaction - DEBUG - Running transaction 23
2022-07-22 14:41:04,429 pymodbus.transaction - DEBUG - SEND: 0x0 0x17 0x0 0x0 0x0 0x6 0x2 0x3 0x0 0x30 0x0 0x2
2022-07-22 14:41:04,430 pymodbus.client.sync - DEBUG - New Transaction state 'SENDING'
2022-07-22 14:41:04,430 pymodbus.transaction - DEBUG - Changing transaction state from 'SENDING' to 'WAITING FOR REPLY'
2022-07-22 14:41:04,457 pymodbus.transaction - DEBUG - Changing transaction state from 'WAITING FOR REPLY' to 'PROCESSING REPLY'
2022-07-22 14:41:04,457 pymodbus.transaction - DEBUG - RECV: 0x0 0x17 0x0 0x0 0x0 0x7 0x2 0x3 0x4 0x0 0x0 0x0 0x0
2022-07-22 14:41:04,457 pymodbus.framer.socket_framer - DEBUG - Processing: 0x0 0x17 0x0 0x0 0x0 0x7 0x2 0x3 0x4 0x0 0x0 0x0 0x0
2022-07-22 14:41:04,457 pymodbus.factory - DEBUG - Factory Response[ReadHoldingRegistersResponse: 3]
2022-07-22 14:41:04,457 pymodbus.transaction - DEBUG - Adding transaction 23
2022-07-22 14:41:04,457 pymodbus.transaction - DEBUG - Getting transaction 23
2022-07-22 14:41:04,459 pymodbus.transaction - DEBUG - Changing transaction state from 'PROCESSING REPLY' to 'TRANSACTION_COMPLETE'
2022-07-22 14:41:04,459 pymodbus.transaction - DEBUG - Current transaction state - TRANSACTION_COMPLETE
2022-07-22 14:41:04,459 pymodbus.transaction - DEBUG - Running transaction 24
2022-07-22 14:41:04,459 pymodbus.transaction - DEBUG - SEND: 0x0 0x18 0x0 0x0 0x0 0x6 0x2 0x3 0x0 0x32 0x0 0x2
2022-07-22 14:41:04,459 pymodbus.client.sync - DEBUG - New Transaction state 'SENDING'
2022-07-22 14:41:04,459 pymodbus.transaction - DEBUG - Changing transaction state from 'SENDING' to 'WAITING FOR REPLY'
2022-07-22 14:41:04,488 pymodbus.transaction - DEBUG - Changing transaction state from 'WAITING FOR REPLY' to 'PROCESSING REPLY'
2022-07-22 14:41:04,489 pymodbus.transaction - DEBUG - RECV: 0x0 0x18 0x0 0x0 0x0 0x7 0x2 0x3 0x4 0x0 0x0 0x0 0x0
2022-07-22 14:41:04,489 pymodbus.framer.socket_framer - DEBUG - Processing: 0x0 0x18 0x0 0x0 0x0 0x7 0x2 0x3 0x4 0x0 0x0 0x0 0x0
2022-07-22 14:41:04,490 pymodbus.factory - DEBUG - Factory Response[ReadHoldingRegistersResponse: 3]
2022-07-22 14:41:04,490 pymodbus.transaction - DEBUG - Adding transaction 24
2022-07-22 14:41:04,491 pymodbus.transaction - DEBUG - Getting transaction 24
2022-07-22 14:41:04,491 pymodbus.transaction - DEBUG - Changing transaction state from 'PROCESSING REPLY' to 'TRANSACTION_COMPLETE'
2022-07-22 14:41:04,492 pymodbus.transaction - DEBUG - Current transaction state - TRANSACTION_COMPLETE
2022-07-22 14:41:04,493 pymodbus.transaction - DEBUG - Running transaction 25
2022-07-22 14:41:04,493 pymodbus.transaction - DEBUG - SEND: 0x0 0x19 0x0 0x0 0x0 0x6 0x2 0x3 0x0 0x34 0x0 0x2
2022-07-22 14:41:04,494 pymodbus.client.sync - DEBUG - New Transaction state 'SENDING'
2022-07-22 14:41:04,494 pymodbus.transaction - DEBUG - Changing transaction state from 'SENDING' to 'WAITING FOR REPLY'
2022-07-22 14:41:04,519 pymodbus.transaction - DEBUG - Changing transaction state from 'WAITING FOR REPLY' to 'PROCESSING REPLY'
2022-07-22 14:41:04,519 pymodbus.transaction - DEBUG - RECV: 0x0 0x19 0x0 0x0 0x0 0x7 0x2 0x3 0x4 0x0 0x0 0x0 0x0
2022-07-22 14:41:04,519 pymodbus.framer.socket_framer - DEBUG - Processing: 0x0 0x19 0x0 0x0 0x0 0x7 0x2 0x3 0x4 0x0 0x0 0x0 0x0
2022-07-22 14:41:04,519 pymodbus.factory - DEBUG - Factory Response[ReadHoldingRegistersResponse: 3]
2022-07-22 14:41:04,519 pymodbus.transaction - DEBUG - Adding transaction 25
2022-07-22 14:41:04,519 pymodbus.transaction - DEBUG - Getting transaction 25
2022-07-22 14:41:04,520 pymodbus.transaction - DEBUG - Changing transaction state from 'PROCESSING REPLY' to 'TRANSACTION_COMPLETE'
2022-07-22 14:41:04,520 pymodbus.transaction - DEBUG - Current transaction state - TRANSACTION_COMPLETE
2022-07-22 14:41:04,520 pymodbus.transaction - DEBUG - Running transaction 26
2022-07-22 14:41:04,520 pymodbus.transaction - DEBUG - SEND: 0x0 0x1a 0x0 0x0 0x0 0x6 0x2 0x3 0x0 0x36 0x0 0x2
2022-07-22 14:41:04,520 pymodbus.client.sync - DEBUG - New Transaction state 'SENDING'
2022-07-22 14:41:04,520 pymodbus.transaction - DEBUG - Changing transaction state from 'SENDING' to 'WAITING FOR REPLY'
2022-07-22 14:41:04,551 pymodbus.transaction - DEBUG - Changing transaction state from 'WAITING FOR REPLY' to 'PROCESSING REPLY'
2022-07-22 14:41:04,551 pymodbus.transaction - DEBUG - RECV: 0x0 0x1a 0x0 0x0 0x0 0x7 0x2 0x3 0x4 0x0 0x0 0x0 0x0
2022-07-22 14:41:04,552 pymodbus.framer.socket_framer - DEBUG - Processing: 0x0 0x1a 0x0 0x0 0x0 0x7 0x2 0x3 0x4 0x0 0x0 0x0 0x0
2022-07-22 14:41:04,552 pymodbus.factory - DEBUG - Factory Response[ReadHoldingRegistersResponse: 3]
2022-07-22 14:41:04,552 pymodbus.transaction - DEBUG - Adding transaction 26
2022-07-22 14:41:04,552 pymodbus.transaction - DEBUG - Getting transaction 26
2022-07-22 14:41:04,553 pymodbus.transaction - DEBUG - Changing transaction state from 'PROCESSING REPLY' to 'TRANSACTION_COMPLETE'
2022-07-22 14:41:04,553 pymodbus.transaction - DEBUG - Current transaction state - TRANSACTION_COMPLETE
2022-07-22 14:41:04,553 pymodbus.transaction - DEBUG - Running transaction 27
2022-07-22 14:41:04,554 pymodbus.transaction - DEBUG - SEND: 0x0 0x1b 0x0 0x0 0x0 0x6 0x2 0x3 0x0 0x38 0x0 0x2
2022-07-22 14:41:04,554 pymodbus.client.sync - DEBUG - New Transaction state 'SENDING'
2022-07-22 14:41:04,554 pymodbus.transaction - DEBUG - Changing transaction state from 'SENDING' to 'WAITING FOR REPLY'
2022-07-22 14:41:04,581 pymodbus.transaction - DEBUG - Changing transaction state from 'WAITING FOR REPLY' to 'PROCESSING REPLY'
2022-07-22 14:41:04,582 pymodbus.transaction - DEBUG - RECV: 0x0 0x1b 0x0 0x0 0x0 0x7 0x2 0x3 0x4 0x0 0x0 0x0 0x0
2022-07-22 14:41:04,582 pymodbus.framer.socket_framer - DEBUG - Processing: 0x0 0x1b 0x0 0x0 0x0 0x7 0x2 0x3 0x4 0x0 0x0 0x0 0x0
2022-07-22 14:41:04,582 pymodbus.factory - DEBUG - Factory Response[ReadHoldingRegistersResponse: 3]
2022-07-22 14:41:04,583 pymodbus.transaction - DEBUG - Adding transaction 27
2022-07-22 14:41:04,583 pymodbus.transaction - DEBUG - Getting transaction 27
2022-07-22 14:41:04,583 pymodbus.transaction - DEBUG - Changing transaction state from 'PROCESSING REPLY' to 'TRANSACTION_COMPLETE'
2022-07-22 14:41:04,583 pymodbus.transaction - DEBUG - Current transaction state - TRANSACTION_COMPLETE
2022-07-22 14:41:04,584 pymodbus.transaction - DEBUG - Running transaction 28
2022-07-22 14:41:04,584 pymodbus.transaction - DEBUG - SEND: 0x0 0x1c 0x0 0x0 0x0 0x6 0x2 0x3 0x0 0x3a 0x0 0x2
2022-07-22 14:41:04,584 pymodbus.client.sync - DEBUG - New Transaction state 'SENDING'
2022-07-22 14:41:04,585 pymodbus.transaction - DEBUG - Changing transaction state from 'SENDING' to 'WAITING FOR REPLY'
2022-07-22 14:41:04,613 pymodbus.transaction - DEBUG - Changing transaction state from 'WAITING FOR REPLY' to 'PROCESSING REPLY'
2022-07-22 14:41:04,614 pymodbus.transaction - DEBUG - RECV: 0x0 0x1c 0x0 0x0 0x0 0x7 0x2 0x3 0x4 0x0 0x0 0x0 0x0
2022-07-22 14:41:04,614 pymodbus.framer.socket_framer - DEBUG - Processing: 0x0 0x1c 0x0 0x0 0x0 0x7 0x2 0x3 0x4 0x0 0x0 0x0 0x0
2022-07-22 14:41:04,614 pymodbus.factory - DEBUG - Factory Response[ReadHoldingRegistersResponse: 3]
2022-07-22 14:41:04,614 pymodbus.transaction - DEBUG - Adding transaction 28
2022-07-22 14:41:04,614 pymodbus.transaction - DEBUG - Getting transaction 28
2022-07-22 14:41:04,614 pymodbus.transaction - DEBUG - Changing transaction state from 'PROCESSING REPLY' to 'TRANSACTION_COMPLETE'
2022-07-22 14:41:04,615 pymodbus.transaction - DEBUG - Current transaction state - TRANSACTION_COMPLETE
2022-07-22 14:41:04,615 pymodbus.transaction - DEBUG - Running transaction 29
2022-07-22 14:41:04,615 pymodbus.transaction - DEBUG - SEND: 0x0 0x1d 0x0 0x0 0x0 0x6 0x2 0x3 0x0 0x3c 0x0 0x2
2022-07-22 14:41:04,615 pymodbus.client.sync - DEBUG - New Transaction state 'SENDING'
2022-07-22 14:41:04,616 pymodbus.transaction - DEBUG - Changing transaction state from 'SENDING' to 'WAITING FOR REPLY'
2022-07-22 14:41:04,644 pymodbus.transaction - DEBUG - Changing transaction state from 'WAITING FOR REPLY' to 'PROCESSING REPLY'
2022-07-22 14:41:04,645 pymodbus.transaction - DEBUG - RECV: 0x0 0x1d 0x0 0x0 0x0 0x7 0x2 0x3 0x4 0x0 0x0 0x0 0x0
2022-07-22 14:41:04,645 pymodbus.framer.socket_framer - DEBUG - Processing: 0x0 0x1d 0x0 0x0 0x0 0x7 0x2 0x3 0x4 0x0 0x0 0x0 0x0
2022-07-22 14:41:04,645 pymodbus.factory - DEBUG - Factory Response[ReadHoldingRegistersResponse: 3]
2022-07-22 14:41:04,646 pymodbus.transaction - DEBUG - Adding transaction 29
2022-07-22 14:41:04,646 pymodbus.transaction - DEBUG - Getting transaction 29
2022-07-22 14:41:04,646 pymodbus.transaction - DEBUG - Changing transaction state from 'PROCESSING REPLY' to 'TRANSACTION_COMPLETE'
2022-07-22 14:41:04,647 pymodbus.transaction - DEBUG - Current transaction state - TRANSACTION_COMPLETE
2022-07-22 14:41:04,647 pymodbus.transaction - DEBUG - Running transaction 30
2022-07-22 14:41:04,647 pymodbus.transaction - DEBUG - SEND: 0x0 0x1e 0x0 0x0 0x0 0x6 0x2 0x3 0x0 0x40 0x0 0x2
2022-07-22 14:41:04,647 pymodbus.client.sync - DEBUG - New Transaction state 'SENDING'
2022-07-22 14:41:04,647 pymodbus.transaction - DEBUG - Changing transaction state from 'SENDING' to 'WAITING FOR REPLY'
2022-07-22 14:41:04,674 pymodbus.transaction - DEBUG - Changing transaction state from 'WAITING FOR REPLY' to 'PROCESSING REPLY'
2022-07-22 14:41:04,676 pymodbus.transaction - DEBUG - RECV: 0x0 0x1e 0x0 0x0 0x0 0x7 0x2 0x3 0x4 0x0 0x0 0x0 0x0
2022-07-22 14:41:04,676 pymodbus.framer.socket_framer - DEBUG - Processing: 0x0 0x1e 0x0 0x0 0x0 0x7 0x2 0x3 0x4 0x0 0x0 0x0 0x0
2022-07-22 14:41:04,677 pymodbus.factory - DEBUG - Factory Response[ReadHoldingRegistersResponse: 3]
2022-07-22 14:41:04,677 pymodbus.transaction - DEBUG - Adding transaction 30
2022-07-22 14:41:04,677 pymodbus.transaction - DEBUG - Getting transaction 30
2022-07-22 14:41:04,678 pymodbus.transaction - DEBUG - Changing transaction state from 'PROCESSING REPLY' to 'TRANSACTION_COMPLETE'
2022-07-22 14:41:04,678 pymodbus.transaction - DEBUG - Current transaction state - TRANSACTION_COMPLETE
2022-07-22 14:41:04,679 pymodbus.transaction - DEBUG - Running transaction 31
2022-07-22 14:41:04,679 pymodbus.transaction - DEBUG - SEND: 0x0 0x1f 0x0 0x0 0x0 0x6 0x2 0x3 0x0 0x3e 0x0 0x2
2022-07-22 14:41:04,679 pymodbus.client.sync - DEBUG - New Transaction state 'SENDING'
2022-07-22 14:41:04,680 pymodbus.transaction - DEBUG - Changing transaction state from 'SENDING' to 'WAITING FOR REPLY'
2022-07-22 14:41:04,706 pymodbus.transaction - DEBUG - Changing transaction state from 'WAITING FOR REPLY' to 'PROCESSING REPLY'
2022-07-22 14:41:04,707 pymodbus.transaction - DEBUG - RECV: 0x0 0x1f 0x0 0x0 0x0 0x7 0x2 0x3 0x4 0x0 0x0 0x0 0x0
2022-07-22 14:41:04,707 pymodbus.framer.socket_framer - DEBUG - Processing: 0x0 0x1f 0x0 0x0 0x0 0x7 0x2 0x3 0x4 0x0 0x0 0x0 0x0
2022-07-22 14:41:04,707 pymodbus.factory - DEBUG - Factory Response[ReadHoldingRegistersResponse: 3]
2022-07-22 14:41:04,708 pymodbus.transaction - DEBUG - Adding transaction 31
2022-07-22 14:41:04,708 pymodbus.transaction - DEBUG - Getting transaction 31
2022-07-22 14:41:04,708 pymodbus.transaction - DEBUG - Changing transaction state from 'PROCESSING REPLY' to 'TRANSACTION_COMPLETE'
2022-07-22 14:41:04,708 log1 - DEBUG - Reading Register Complete
2022-07-22 14:41:04,746 log1 - DEBUG - Posting Data to DB
2022-07-22 14:41:04,761 urllib3.connectionpool - DEBUG - Starting new HTTP connection (1): 192.168.1.36:4000
2022-07-22 14:41:04,864 urllib3.connectionpool - DEBUG - http://192.168.1.36:4000 "POST /data HTTP/1.1" 200 20
2022-07-22 14:41:04,866 root - DEBUG - {"index":0,"code":2}
2022-07-22 14:41:04,867 log1 - DEBUG - {'timestamp': 1658472063, 'dc_main_contactor': 1.0, 'stk1_contactor': 80.0, 'primary_positive_pump': 23.0, 'primary_negative_pump': 4.0, 'system_mode': 0, 'system_alarm_status': 0, 'balancing_valve': 0.0, 'positive_valve': 0.0, 'negative_valve': 0.0, 'state_of_charge': 0.0, 'bcu_mode_status': 0.0, 'bcu_voltage': 0.0, 'bcu_current': 0.0, 'bcu_power': 0.0, 'bcu_state_of_charge': 0.0, 'bcu_hydrogen_sensor': 0.0, 'bcu_leakage_sensor': 0.0, 'smoke_sensor': 0.0, 'bcu_ocv': 0.0, 'bcu_positive_tank_temp': 0.0, 'bcu_negative_tank_temp': 0.0, 'positive_tank_high_level_float': 0.0, 'negative_tank_high_level_float': 0.0, 'positive_tank_low_level_float': 0.0, 'negative_tank_low_level_float': 0.0, 'primary_stack_voltage': 0.0, 'primary_stack_current': 0.0, 'primary_stack_positive_pressure_sensor': 0.0, 'primary_stack_negative_pressure_sensor': 0.0, 'positive_stack_pressure_delta': 0.0, 'b1_primary_stack_pressure_delta': 0.0, 'sensor_temp': 0.0, 'humidity': 0.0, 'bms_timestamp': 0, 'plc_alarm_status_1': 0}
2022-07-22 14:41:04,870 log1 - DEBUG - POST Complete
