2022-07-29 15:13:16,222 log1 - DEBUG - Connecting to Modbus...
2022-07-29 15:13:16,224 pymodbus.client.sync - DEBUG - Connection to Modbus server established. Socket ('192.168.1.36', 61031)
2022-07-29 15:13:16,224 root - DEBUG - True
2022-07-29 15:13:16,224 log1 - DEBUG - Modbus Connection Status: True
2022-07-29 15:13:16,259 root - DEBUG - Reading Registers
2022-07-29 15:13:16,259 log1 - DEBUG - Reading Registers
2022-07-29 15:13:16,260 pymodbus.transaction - DEBUG - Current transaction state - IDLE
2022-07-29 15:13:16,260 pymodbus.transaction - DEBUG - Running transaction 1
2022-07-29 15:13:16,260 pymodbus.transaction - DEBUG - SEND: 0x0 0x1 0x0 0x0 0x0 0x6 0x2 0x3 0x0 0x0 0x0 0x2
2022-07-29 15:13:16,260 pymodbus.client.sync - DEBUG - New Transaction state 'SENDING'
2022-07-29 15:13:16,261 pymodbus.transaction - DEBUG - Changing transaction state from 'SENDING' to 'WAITING FOR REPLY'
2022-07-29 15:13:16,274 pymodbus.transaction - DEBUG - Changing transaction state from 'WAITING FOR REPLY' to 'PROCESSING REPLY'
2022-07-29 15:13:16,275 pymodbus.transaction - DEBUG - RECV: 0x0 0x1 0x0 0x0 0x0 0x7 0x2 0x3 0x4 0x0 0x1 0x0 0x1
2022-07-29 15:13:16,275 pymodbus.framer.socket_framer - DEBUG - Processing: 0x0 0x1 0x0 0x0 0x0 0x7 0x2 0x3 0x4 0x0 0x1 0x0 0x1
2022-07-29 15:13:16,275 pymodbus.factory - DEBUG - Factory Response[ReadHoldingRegistersResponse: 3]
2022-07-29 15:13:16,275 pymodbus.transaction - DEBUG - Adding transaction 1
2022-07-29 15:13:16,275 pymodbus.transaction - DEBUG - Getting transaction 1
2022-07-29 15:13:16,276 pymodbus.transaction - DEBUG - Changing transaction state from 'PROCESSING REPLY' to 'TRANSACTION_COMPLETE'
2022-07-29 15:13:16,276 pymodbus.transaction - DEBUG - Current transaction state - TRANSACTION_COMPLETE
2022-07-29 15:13:16,276 pymodbus.transaction - DEBUG - Running transaction 2
2022-07-29 15:13:16,276 pymodbus.transaction - DEBUG - SEND: 0x0 0x2 0x0 0x0 0x0 0x6 0x2 0x3 0x0 0x2 0x0 0x2
2022-07-29 15:13:16,276 pymodbus.client.sync - DEBUG - New Transaction state 'SENDING'
2022-07-29 15:13:16,276 pymodbus.transaction - DEBUG - Changing transaction state from 'SENDING' to 'WAITING FOR REPLY'
2022-07-29 15:13:16,306 pymodbus.transaction - DEBUG - Changing transaction state from 'WAITING FOR REPLY' to 'PROCESSING REPLY'
2022-07-29 15:13:16,306 pymodbus.transaction - DEBUG - RECV: 0x0 0x2 0x0 0x0 0x0 0x7 0x2 0x3 0x4 0x0 0x0 0x0 0x50
2022-07-29 15:13:16,307 pymodbus.framer.socket_framer - DEBUG - Processing: 0x0 0x2 0x0 0x0 0x0 0x7 0x2 0x3 0x4 0x0 0x0 0x0 0x50
2022-07-29 15:13:16,307 pymodbus.factory - DEBUG - Factory Response[ReadHoldingRegistersResponse: 3]
2022-07-29 15:13:16,307 pymodbus.transaction - DEBUG - Adding transaction 2
2022-07-29 15:13:16,307 pymodbus.transaction - DEBUG - Getting transaction 2
2022-07-29 15:13:16,307 pymodbus.transaction - DEBUG - Changing transaction state from 'PROCESSING REPLY' to 'TRANSACTION_COMPLETE'
2022-07-29 15:13:16,307 pymodbus.transaction - DEBUG - Current transaction state - TRANSACTION_COMPLETE
2022-07-29 15:13:16,308 pymodbus.transaction - DEBUG - Running transaction 3
2022-07-29 15:13:16,308 pymodbus.transaction - DEBUG - SEND: 0x0 0x3 0x0 0x0 0x0 0x6 0x2 0x3 0x0 0x4 0x0 0x2
2022-07-29 15:13:16,308 pymodbus.client.sync - DEBUG - New Transaction state 'SENDING'
2022-07-29 15:13:16,308 pymodbus.transaction - DEBUG - Changing transaction state from 'SENDING' to 'WAITING FOR REPLY'
2022-07-29 15:13:16,336 pymodbus.transaction - DEBUG - Changing transaction state from 'WAITING FOR REPLY' to 'PROCESSING REPLY'
2022-07-29 15:13:16,336 pymodbus.transaction - DEBUG - RECV: 0x0 0x3 0x0 0x0 0x0 0x7 0x2 0x3 0x4 0x0 0x0 0x0 0x0
2022-07-29 15:13:16,337 pymodbus.framer.socket_framer - DEBUG - Processing: 0x0 0x3 0x0 0x0 0x0 0x7 0x2 0x3 0x4 0x0 0x0 0x0 0x0
2022-07-29 15:13:16,337 pymodbus.factory - DEBUG - Factory Response[ReadHoldingRegistersResponse: 3]
2022-07-29 15:13:16,337 pymodbus.transaction - DEBUG - Adding transaction 3
2022-07-29 15:13:16,337 pymodbus.transaction - DEBUG - Getting transaction 3
2022-07-29 15:13:16,337 pymodbus.transaction - DEBUG - Changing transaction state from 'PROCESSING REPLY' to 'TRANSACTION_COMPLETE'
2022-07-29 15:13:16,337 pymodbus.transaction - DEBUG - Current transaction state - TRANSACTION_COMPLETE
2022-07-29 15:13:16,337 pymodbus.transaction - DEBUG - Running transaction 4
2022-07-29 15:13:16,338 pymodbus.transaction - DEBUG - SEND: 0x0 0x4 0x0 0x0 0x0 0x6 0x2 0x3 0x0 0x6 0x0 0x2
2022-07-29 15:13:16,338 pymodbus.client.sync - DEBUG - New Transaction state 'SENDING'
2022-07-29 15:13:16,338 pymodbus.transaction - DEBUG - Changing transaction state from 'SENDING' to 'WAITING FOR REPLY'
2022-07-29 15:13:16,366 pymodbus.transaction - DEBUG - Changing transaction state from 'WAITING FOR REPLY' to 'PROCESSING REPLY'
2022-07-29 15:13:16,366 pymodbus.transaction - DEBUG - RECV: 0x0 0x4 0x0 0x0 0x0 0x7 0x2 0x3 0x4 0x0 0x0 0x0 0x0
2022-07-29 15:13:16,366 pymodbus.framer.socket_framer - DEBUG - Processing: 0x0 0x4 0x0 0x0 0x0 0x7 0x2 0x3 0x4 0x0 0x0 0x0 0x0
2022-07-29 15:13:16,368 pymodbus.factory - DEBUG - Factory Response[ReadHoldingRegistersResponse: 3]
2022-07-29 15:13:16,368 pymodbus.transaction - DEBUG - Adding transaction 4
2022-07-29 15:13:16,368 pymodbus.transaction - DEBUG - Getting transaction 4
2022-07-29 15:13:16,368 pymodbus.transaction - DEBUG - Changing transaction state from 'PROCESSING REPLY' to 'TRANSACTION_COMPLETE'
2022-07-29 15:13:16,368 pymodbus.transaction - DEBUG - Current transaction state - TRANSACTION_COMPLETE
2022-07-29 15:13:16,368 pymodbus.transaction - DEBUG - Running transaction 5
2022-07-29 15:13:16,368 pymodbus.transaction - DEBUG - SEND: 0x0 0x5 0x0 0x0 0x0 0x6 0x2 0x3 0x0 0xc 0x0 0x2
2022-07-29 15:13:16,368 pymodbus.client.sync - DEBUG - New Transaction state 'SENDING'
2022-07-29 15:13:16,368 pymodbus.transaction - DEBUG - Changing transaction state from 'SENDING' to 'WAITING FOR REPLY'
2022-07-29 15:13:16,398 pymodbus.transaction - DEBUG - Changing transaction state from 'WAITING FOR REPLY' to 'PROCESSING REPLY'
2022-07-29 15:13:16,399 pymodbus.transaction - DEBUG - RECV: 0x0 0x5 0x0 0x0 0x0 0x7 0x2 0x3 0x4 0x0 0x0 0x0 0x0
2022-07-29 15:13:16,399 pymodbus.framer.socket_framer - DEBUG - Processing: 0x0 0x5 0x0 0x0 0x0 0x7 0x2 0x3 0x4 0x0 0x0 0x0 0x0
2022-07-29 15:13:16,399 pymodbus.factory - DEBUG - Factory Response[ReadHoldingRegistersResponse: 3]
2022-07-29 15:13:16,400 pymodbus.transaction - DEBUG - Adding transaction 5
2022-07-29 15:13:16,400 pymodbus.transaction - DEBUG - Getting transaction 5
2022-07-29 15:13:16,400 pymodbus.transaction - DEBUG - Changing transaction state from 'PROCESSING REPLY' to 'TRANSACTION_COMPLETE'
2022-07-29 15:13:16,400 pymodbus.transaction - DEBUG - Current transaction state - TRANSACTION_COMPLETE
2022-07-29 15:13:16,400 pymodbus.transaction - DEBUG - Running transaction 6
2022-07-29 15:13:16,400 pymodbus.transaction - DEBUG - SEND: 0x0 0x6 0x0 0x0 0x0 0x6 0x2 0x3 0x0 0xe 0x0 0x2
2022-07-29 15:13:16,400 pymodbus.client.sync - DEBUG - New Transaction state 'SENDING'
2022-07-29 15:13:16,400 pymodbus.transaction - DEBUG - Changing transaction state from 'SENDING' to 'WAITING FOR REPLY'
2022-07-29 15:13:16,429 pymodbus.transaction - DEBUG - Changing transaction state from 'WAITING FOR REPLY' to 'PROCESSING REPLY'
2022-07-29 15:13:16,430 pymodbus.transaction - DEBUG - RECV: 0x0 0x6 0x0 0x0 0x0 0x7 0x2 0x3 0x4 0x0 0x0 0x0 0x0
2022-07-29 15:13:16,430 pymodbus.framer.socket_framer - DEBUG - Processing: 0x0 0x6 0x0 0x0 0x0 0x7 0x2 0x3 0x4 0x0 0x0 0x0 0x0
2022-07-29 15:13:16,430 pymodbus.factory - DEBUG - Factory Response[ReadHoldingRegistersResponse: 3]
2022-07-29 15:13:16,430 pymodbus.transaction - DEBUG - Adding transaction 6
2022-07-29 15:13:16,430 pymodbus.transaction - DEBUG - Getting transaction 6
2022-07-29 15:13:16,430 pymodbus.transaction - DEBUG - Changing transaction state from 'PROCESSING REPLY' to 'TRANSACTION_COMPLETE'
2022-07-29 15:13:16,430 pymodbus.transaction - DEBUG - Current transaction state - TRANSACTION_COMPLETE
2022-07-29 15:13:16,430 pymodbus.transaction - DEBUG - Running transaction 7
2022-07-29 15:13:16,430 pymodbus.transaction - DEBUG - SEND: 0x0 0x7 0x0 0x0 0x0 0x6 0x2 0x3 0x0 0x10 0x0 0x2
2022-07-29 15:13:16,431 pymodbus.client.sync - DEBUG - New Transaction state 'SENDING'
2022-07-29 15:13:16,431 pymodbus.transaction - DEBUG - Changing transaction state from 'SENDING' to 'WAITING FOR REPLY'
2022-07-29 15:13:16,461 pymodbus.transaction - DEBUG - Changing transaction state from 'WAITING FOR REPLY' to 'PROCESSING REPLY'
2022-07-29 15:13:16,462 pymodbus.transaction - DEBUG - RECV: 0x0 0x7 0x0 0x0 0x0 0x7 0x2 0x3 0x4 0x0 0x0 0x0 0x0
2022-07-29 15:13:16,462 pymodbus.framer.socket_framer - DEBUG - Processing: 0x0 0x7 0x0 0x0 0x0 0x7 0x2 0x3 0x4 0x0 0x0 0x0 0x0
2022-07-29 15:13:16,462 pymodbus.factory - DEBUG - Factory Response[ReadHoldingRegistersResponse: 3]
2022-07-29 15:13:16,462 pymodbus.transaction - DEBUG - Adding transaction 7
2022-07-29 15:13:16,462 pymodbus.transaction - DEBUG - Getting transaction 7
2022-07-29 15:13:16,463 pymodbus.transaction - DEBUG - Changing transaction state from 'PROCESSING REPLY' to 'TRANSACTION_COMPLETE'
2022-07-29 15:13:16,463 pymodbus.transaction - DEBUG - Current transaction state - TRANSACTION_COMPLETE
2022-07-29 15:13:16,463 pymodbus.transaction - DEBUG - Running transaction 8
2022-07-29 15:13:16,463 pymodbus.transaction - DEBUG - SEND: 0x0 0x8 0x0 0x0 0x0 0x6 0x2 0x3 0x0 0x12 0x0 0x2
2022-07-29 15:13:16,463 pymodbus.client.sync - DEBUG - New Transaction state 'SENDING'
2022-07-29 15:13:16,463 pymodbus.transaction - DEBUG - Changing transaction state from 'SENDING' to 'WAITING FOR REPLY'
2022-07-29 15:13:16,493 pymodbus.transaction - DEBUG - Changing transaction state from 'WAITING FOR REPLY' to 'PROCESSING REPLY'
2022-07-29 15:13:16,493 pymodbus.transaction - DEBUG - RECV: 0x0 0x8 0x0 0x0 0x0 0x7 0x2 0x3 0x4 0x0 0x0 0x0 0x0
2022-07-29 15:13:16,493 pymodbus.framer.socket_framer - DEBUG - Processing: 0x0 0x8 0x0 0x0 0x0 0x7 0x2 0x3 0x4 0x0 0x0 0x0 0x0
2022-07-29 15:13:16,493 pymodbus.factory - DEBUG - Factory Response[ReadHoldingRegistersResponse: 3]
2022-07-29 15:13:16,494 pymodbus.transaction - DEBUG - Adding transaction 8
2022-07-29 15:13:16,494 pymodbus.transaction - DEBUG - Getting transaction 8
2022-07-29 15:13:16,494 pymodbus.transaction - DEBUG - Changing transaction state from 'PROCESSING REPLY' to 'TRANSACTION_COMPLETE'
2022-07-29 15:13:16,494 pymodbus.transaction - DEBUG - Current transaction state - TRANSACTION_COMPLETE
2022-07-29 15:13:16,494 pymodbus.transaction - DEBUG - Running transaction 9
2022-07-29 15:13:16,494 pymodbus.transaction - DEBUG - SEND: 0x0 0x9 0x0 0x0 0x0 0x6 0x2 0x3 0x0 0x14 0x0 0x2
2022-07-29 15:13:16,494 pymodbus.client.sync - DEBUG - New Transaction state 'SENDING'
2022-07-29 15:13:16,494 pymodbus.transaction - DEBUG - Changing transaction state from 'SENDING' to 'WAITING FOR REPLY'
2022-07-29 15:13:16,524 pymodbus.transaction - DEBUG - Changing transaction state from 'WAITING FOR REPLY' to 'PROCESSING REPLY'
2022-07-29 15:13:16,524 pymodbus.transaction - DEBUG - RECV: 0x0 0x9 0x0 0x0 0x0 0x7 0x2 0x3 0x4 0x0 0x0 0x0 0x0
2022-07-29 15:13:16,525 pymodbus.framer.socket_framer - DEBUG - Processing: 0x0 0x9 0x0 0x0 0x0 0x7 0x2 0x3 0x4 0x0 0x0 0x0 0x0
2022-07-29 15:13:16,525 pymodbus.factory - DEBUG - Factory Response[ReadHoldingRegistersResponse: 3]
2022-07-29 15:13:16,525 pymodbus.transaction - DEBUG - Adding transaction 9
2022-07-29 15:13:16,525 pymodbus.transaction - DEBUG - Getting transaction 9
2022-07-29 15:13:16,525 pymodbus.transaction - DEBUG - Changing transaction state from 'PROCESSING REPLY' to 'TRANSACTION_COMPLETE'
2022-07-29 15:13:16,526 pymodbus.transaction - DEBUG - Current transaction state - TRANSACTION_COMPLETE
2022-07-29 15:13:16,526 pymodbus.transaction - DEBUG - Running transaction 10
2022-07-29 15:13:16,526 pymodbus.transaction - DEBUG - SEND: 0x0 0xa 0x0 0x0 0x0 0x6 0x2 0x3 0x0 0x16 0x0 0x2
2022-07-29 15:13:16,526 pymodbus.client.sync - DEBUG - New Transaction state 'SENDING'
2022-07-29 15:13:16,526 pymodbus.transaction - DEBUG - Changing transaction state from 'SENDING' to 'WAITING FOR REPLY'
2022-07-29 15:13:16,556 pymodbus.transaction - DEBUG - Changing transaction state from 'WAITING FOR REPLY' to 'PROCESSING REPLY'
2022-07-29 15:13:16,556 pymodbus.transaction - DEBUG - RECV: 0x0 0xa 0x0 0x0 0x0 0x7 0x2 0x3 0x4 0x0 0x0 0x0 0x2d
2022-07-29 15:13:16,557 pymodbus.framer.socket_framer - DEBUG - Processing: 0x0 0xa 0x0 0x0 0x0 0x7 0x2 0x3 0x4 0x0 0x0 0x0 0x2d
2022-07-29 15:13:16,557 pymodbus.factory - DEBUG - Factory Response[ReadHoldingRegistersResponse: 3]
2022-07-29 15:13:16,557 pymodbus.transaction - DEBUG - Adding transaction 10
2022-07-29 15:13:16,557 pymodbus.transaction - DEBUG - Getting transaction 10
2022-07-29 15:13:16,557 pymodbus.transaction - DEBUG - Changing transaction state from 'PROCESSING REPLY' to 'TRANSACTION_COMPLETE'
2022-07-29 15:13:16,557 pymodbus.transaction - DEBUG - Current transaction state - TRANSACTION_COMPLETE
2022-07-29 15:13:16,557 pymodbus.transaction - DEBUG - Running transaction 11
2022-07-29 15:13:16,557 pymodbus.transaction - DEBUG - SEND: 0x0 0xb 0x0 0x0 0x0 0x6 0x2 0x3 0x0 0x18 0x0 0x2
2022-07-29 15:13:16,558 pymodbus.client.sync - DEBUG - New Transaction state 'SENDING'
2022-07-29 15:13:16,558 pymodbus.transaction - DEBUG - Changing transaction state from 'SENDING' to 'WAITING FOR REPLY'
2022-07-29 15:13:16,586 pymodbus.transaction - DEBUG - Changing transaction state from 'WAITING FOR REPLY' to 'PROCESSING REPLY'
2022-07-29 15:13:16,587 pymodbus.transaction - DEBUG - RECV: 0x0 0xb 0x0 0x0 0x0 0x7 0x2 0x3 0x4 0x0 0x0 0x0 0x0
2022-07-29 15:13:16,587 pymodbus.framer.socket_framer - DEBUG - Processing: 0x0 0xb 0x0 0x0 0x0 0x7 0x2 0x3 0x4 0x0 0x0 0x0 0x0
2022-07-29 15:13:16,587 pymodbus.factory - DEBUG - Factory Response[ReadHoldingRegistersResponse: 3]
2022-07-29 15:13:16,587 pymodbus.transaction - DEBUG - Adding transaction 11
2022-07-29 15:13:16,587 pymodbus.transaction - DEBUG - Getting transaction 11
2022-07-29 15:13:16,587 pymodbus.transaction - DEBUG - Changing transaction state from 'PROCESSING REPLY' to 'TRANSACTION_COMPLETE'
2022-07-29 15:13:16,587 pymodbus.transaction - DEBUG - Current transaction state - TRANSACTION_COMPLETE
2022-07-29 15:13:16,587 pymodbus.transaction - DEBUG - Running transaction 12
2022-07-29 15:13:16,588 pymodbus.transaction - DEBUG - SEND: 0x0 0xc 0x0 0x0 0x0 0x6 0x2 0x3 0x0 0x1a 0x0 0x2
2022-07-29 15:13:16,588 pymodbus.client.sync - DEBUG - New Transaction state 'SENDING'
2022-07-29 15:13:16,588 pymodbus.transaction - DEBUG - Changing transaction state from 'SENDING' to 'WAITING FOR REPLY'
2022-07-29 15:13:16,618 pymodbus.transaction - DEBUG - Changing transaction state from 'WAITING FOR REPLY' to 'PROCESSING REPLY'
2022-07-29 15:13:16,618 pymodbus.transaction - DEBUG - RECV: 0x0 0xc 0x0 0x0 0x0 0x7 0x2 0x3 0x4 0x0 0x0 0x0 0x0
2022-07-29 15:13:16,619 pymodbus.framer.socket_framer - DEBUG - Processing: 0x0 0xc 0x0 0x0 0x0 0x7 0x2 0x3 0x4 0x0 0x0 0x0 0x0
2022-07-29 15:13:16,619 pymodbus.factory - DEBUG - Factory Response[ReadHoldingRegistersResponse: 3]
2022-07-29 15:13:16,619 pymodbus.transaction - DEBUG - Adding transaction 12
2022-07-29 15:13:16,619 pymodbus.transaction - DEBUG - Getting transaction 12
2022-07-29 15:13:16,619 pymodbus.transaction - DEBUG - Changing transaction state from 'PROCESSING REPLY' to 'TRANSACTION_COMPLETE'
2022-07-29 15:13:16,620 pymodbus.transaction - DEBUG - Current transaction state - TRANSACTION_COMPLETE
2022-07-29 15:13:16,620 pymodbus.transaction - DEBUG - Running transaction 13
2022-07-29 15:13:16,620 pymodbus.transaction - DEBUG - SEND: 0x0 0xd 0x0 0x0 0x0 0x6 0x2 0x3 0x0 0x1c 0x0 0x2
2022-07-29 15:13:16,620 pymodbus.client.sync - DEBUG - New Transaction state 'SENDING'
2022-07-29 15:13:16,620 pymodbus.transaction - DEBUG - Changing transaction state from 'SENDING' to 'WAITING FOR REPLY'
2022-07-29 15:13:16,649 pymodbus.transaction - DEBUG - Changing transaction state from 'WAITING FOR REPLY' to 'PROCESSING REPLY'
2022-07-29 15:13:16,649 pymodbus.transaction - DEBUG - RECV: 0x0 0xd 0x0 0x0 0x0 0x7 0x2 0x3 0x4 0x0 0x0 0x0 0x0
2022-07-29 15:13:16,649 pymodbus.framer.socket_framer - DEBUG - Processing: 0x0 0xd 0x0 0x0 0x0 0x7 0x2 0x3 0x4 0x0 0x0 0x0 0x0
2022-07-29 15:13:16,650 pymodbus.factory - DEBUG - Factory Response[ReadHoldingRegistersResponse: 3]
2022-07-29 15:13:16,650 pymodbus.transaction - DEBUG - Adding transaction 13
2022-07-29 15:13:16,650 pymodbus.transaction - DEBUG - Getting transaction 13
2022-07-29 15:13:16,650 pymodbus.transaction - DEBUG - Changing transaction state from 'PROCESSING REPLY' to 'TRANSACTION_COMPLETE'
2022-07-29 15:13:16,650 pymodbus.transaction - DEBUG - Current transaction state - TRANSACTION_COMPLETE
2022-07-29 15:13:16,650 pymodbus.transaction - DEBUG - Running transaction 14
2022-07-29 15:13:16,650 pymodbus.transaction - DEBUG - SEND: 0x0 0xe 0x0 0x0 0x0 0x6 0x2 0x3 0x0 0x1e 0x0 0x2
2022-07-29 15:13:16,650 pymodbus.client.sync - DEBUG - New Transaction state 'SENDING'
2022-07-29 15:13:16,651 pymodbus.transaction - DEBUG - Changing transaction state from 'SENDING' to 'WAITING FOR REPLY'
2022-07-29 15:13:16,679 pymodbus.transaction - DEBUG - Changing transaction state from 'WAITING FOR REPLY' to 'PROCESSING REPLY'
2022-07-29 15:13:16,680 pymodbus.transaction - DEBUG - RECV: 0x0 0xe 0x0 0x0 0x0 0x7 0x2 0x3 0x4 0x0 0x0 0x0 0x0
2022-07-29 15:13:16,680 pymodbus.framer.socket_framer - DEBUG - Processing: 0x0 0xe 0x0 0x0 0x0 0x7 0x2 0x3 0x4 0x0 0x0 0x0 0x0
2022-07-29 15:13:16,680 pymodbus.factory - DEBUG - Factory Response[ReadHoldingRegistersResponse: 3]
2022-07-29 15:13:16,680 pymodbus.transaction - DEBUG - Adding transaction 14
2022-07-29 15:13:16,680 pymodbus.transaction - DEBUG - Getting transaction 14
2022-07-29 15:13:16,680 pymodbus.transaction - DEBUG - Changing transaction state from 'PROCESSING REPLY' to 'TRANSACTION_COMPLETE'
2022-07-29 15:13:16,680 pymodbus.transaction - DEBUG - Current transaction state - TRANSACTION_COMPLETE
2022-07-29 15:13:16,680 pymodbus.transaction - DEBUG - Running transaction 15
2022-07-29 15:13:16,680 pymodbus.transaction - DEBUG - SEND: 0x0 0xf 0x0 0x0 0x0 0x6 0x2 0x3 0x0 0x20 0x0 0x2
2022-07-29 15:13:16,680 pymodbus.client.sync - DEBUG - New Transaction state 'SENDING'
2022-07-29 15:13:16,681 pymodbus.transaction - DEBUG - Changing transaction state from 'SENDING' to 'WAITING FOR REPLY'
2022-07-29 15:13:16,710 pymodbus.transaction - DEBUG - Changing transaction state from 'WAITING FOR REPLY' to 'PROCESSING REPLY'
2022-07-29 15:13:16,710 pymodbus.transaction - DEBUG - RECV: 0x0 0xf 0x0 0x0 0x0 0x7 0x2 0x3 0x4 0x0 0x0 0x0 0x0
2022-07-29 15:13:16,710 pymodbus.framer.socket_framer - DEBUG - Processing: 0x0 0xf 0x0 0x0 0x0 0x7 0x2 0x3 0x4 0x0 0x0 0x0 0x0
2022-07-29 15:13:16,710 pymodbus.factory - DEBUG - Factory Response[ReadHoldingRegistersResponse: 3]
2022-07-29 15:13:16,710 pymodbus.transaction - DEBUG - Adding transaction 15
2022-07-29 15:13:16,710 pymodbus.transaction - DEBUG - Getting transaction 15
2022-07-29 15:13:16,710 pymodbus.transaction - DEBUG - Changing transaction state from 'PROCESSING REPLY' to 'TRANSACTION_COMPLETE'
2022-07-29 15:13:16,712 pymodbus.transaction - DEBUG - Current transaction state - TRANSACTION_COMPLETE
2022-07-29 15:13:16,712 pymodbus.transaction - DEBUG - Running transaction 16
2022-07-29 15:13:16,712 pymodbus.transaction - DEBUG - SEND: 0x0 0x10 0x0 0x0 0x0 0x6 0x2 0x3 0x0 0x22 0x0 0x2
2022-07-29 15:13:16,712 pymodbus.client.sync - DEBUG - New Transaction state 'SENDING'
2022-07-29 15:13:16,712 pymodbus.transaction - DEBUG - Changing transaction state from 'SENDING' to 'WAITING FOR REPLY'
2022-07-29 15:13:16,742 pymodbus.transaction - DEBUG - Changing transaction state from 'WAITING FOR REPLY' to 'PROCESSING REPLY'
2022-07-29 15:13:16,742 pymodbus.transaction - DEBUG - RECV: 0x0 0x10 0x0 0x0 0x0 0x7 0x2 0x3 0x4 0x0 0x0 0x0 0x0
2022-07-29 15:13:16,742 pymodbus.framer.socket_framer - DEBUG - Processing: 0x0 0x10 0x0 0x0 0x0 0x7 0x2 0x3 0x4 0x0 0x0 0x0 0x0
2022-07-29 15:13:16,742 pymodbus.factory - DEBUG - Factory Response[ReadHoldingRegistersResponse: 3]
2022-07-29 15:13:16,742 pymodbus.transaction - DEBUG - Adding transaction 16
2022-07-29 15:13:16,742 pymodbus.transaction - DEBUG - Getting transaction 16
2022-07-29 15:13:16,743 pymodbus.transaction - DEBUG - Changing transaction state from 'PROCESSING REPLY' to 'TRANSACTION_COMPLETE'
2022-07-29 15:13:16,743 pymodbus.transaction - DEBUG - Current transaction state - TRANSACTION_COMPLETE
2022-07-29 15:13:16,743 pymodbus.transaction - DEBUG - Running transaction 17
2022-07-29 15:13:16,743 pymodbus.transaction - DEBUG - SEND: 0x0 0x11 0x0 0x0 0x0 0x6 0x2 0x3 0x0 0x24 0x0 0x2
2022-07-29 15:13:16,743 pymodbus.client.sync - DEBUG - New Transaction state 'SENDING'
2022-07-29 15:13:16,743 pymodbus.transaction - DEBUG - Changing transaction state from 'SENDING' to 'WAITING FOR REPLY'
2022-07-29 15:13:16,773 pymodbus.transaction - DEBUG - Changing transaction state from 'WAITING FOR REPLY' to 'PROCESSING REPLY'
2022-07-29 15:13:16,774 pymodbus.transaction - DEBUG - RECV: 0x0 0x11 0x0 0x0 0x0 0x7 0x2 0x3 0x4 0x0 0x0 0x0 0x0
2022-07-29 15:13:16,774 pymodbus.framer.socket_framer - DEBUG - Processing: 0x0 0x11 0x0 0x0 0x0 0x7 0x2 0x3 0x4 0x0 0x0 0x0 0x0
2022-07-29 15:13:16,774 pymodbus.factory - DEBUG - Factory Response[ReadHoldingRegistersResponse: 3]
2022-07-29 15:13:16,774 pymodbus.transaction - DEBUG - Adding transaction 17
2022-07-29 15:13:16,774 pymodbus.transaction - DEBUG - Getting transaction 17
2022-07-29 15:13:16,774 pymodbus.transaction - DEBUG - Changing transaction state from 'PROCESSING REPLY' to 'TRANSACTION_COMPLETE'
2022-07-29 15:13:16,774 pymodbus.transaction - DEBUG - Current transaction state - TRANSACTION_COMPLETE
2022-07-29 15:13:16,774 pymodbus.transaction - DEBUG - Running transaction 18
2022-07-29 15:13:16,775 pymodbus.transaction - DEBUG - SEND: 0x0 0x12 0x0 0x0 0x0 0x6 0x2 0x3 0x0 0x26 0x0 0x2
2022-07-29 15:13:16,775 pymodbus.client.sync - DEBUG - New Transaction state 'SENDING'
2022-07-29 15:13:16,775 pymodbus.transaction - DEBUG - Changing transaction state from 'SENDING' to 'WAITING FOR REPLY'
2022-07-29 15:13:16,804 pymodbus.transaction - DEBUG - Changing transaction state from 'WAITING FOR REPLY' to 'PROCESSING REPLY'
2022-07-29 15:13:16,804 pymodbus.transaction - DEBUG - RECV: 0x0 0x12 0x0 0x0 0x0 0x7 0x2 0x3 0x4 0x0 0x0 0x0 0x0
2022-07-29 15:13:16,805 pymodbus.framer.socket_framer - DEBUG - Processing: 0x0 0x12 0x0 0x0 0x0 0x7 0x2 0x3 0x4 0x0 0x0 0x0 0x0
2022-07-29 15:13:16,805 pymodbus.factory - DEBUG - Factory Response[ReadHoldingRegistersResponse: 3]
2022-07-29 15:13:16,805 pymodbus.transaction - DEBUG - Adding transaction 18
2022-07-29 15:13:16,805 pymodbus.transaction - DEBUG - Getting transaction 18
2022-07-29 15:13:16,805 pymodbus.transaction - DEBUG - Changing transaction state from 'PROCESSING REPLY' to 'TRANSACTION_COMPLETE'
2022-07-29 15:13:16,805 pymodbus.transaction - DEBUG - Current transaction state - TRANSACTION_COMPLETE
2022-07-29 15:13:16,805 pymodbus.transaction - DEBUG - Running transaction 19
2022-07-29 15:13:16,805 pymodbus.transaction - DEBUG - SEND: 0x0 0x13 0x0 0x0 0x0 0x6 0x2 0x3 0x0 0x28 0x0 0x2
2022-07-29 15:13:16,805 pymodbus.client.sync - DEBUG - New Transaction state 'SENDING'
2022-07-29 15:13:16,806 pymodbus.transaction - DEBUG - Changing transaction state from 'SENDING' to 'WAITING FOR REPLY'
2022-07-29 15:13:16,834 pymodbus.transaction - DEBUG - Changing transaction state from 'WAITING FOR REPLY' to 'PROCESSING REPLY'
2022-07-29 15:13:16,835 pymodbus.transaction - DEBUG - RECV: 0x0 0x13 0x0 0x0 0x0 0x7 0x2 0x3 0x4 0x0 0x0 0x0 0x0
2022-07-29 15:13:16,835 pymodbus.framer.socket_framer - DEBUG - Processing: 0x0 0x13 0x0 0x0 0x0 0x7 0x2 0x3 0x4 0x0 0x0 0x0 0x0
2022-07-29 15:13:16,835 pymodbus.factory - DEBUG - Factory Response[ReadHoldingRegistersResponse: 3]
2022-07-29 15:13:16,835 pymodbus.transaction - DEBUG - Adding transaction 19
2022-07-29 15:13:16,835 pymodbus.transaction - DEBUG - Getting transaction 19
2022-07-29 15:13:16,835 pymodbus.transaction - DEBUG - Changing transaction state from 'PROCESSING REPLY' to 'TRANSACTION_COMPLETE'
2022-07-29 15:13:16,836 pymodbus.transaction - DEBUG - Current transaction state - TRANSACTION_COMPLETE
2022-07-29 15:13:16,836 pymodbus.transaction - DEBUG - Running transaction 20
2022-07-29 15:13:16,836 pymodbus.transaction - DEBUG - SEND: 0x0 0x14 0x0 0x0 0x0 0x6 0x2 0x3 0x0 0x2a 0x0 0x2
2022-07-29 15:13:16,836 pymodbus.client.sync - DEBUG - New Transaction state 'SENDING'
2022-07-29 15:13:16,836 pymodbus.transaction - DEBUG - Changing transaction state from 'SENDING' to 'WAITING FOR REPLY'
2022-07-29 15:13:16,866 pymodbus.transaction - DEBUG - Changing transaction state from 'WAITING FOR REPLY' to 'PROCESSING REPLY'
2022-07-29 15:13:16,866 pymodbus.transaction - DEBUG - RECV: 0x0 0x14 0x0 0x0 0x0 0x7 0x2 0x3 0x4 0x0 0x0 0x0 0x0
2022-07-29 15:13:16,867 pymodbus.framer.socket_framer - DEBUG - Processing: 0x0 0x14 0x0 0x0 0x0 0x7 0x2 0x3 0x4 0x0 0x0 0x0 0x0
2022-07-29 15:13:16,867 pymodbus.factory - DEBUG - Factory Response[ReadHoldingRegistersResponse: 3]
2022-07-29 15:13:16,867 pymodbus.transaction - DEBUG - Adding transaction 20
2022-07-29 15:13:16,867 pymodbus.transaction - DEBUG - Getting transaction 20
2022-07-29 15:13:16,868 pymodbus.transaction - DEBUG - Changing transaction state from 'PROCESSING REPLY' to 'TRANSACTION_COMPLETE'
2022-07-29 15:13:16,868 pymodbus.transaction - DEBUG - Current transaction state - TRANSACTION_COMPLETE
2022-07-29 15:13:16,868 pymodbus.transaction - DEBUG - Running transaction 21
2022-07-29 15:13:16,869 pymodbus.transaction - DEBUG - SEND: 0x0 0x15 0x0 0x0 0x0 0x6 0x2 0x3 0x0 0x2c 0x0 0x2
2022-07-29 15:13:16,870 pymodbus.client.sync - DEBUG - New Transaction state 'SENDING'
2022-07-29 15:13:16,870 pymodbus.transaction - DEBUG - Changing transaction state from 'SENDING' to 'WAITING FOR REPLY'
2022-07-29 15:13:16,898 pymodbus.transaction - DEBUG - Changing transaction state from 'WAITING FOR REPLY' to 'PROCESSING REPLY'
2022-07-29 15:13:16,898 pymodbus.transaction - DEBUG - RECV: 0x0 0x15 0x0 0x0 0x0 0x7 0x2 0x3 0x4 0x0 0x0 0x0 0x0
2022-07-29 15:13:16,898 pymodbus.framer.socket_framer - DEBUG - Processing: 0x0 0x15 0x0 0x0 0x0 0x7 0x2 0x3 0x4 0x0 0x0 0x0 0x0
2022-07-29 15:13:16,899 pymodbus.factory - DEBUG - Factory Response[ReadHoldingRegistersResponse: 3]
2022-07-29 15:13:16,899 pymodbus.transaction - DEBUG - Adding transaction 21
2022-07-29 15:13:16,899 pymodbus.transaction - DEBUG - Getting transaction 21
2022-07-29 15:13:16,899 pymodbus.transaction - DEBUG - Changing transaction state from 'PROCESSING REPLY' to 'TRANSACTION_COMPLETE'
2022-07-29 15:13:16,899 pymodbus.transaction - DEBUG - Current transaction state - TRANSACTION_COMPLETE
2022-07-29 15:13:16,899 pymodbus.transaction - DEBUG - Running transaction 22
2022-07-29 15:13:16,899 pymodbus.transaction - DEBUG - SEND: 0x0 0x16 0x0 0x0 0x0 0x6 0x2 0x3 0x0 0x2e 0x0 0x2
2022-07-29 15:13:16,899 pymodbus.client.sync - DEBUG - New Transaction state 'SENDING'
2022-07-29 15:13:16,899 pymodbus.transaction - DEBUG - Changing transaction state from 'SENDING' to 'WAITING FOR REPLY'
2022-07-29 15:13:16,929 pymodbus.transaction - DEBUG - Changing transaction state from 'WAITING FOR REPLY' to 'PROCESSING REPLY'
2022-07-29 15:13:16,930 pymodbus.transaction - DEBUG - RECV: 0x0 0x16 0x0 0x0 0x0 0x7 0x2 0x3 0x4 0x0 0x0 0x0 0x0
2022-07-29 15:13:16,930 pymodbus.framer.socket_framer - DEBUG - Processing: 0x0 0x16 0x0 0x0 0x0 0x7 0x2 0x3 0x4 0x0 0x0 0x0 0x0
2022-07-29 15:13:16,930 pymodbus.factory - DEBUG - Factory Response[ReadHoldingRegistersResponse: 3]
2022-07-29 15:13:16,930 pymodbus.transaction - DEBUG - Adding transaction 22
2022-07-29 15:13:16,930 pymodbus.transaction - DEBUG - Getting transaction 22
2022-07-29 15:13:16,931 pymodbus.transaction - DEBUG - Changing transaction state from 'PROCESSING REPLY' to 'TRANSACTION_COMPLETE'
2022-07-29 15:13:16,931 pymodbus.transaction - DEBUG - Current transaction state - TRANSACTION_COMPLETE
2022-07-29 15:13:16,931 pymodbus.transaction - DEBUG - Running transaction 23
2022-07-29 15:13:16,931 pymodbus.transaction - DEBUG - SEND: 0x0 0x17 0x0 0x0 0x0 0x6 0x2 0x3 0x0 0x30 0x0 0x2
2022-07-29 15:13:16,931 pymodbus.client.sync - DEBUG - New Transaction state 'SENDING'
2022-07-29 15:13:16,932 pymodbus.transaction - DEBUG - Changing transaction state from 'SENDING' to 'WAITING FOR REPLY'
2022-07-29 15:13:16,960 pymodbus.transaction - DEBUG - Changing transaction state from 'WAITING FOR REPLY' to 'PROCESSING REPLY'
2022-07-29 15:13:16,960 pymodbus.transaction - DEBUG - RECV: 0x0 0x17 0x0 0x0 0x0 0x7 0x2 0x3 0x4 0x0 0x0 0x0 0x0
2022-07-29 15:13:16,960 pymodbus.framer.socket_framer - DEBUG - Processing: 0x0 0x17 0x0 0x0 0x0 0x7 0x2 0x3 0x4 0x0 0x0 0x0 0x0
2022-07-29 15:13:16,960 pymodbus.factory - DEBUG - Factory Response[ReadHoldingRegistersResponse: 3]
2022-07-29 15:13:16,960 pymodbus.transaction - DEBUG - Adding transaction 23
2022-07-29 15:13:16,961 pymodbus.transaction - DEBUG - Getting transaction 23
2022-07-29 15:13:16,961 pymodbus.transaction - DEBUG - Changing transaction state from 'PROCESSING REPLY' to 'TRANSACTION_COMPLETE'
2022-07-29 15:13:16,961 pymodbus.transaction - DEBUG - Current transaction state - TRANSACTION_COMPLETE
2022-07-29 15:13:16,961 pymodbus.transaction - DEBUG - Running transaction 24
2022-07-29 15:13:16,961 pymodbus.transaction - DEBUG - SEND: 0x0 0x18 0x0 0x0 0x0 0x6 0x2 0x3 0x0 0x32 0x0 0x2
2022-07-29 15:13:16,961 pymodbus.client.sync - DEBUG - New Transaction state 'SENDING'
2022-07-29 15:13:16,962 pymodbus.transaction - DEBUG - Changing transaction state from 'SENDING' to 'WAITING FOR REPLY'
2022-07-29 15:13:16,991 pymodbus.transaction - DEBUG - Changing transaction state from 'WAITING FOR REPLY' to 'PROCESSING REPLY'
2022-07-29 15:13:16,991 pymodbus.transaction - DEBUG - RECV: 0x0 0x18 0x0 0x0 0x0 0x7 0x2 0x3 0x4 0x0 0x0 0x0 0x0
2022-07-29 15:13:16,992 pymodbus.framer.socket_framer - DEBUG - Processing: 0x0 0x18 0x0 0x0 0x0 0x7 0x2 0x3 0x4 0x0 0x0 0x0 0x0
2022-07-29 15:13:16,992 pymodbus.factory - DEBUG - Factory Response[ReadHoldingRegistersResponse: 3]
2022-07-29 15:13:16,992 pymodbus.transaction - DEBUG - Adding transaction 24
2022-07-29 15:13:16,992 pymodbus.transaction - DEBUG - Getting transaction 24
2022-07-29 15:13:16,992 pymodbus.transaction - DEBUG - Changing transaction state from 'PROCESSING REPLY' to 'TRANSACTION_COMPLETE'
2022-07-29 15:13:16,992 pymodbus.transaction - DEBUG - Current transaction state - TRANSACTION_COMPLETE
2022-07-29 15:13:16,992 pymodbus.transaction - DEBUG - Running transaction 25
2022-07-29 15:13:16,993 pymodbus.transaction - DEBUG - SEND: 0x0 0x19 0x0 0x0 0x0 0x6 0x2 0x3 0x0 0x34 0x0 0x2
2022-07-29 15:13:16,993 pymodbus.client.sync - DEBUG - New Transaction state 'SENDING'
2022-07-29 15:13:16,993 pymodbus.transaction - DEBUG - Changing transaction state from 'SENDING' to 'WAITING FOR REPLY'
2022-07-29 15:13:17,022 pymodbus.transaction - DEBUG - Changing transaction state from 'WAITING FOR REPLY' to 'PROCESSING REPLY'
2022-07-29 15:13:17,022 pymodbus.transaction - DEBUG - RECV: 0x0 0x19 0x0 0x0 0x0 0x7 0x2 0x3 0x4 0x0 0x0 0x0 0x0
2022-07-29 15:13:17,023 pymodbus.framer.socket_framer - DEBUG - Processing: 0x0 0x19 0x0 0x0 0x0 0x7 0x2 0x3 0x4 0x0 0x0 0x0 0x0
2022-07-29 15:13:17,023 pymodbus.factory - DEBUG - Factory Response[ReadHoldingRegistersResponse: 3]
2022-07-29 15:13:17,023 pymodbus.transaction - DEBUG - Adding transaction 25
2022-07-29 15:13:17,023 pymodbus.transaction - DEBUG - Getting transaction 25
2022-07-29 15:13:17,023 pymodbus.transaction - DEBUG - Changing transaction state from 'PROCESSING REPLY' to 'TRANSACTION_COMPLETE'
2022-07-29 15:13:17,023 pymodbus.transaction - DEBUG - Current transaction state - TRANSACTION_COMPLETE
2022-07-29 15:13:17,024 pymodbus.transaction - DEBUG - Running transaction 26
2022-07-29 15:13:17,024 pymodbus.transaction - DEBUG - SEND: 0x0 0x1a 0x0 0x0 0x0 0x6 0x2 0x3 0x0 0x36 0x0 0x2
2022-07-29 15:13:17,024 pymodbus.client.sync - DEBUG - New Transaction state 'SENDING'
2022-07-29 15:13:17,024 pymodbus.transaction - DEBUG - Changing transaction state from 'SENDING' to 'WAITING FOR REPLY'
2022-07-29 15:13:17,054 pymodbus.transaction - DEBUG - Changing transaction state from 'WAITING FOR REPLY' to 'PROCESSING REPLY'
2022-07-29 15:13:17,054 pymodbus.transaction - DEBUG - RECV: 0x0 0x1a 0x0 0x0 0x0 0x7 0x2 0x3 0x4 0x0 0x0 0x0 0x0
2022-07-29 15:13:17,054 pymodbus.framer.socket_framer - DEBUG - Processing: 0x0 0x1a 0x0 0x0 0x0 0x7 0x2 0x3 0x4 0x0 0x0 0x0 0x0
2022-07-29 15:13:17,055 pymodbus.factory - DEBUG - Factory Response[ReadHoldingRegistersResponse: 3]
2022-07-29 15:13:17,055 pymodbus.transaction - DEBUG - Adding transaction 26
2022-07-29 15:13:17,055 pymodbus.transaction - DEBUG - Getting transaction 26
2022-07-29 15:13:17,055 pymodbus.transaction - DEBUG - Changing transaction state from 'PROCESSING REPLY' to 'TRANSACTION_COMPLETE'
2022-07-29 15:13:17,055 pymodbus.transaction - DEBUG - Current transaction state - TRANSACTION_COMPLETE
2022-07-29 15:13:17,055 pymodbus.transaction - DEBUG - Running transaction 27
2022-07-29 15:13:17,055 pymodbus.transaction - DEBUG - SEND: 0x0 0x1b 0x0 0x0 0x0 0x6 0x2 0x3 0x0 0x38 0x0 0x2
2022-07-29 15:13:17,055 pymodbus.client.sync - DEBUG - New Transaction state 'SENDING'
2022-07-29 15:13:17,055 pymodbus.transaction - DEBUG - Changing transaction state from 'SENDING' to 'WAITING FOR REPLY'
2022-07-29 15:13:17,085 pymodbus.transaction - DEBUG - Changing transaction state from 'WAITING FOR REPLY' to 'PROCESSING REPLY'
2022-07-29 15:13:17,085 pymodbus.transaction - DEBUG - RECV: 0x0 0x1b 0x0 0x0 0x0 0x7 0x2 0x3 0x4 0x0 0x0 0x0 0x0
2022-07-29 15:13:17,086 pymodbus.framer.socket_framer - DEBUG - Processing: 0x0 0x1b 0x0 0x0 0x0 0x7 0x2 0x3 0x4 0x0 0x0 0x0 0x0
2022-07-29 15:13:17,086 pymodbus.factory - DEBUG - Factory Response[ReadHoldingRegistersResponse: 3]
2022-07-29 15:13:17,086 pymodbus.transaction - DEBUG - Adding transaction 27
2022-07-29 15:13:17,086 pymodbus.transaction - DEBUG - Getting transaction 27
2022-07-29 15:13:17,086 pymodbus.transaction - DEBUG - Changing transaction state from 'PROCESSING REPLY' to 'TRANSACTION_COMPLETE'
2022-07-29 15:13:17,086 pymodbus.transaction - DEBUG - Current transaction state - TRANSACTION_COMPLETE
2022-07-29 15:13:17,086 pymodbus.transaction - DEBUG - Running transaction 28
2022-07-29 15:13:17,086 pymodbus.transaction - DEBUG - SEND: 0x0 0x1c 0x0 0x0 0x0 0x6 0x2 0x3 0x0 0x3a 0x0 0x2
2022-07-29 15:13:17,086 pymodbus.client.sync - DEBUG - New Transaction state 'SENDING'
2022-07-29 15:13:17,086 pymodbus.transaction - DEBUG - Changing transaction state from 'SENDING' to 'WAITING FOR REPLY'
2022-07-29 15:13:17,116 pymodbus.transaction - DEBUG - Changing transaction state from 'WAITING FOR REPLY' to 'PROCESSING REPLY'
2022-07-29 15:13:17,116 pymodbus.transaction - DEBUG - RECV: 0x0 0x1c 0x0 0x0 0x0 0x7 0x2 0x3 0x4 0x0 0x0 0x0 0x0
2022-07-29 15:13:17,116 pymodbus.framer.socket_framer - DEBUG - Processing: 0x0 0x1c 0x0 0x0 0x0 0x7 0x2 0x3 0x4 0x0 0x0 0x0 0x0
2022-07-29 15:13:17,116 pymodbus.factory - DEBUG - Factory Response[ReadHoldingRegistersResponse: 3]
2022-07-29 15:13:17,116 pymodbus.transaction - DEBUG - Adding transaction 28
2022-07-29 15:13:17,116 pymodbus.transaction - DEBUG - Getting transaction 28
2022-07-29 15:13:17,116 pymodbus.transaction - DEBUG - Changing transaction state from 'PROCESSING REPLY' to 'TRANSACTION_COMPLETE'
2022-07-29 15:13:17,116 pymodbus.transaction - DEBUG - Current transaction state - TRANSACTION_COMPLETE
2022-07-29 15:13:17,117 pymodbus.transaction - DEBUG - Running transaction 29
2022-07-29 15:13:17,117 pymodbus.transaction - DEBUG - SEND: 0x0 0x1d 0x0 0x0 0x0 0x6 0x2 0x3 0x0 0x3c 0x0 0x2
2022-07-29 15:13:17,117 pymodbus.client.sync - DEBUG - New Transaction state 'SENDING'
2022-07-29 15:13:17,117 pymodbus.transaction - DEBUG - Changing transaction state from 'SENDING' to 'WAITING FOR REPLY'
2022-07-29 15:13:17,148 pymodbus.transaction - DEBUG - Changing transaction state from 'WAITING FOR REPLY' to 'PROCESSING REPLY'
2022-07-29 15:13:17,148 pymodbus.transaction - DEBUG - RECV: 0x0 0x1d 0x0 0x0 0x0 0x7 0x2 0x3 0x4 0x0 0x0 0x0 0x0
2022-07-29 15:13:17,149 pymodbus.framer.socket_framer - DEBUG - Processing: 0x0 0x1d 0x0 0x0 0x0 0x7 0x2 0x3 0x4 0x0 0x0 0x0 0x0
2022-07-29 15:13:17,149 pymodbus.factory - DEBUG - Factory Response[ReadHoldingRegistersResponse: 3]
2022-07-29 15:13:17,149 pymodbus.transaction - DEBUG - Adding transaction 29
2022-07-29 15:13:17,149 pymodbus.transaction - DEBUG - Getting transaction 29
2022-07-29 15:13:17,149 pymodbus.transaction - DEBUG - Changing transaction state from 'PROCESSING REPLY' to 'TRANSACTION_COMPLETE'
2022-07-29 15:13:17,149 pymodbus.transaction - DEBUG - Current transaction state - TRANSACTION_COMPLETE
2022-07-29 15:13:17,149 pymodbus.transaction - DEBUG - Running transaction 30
2022-07-29 15:13:17,149 pymodbus.transaction - DEBUG - SEND: 0x0 0x1e 0x0 0x0 0x0 0x6 0x2 0x3 0x0 0x40 0x0 0x2
2022-07-29 15:13:17,149 pymodbus.client.sync - DEBUG - New Transaction state 'SENDING'
2022-07-29 15:13:17,149 pymodbus.transaction - DEBUG - Changing transaction state from 'SENDING' to 'WAITING FOR REPLY'
2022-07-29 15:13:17,179 pymodbus.transaction - DEBUG - Changing transaction state from 'WAITING FOR REPLY' to 'PROCESSING REPLY'
2022-07-29 15:13:17,179 pymodbus.transaction - DEBUG - RECV: 0x0 0x1e 0x0 0x0 0x0 0x7 0x2 0x3 0x4 0x0 0x0 0x0 0x0
2022-07-29 15:13:17,180 pymodbus.framer.socket_framer - DEBUG - Processing: 0x0 0x1e 0x0 0x0 0x0 0x7 0x2 0x3 0x4 0x0 0x0 0x0 0x0
2022-07-29 15:13:17,180 pymodbus.factory - DEBUG - Factory Response[ReadHoldingRegistersResponse: 3]
2022-07-29 15:13:17,180 pymodbus.transaction - DEBUG - Adding transaction 30
2022-07-29 15:13:17,180 pymodbus.transaction - DEBUG - Getting transaction 30
2022-07-29 15:13:17,180 pymodbus.transaction - DEBUG - Changing transaction state from 'PROCESSING REPLY' to 'TRANSACTION_COMPLETE'
2022-07-29 15:13:17,180 pymodbus.transaction - DEBUG - Current transaction state - TRANSACTION_COMPLETE
2022-07-29 15:13:17,180 pymodbus.transaction - DEBUG - Running transaction 31
2022-07-29 15:13:17,180 pymodbus.transaction - DEBUG - SEND: 0x0 0x1f 0x0 0x0 0x0 0x6 0x2 0x3 0x0 0x3e 0x0 0x2
2022-07-29 15:13:17,180 pymodbus.client.sync - DEBUG - New Transaction state 'SENDING'
2022-07-29 15:13:17,180 pymodbus.transaction - DEBUG - Changing transaction state from 'SENDING' to 'WAITING FOR REPLY'
2022-07-29 15:13:17,209 pymodbus.transaction - DEBUG - Changing transaction state from 'WAITING FOR REPLY' to 'PROCESSING REPLY'
2022-07-29 15:13:17,209 pymodbus.transaction - DEBUG - RECV: 0x0 0x1f 0x0 0x0 0x0 0x7 0x2 0x3 0x4 0x0 0x0 0x0 0x0
2022-07-29 15:13:17,209 pymodbus.framer.socket_framer - DEBUG - Processing: 0x0 0x1f 0x0 0x0 0x0 0x7 0x2 0x3 0x4 0x0 0x0 0x0 0x0
2022-07-29 15:13:17,209 pymodbus.factory - DEBUG - Factory Response[ReadHoldingRegistersResponse: 3]
2022-07-29 15:13:17,209 pymodbus.transaction - DEBUG - Adding transaction 31
2022-07-29 15:13:17,209 pymodbus.transaction - DEBUG - Getting transaction 31
2022-07-29 15:13:17,210 pymodbus.transaction - DEBUG - Changing transaction state from 'PROCESSING REPLY' to 'TRANSACTION_COMPLETE'
2022-07-29 15:13:17,210 pymodbus.transaction - DEBUG - Current transaction state - TRANSACTION_COMPLETE
2022-07-29 15:13:17,210 pymodbus.transaction - DEBUG - Running transaction 32
2022-07-29 15:13:17,210 pymodbus.transaction - DEBUG - SEND: 0x0 0x20 0x0 0x0 0x0 0x6 0x2 0x3 0x0 0x66 0x0 0x2
2022-07-29 15:13:17,210 pymodbus.client.sync - DEBUG - New Transaction state 'SENDING'
2022-07-29 15:13:17,210 pymodbus.transaction - DEBUG - Changing transaction state from 'SENDING' to 'WAITING FOR REPLY'
2022-07-29 15:13:17,240 pymodbus.transaction - DEBUG - Changing transaction state from 'WAITING FOR REPLY' to 'PROCESSING REPLY'
2022-07-29 15:13:17,240 pymodbus.transaction - DEBUG - RECV: 0x0 0x20 0x0 0x0 0x0 0x7 0x2 0x3 0x4 0x0 0x0 0x0 0x0
2022-07-29 15:13:17,240 pymodbus.framer.socket_framer - DEBUG - Processing: 0x0 0x20 0x0 0x0 0x0 0x7 0x2 0x3 0x4 0x0 0x0 0x0 0x0
2022-07-29 15:13:17,241 pymodbus.factory - DEBUG - Factory Response[ReadHoldingRegistersResponse: 3]
2022-07-29 15:13:17,241 pymodbus.transaction - DEBUG - Adding transaction 32
2022-07-29 15:13:17,241 pymodbus.transaction - DEBUG - Getting transaction 32
2022-07-29 15:13:17,241 pymodbus.transaction - DEBUG - Changing transaction state from 'PROCESSING REPLY' to 'TRANSACTION_COMPLETE'
2022-07-29 15:13:17,241 pymodbus.transaction - DEBUG - Current transaction state - TRANSACTION_COMPLETE
2022-07-29 15:13:17,241 pymodbus.transaction - DEBUG - Running transaction 33
2022-07-29 15:13:17,242 pymodbus.transaction - DEBUG - SEND: 0x0 0x21 0x0 0x0 0x0 0x6 0x2 0x3 0x0 0x68 0x0 0x2
2022-07-29 15:13:17,242 pymodbus.client.sync - DEBUG - New Transaction state 'SENDING'
2022-07-29 15:13:17,242 pymodbus.transaction - DEBUG - Changing transaction state from 'SENDING' to 'WAITING FOR REPLY'
2022-07-29 15:13:17,272 pymodbus.transaction - DEBUG - Changing transaction state from 'WAITING FOR REPLY' to 'PROCESSING REPLY'
2022-07-29 15:13:17,272 pymodbus.transaction - DEBUG - RECV: 0x0 0x21 0x0 0x0 0x0 0x7 0x2 0x3 0x4 0x0 0x0 0x0 0x2
2022-07-29 15:13:17,272 pymodbus.framer.socket_framer - DEBUG - Processing: 0x0 0x21 0x0 0x0 0x0 0x7 0x2 0x3 0x4 0x0 0x0 0x0 0x2
2022-07-29 15:13:17,272 pymodbus.factory - DEBUG - Factory Response[ReadHoldingRegistersResponse: 3]
2022-07-29 15:13:17,272 pymodbus.transaction - DEBUG - Adding transaction 33
2022-07-29 15:13:17,272 pymodbus.transaction - DEBUG - Getting transaction 33
2022-07-29 15:13:17,272 pymodbus.transaction - DEBUG - Changing transaction state from 'PROCESSING REPLY' to 'TRANSACTION_COMPLETE'
2022-07-29 15:13:17,273 pymodbus.transaction - DEBUG - Current transaction state - TRANSACTION_COMPLETE
2022-07-29 15:13:17,273 pymodbus.transaction - DEBUG - Running transaction 34
2022-07-29 15:13:17,273 pymodbus.transaction - DEBUG - SEND: 0x0 0x22 0x0 0x0 0x0 0x6 0x2 0x3 0x0 0x6e 0x0 0x2
2022-07-29 15:13:17,273 pymodbus.client.sync - DEBUG - New Transaction state 'SENDING'
2022-07-29 15:13:17,273 pymodbus.transaction - DEBUG - Changing transaction state from 'SENDING' to 'WAITING FOR REPLY'
2022-07-29 15:13:17,303 pymodbus.transaction - DEBUG - Changing transaction state from 'WAITING FOR REPLY' to 'PROCESSING REPLY'
2022-07-29 15:13:17,303 pymodbus.transaction - DEBUG - RECV: 0x0 0x22 0x0 0x0 0x0 0x7 0x2 0x3 0x4 0x0 0x0 0x0 0x0
2022-07-29 15:13:17,303 pymodbus.framer.socket_framer - DEBUG - Processing: 0x0 0x22 0x0 0x0 0x0 0x7 0x2 0x3 0x4 0x0 0x0 0x0 0x0
2022-07-29 15:13:17,304 pymodbus.factory - DEBUG - Factory Response[ReadHoldingRegistersResponse: 3]
2022-07-29 15:13:17,304 pymodbus.transaction - DEBUG - Adding transaction 34
2022-07-29 15:13:17,304 pymodbus.transaction - DEBUG - Getting transaction 34
2022-07-29 15:13:17,304 pymodbus.transaction - DEBUG - Changing transaction state from 'PROCESSING REPLY' to 'TRANSACTION_COMPLETE'
2022-07-29 15:13:17,304 pymodbus.transaction - DEBUG - Current transaction state - TRANSACTION_COMPLETE
2022-07-29 15:13:17,304 pymodbus.transaction - DEBUG - Running transaction 35
2022-07-29 15:13:17,304 pymodbus.transaction - DEBUG - SEND: 0x0 0x23 0x0 0x0 0x0 0x6 0x2 0x3 0x0 0x70 0x0 0x2
2022-07-29 15:13:17,304 pymodbus.client.sync - DEBUG - New Transaction state 'SENDING'
2022-07-29 15:13:17,305 pymodbus.transaction - DEBUG - Changing transaction state from 'SENDING' to 'WAITING FOR REPLY'
2022-07-29 15:13:17,334 pymodbus.transaction - DEBUG - Changing transaction state from 'WAITING FOR REPLY' to 'PROCESSING REPLY'
2022-07-29 15:13:17,334 pymodbus.transaction - DEBUG - RECV: 0x0 0x23 0x0 0x0 0x0 0x7 0x2 0x3 0x4 0x0 0x0 0x0 0x1
2022-07-29 15:13:17,334 pymodbus.framer.socket_framer - DEBUG - Processing: 0x0 0x23 0x0 0x0 0x0 0x7 0x2 0x3 0x4 0x0 0x0 0x0 0x1
2022-07-29 15:13:17,335 pymodbus.factory - DEBUG - Factory Response[ReadHoldingRegistersResponse: 3]
2022-07-29 15:13:17,335 pymodbus.transaction - DEBUG - Adding transaction 35
2022-07-29 15:13:17,335 pymodbus.transaction - DEBUG - Getting transaction 35
2022-07-29 15:13:17,335 pymodbus.transaction - DEBUG - Changing transaction state from 'PROCESSING REPLY' to 'TRANSACTION_COMPLETE'
2022-07-29 15:13:17,335 log1 - DEBUG - Reading Register Complete
2022-07-29 15:13:17,337 log1 - DEBUG - Posting Data to DB
2022-07-29 15:13:17,344 urllib3.connectionpool - DEBUG - Starting new HTTP connection (1): 192.168.1.36:4000
2022-07-29 15:13:17,365 urllib3.connectionpool - DEBUG - http://192.168.1.36:4000 "POST /data HTTP/1.1" 200 20
2022-07-29 15:13:17,366 root - DEBUG - {"index":0,"code":2}
2022-07-29 15:13:17,367 log1 - DEBUG - POST Complete
2022-07-29 15:13:17,367 log1 - DEBUG - Sending to Local DB
2022-07-29 15:13:17,384 log1 - DEBUG - Local DB document inserted
2022-07-29 15:13:17,390 log1 - DEBUG - MQTT Publish Start
2022-07-29 15:13:17,392 log1 - DEBUG - MQTT Publish Complete
2022-07-29 15:13:22,401 root - DEBUG - Reading Registers
2022-07-29 15:13:22,401 log1 - DEBUG - Reading Registers
2022-07-29 15:13:22,402 pymodbus.transaction - DEBUG - Current transaction state - TRANSACTION_COMPLETE
2022-07-29 15:13:22,403 pymodbus.transaction - DEBUG - Running transaction 36
2022-07-29 15:13:22,403 pymodbus.transaction - DEBUG - SEND: 0x0 0x24 0x0 0x0 0x0 0x6 0x2 0x3 0x0 0x0 0x0 0x2
2022-07-29 15:13:22,403 pymodbus.client.sync - DEBUG - New Transaction state 'SENDING'
2022-07-29 15:13:22,403 pymodbus.transaction - DEBUG - Changing transaction state from 'SENDING' to 'WAITING FOR REPLY'
2022-07-29 15:13:22,417 pymodbus.transaction - DEBUG - Changing transaction state from 'WAITING FOR REPLY' to 'PROCESSING REPLY'
2022-07-29 15:13:22,417 pymodbus.transaction - DEBUG - RECV: 0x0 0x24 0x0 0x0 0x0 0x7 0x2 0x3 0x4 0x0 0x1 0x0 0x1
2022-07-29 15:13:22,417 pymodbus.framer.socket_framer - DEBUG - Processing: 0x0 0x24 0x0 0x0 0x0 0x7 0x2 0x3 0x4 0x0 0x1 0x0 0x1
2022-07-29 15:13:22,417 pymodbus.factory - DEBUG - Factory Response[ReadHoldingRegistersResponse: 3]
2022-07-29 15:13:22,417 pymodbus.transaction - DEBUG - Adding transaction 36
2022-07-29 15:13:22,417 pymodbus.transaction - DEBUG - Getting transaction 36
2022-07-29 15:13:22,418 pymodbus.transaction - DEBUG - Changing transaction state from 'PROCESSING REPLY' to 'TRANSACTION_COMPLETE'
2022-07-29 15:13:22,418 pymodbus.transaction - DEBUG - Current transaction state - TRANSACTION_COMPLETE
2022-07-29 15:13:22,418 pymodbus.transaction - DEBUG - Running transaction 37
2022-07-29 15:13:22,418 pymodbus.transaction - DEBUG - SEND: 0x0 0x25 0x0 0x0 0x0 0x6 0x2 0x3 0x0 0x2 0x0 0x2
2022-07-29 15:13:22,418 pymodbus.client.sync - DEBUG - New Transaction state 'SENDING'
2022-07-29 15:13:22,418 pymodbus.transaction - DEBUG - Changing transaction state from 'SENDING' to 'WAITING FOR REPLY'
2022-07-29 15:13:22,447 pymodbus.transaction - DEBUG - Changing transaction state from 'WAITING FOR REPLY' to 'PROCESSING REPLY'
2022-07-29 15:13:22,447 pymodbus.transaction - DEBUG - RECV: 0x0 0x25 0x0 0x0 0x0 0x7 0x2 0x3 0x4 0x0 0x0 0x0 0x50
2022-07-29 15:13:22,448 pymodbus.framer.socket_framer - DEBUG - Processing: 0x0 0x25 0x0 0x0 0x0 0x7 0x2 0x3 0x4 0x0 0x0 0x0 0x50
2022-07-29 15:13:22,448 pymodbus.factory - DEBUG - Factory Response[ReadHoldingRegistersResponse: 3]
2022-07-29 15:13:22,448 pymodbus.transaction - DEBUG - Adding transaction 37
2022-07-29 15:13:22,448 pymodbus.transaction - DEBUG - Getting transaction 37
2022-07-29 15:13:22,448 pymodbus.transaction - DEBUG - Changing transaction state from 'PROCESSING REPLY' to 'TRANSACTION_COMPLETE'
2022-07-29 15:13:22,448 pymodbus.transaction - DEBUG - Current transaction state - TRANSACTION_COMPLETE
2022-07-29 15:13:22,448 pymodbus.transaction - DEBUG - Running transaction 38
2022-07-29 15:13:22,448 pymodbus.transaction - DEBUG - SEND: 0x0 0x26 0x0 0x0 0x0 0x6 0x2 0x3 0x0 0x4 0x0 0x2
2022-07-29 15:13:22,448 pymodbus.client.sync - DEBUG - New Transaction state 'SENDING'
2022-07-29 15:13:22,448 pymodbus.transaction - DEBUG - Changing transaction state from 'SENDING' to 'WAITING FOR REPLY'
2022-07-29 15:13:22,477 pymodbus.transaction - DEBUG - Changing transaction state from 'WAITING FOR REPLY' to 'PROCESSING REPLY'
2022-07-29 15:13:22,477 pymodbus.transaction - DEBUG - RECV: 0x0 0x26 0x0 0x0 0x0 0x7 0x2 0x3 0x4 0x0 0x0 0x0 0x0
2022-07-29 15:13:22,478 pymodbus.framer.socket_framer - DEBUG - Processing: 0x0 0x26 0x0 0x0 0x0 0x7 0x2 0x3 0x4 0x0 0x0 0x0 0x0
2022-07-29 15:13:22,478 pymodbus.factory - DEBUG - Factory Response[ReadHoldingRegistersResponse: 3]
2022-07-29 15:13:22,478 pymodbus.transaction - DEBUG - Adding transaction 38
2022-07-29 15:13:22,478 pymodbus.transaction - DEBUG - Getting transaction 38
2022-07-29 15:13:22,478 pymodbus.transaction - DEBUG - Changing transaction state from 'PROCESSING REPLY' to 'TRANSACTION_COMPLETE'
2022-07-29 15:13:22,478 pymodbus.transaction - DEBUG - Current transaction state - TRANSACTION_COMPLETE
2022-07-29 15:13:22,478 pymodbus.transaction - DEBUG - Running transaction 39
2022-07-29 15:13:22,478 pymodbus.transaction - DEBUG - SEND: 0x0 0x27 0x0 0x0 0x0 0x6 0x2 0x3 0x0 0x6 0x0 0x2
2022-07-29 15:13:22,478 pymodbus.client.sync - DEBUG - New Transaction state 'SENDING'
2022-07-29 15:13:22,479 pymodbus.transaction - DEBUG - Changing transaction state from 'SENDING' to 'WAITING FOR REPLY'
2022-07-29 15:13:22,508 pymodbus.transaction - DEBUG - Changing transaction state from 'WAITING FOR REPLY' to 'PROCESSING REPLY'
2022-07-29 15:13:22,508 pymodbus.transaction - DEBUG - RECV: 0x0 0x27 0x0 0x0 0x0 0x7 0x2 0x3 0x4 0x0 0x0 0x0 0x0
2022-07-29 15:13:22,509 pymodbus.framer.socket_framer - DEBUG - Processing: 0x0 0x27 0x0 0x0 0x0 0x7 0x2 0x3 0x4 0x0 0x0 0x0 0x0
2022-07-29 15:13:22,509 pymodbus.factory - DEBUG - Factory Response[ReadHoldingRegistersResponse: 3]
2022-07-29 15:13:22,509 pymodbus.transaction - DEBUG - Adding transaction 39
2022-07-29 15:13:22,509 pymodbus.transaction - DEBUG - Getting transaction 39
2022-07-29 15:13:22,509 pymodbus.transaction - DEBUG - Changing transaction state from 'PROCESSING REPLY' to 'TRANSACTION_COMPLETE'
2022-07-29 15:13:22,509 pymodbus.transaction - DEBUG - Current transaction state - TRANSACTION_COMPLETE
2022-07-29 15:13:22,509 pymodbus.transaction - DEBUG - Running transaction 40
2022-07-29 15:13:22,509 pymodbus.transaction - DEBUG - SEND: 0x0 0x28 0x0 0x0 0x0 0x6 0x2 0x3 0x0 0xc 0x0 0x2
2022-07-29 15:13:22,509 pymodbus.client.sync - DEBUG - New Transaction state 'SENDING'
2022-07-29 15:13:22,509 pymodbus.transaction - DEBUG - Changing transaction state from 'SENDING' to 'WAITING FOR REPLY'
2022-07-29 15:13:22,540 pymodbus.transaction - DEBUG - Changing transaction state from 'WAITING FOR REPLY' to 'PROCESSING REPLY'
2022-07-29 15:13:22,540 pymodbus.transaction - DEBUG - RECV: 0x0 0x28 0x0 0x0 0x0 0x7 0x2 0x3 0x4 0x0 0x0 0x0 0x0
2022-07-29 15:13:22,540 pymodbus.framer.socket_framer - DEBUG - Processing: 0x0 0x28 0x0 0x0 0x0 0x7 0x2 0x3 0x4 0x0 0x0 0x0 0x0
2022-07-29 15:13:22,540 pymodbus.factory - DEBUG - Factory Response[ReadHoldingRegistersResponse: 3]
2022-07-29 15:13:22,540 pymodbus.transaction - DEBUG - Adding transaction 40
2022-07-29 15:13:22,540 pymodbus.transaction - DEBUG - Getting transaction 40
2022-07-29 15:13:22,541 pymodbus.transaction - DEBUG - Changing transaction state from 'PROCESSING REPLY' to 'TRANSACTION_COMPLETE'
2022-07-29 15:13:22,541 pymodbus.transaction - DEBUG - Current transaction state - TRANSACTION_COMPLETE
2022-07-29 15:13:22,541 pymodbus.transaction - DEBUG - Running transaction 41
2022-07-29 15:13:22,541 pymodbus.transaction - DEBUG - SEND: 0x0 0x29 0x0 0x0 0x0 0x6 0x2 0x3 0x0 0xe 0x0 0x2
2022-07-29 15:13:22,541 pymodbus.client.sync - DEBUG - New Transaction state 'SENDING'
2022-07-29 15:13:22,541 pymodbus.transaction - DEBUG - Changing transaction state from 'SENDING' to 'WAITING FOR REPLY'
2022-07-29 15:13:22,571 pymodbus.transaction - DEBUG - Changing transaction state from 'WAITING FOR REPLY' to 'PROCESSING REPLY'
2022-07-29 15:13:22,571 pymodbus.transaction - DEBUG - RECV: 0x0 0x29 0x0 0x0 0x0 0x7 0x2 0x3 0x4 0x0 0x0 0x0 0x0
2022-07-29 15:13:22,571 pymodbus.framer.socket_framer - DEBUG - Processing: 0x0 0x29 0x0 0x0 0x0 0x7 0x2 0x3 0x4 0x0 0x0 0x0 0x0
2022-07-29 15:13:22,572 pymodbus.factory - DEBUG - Factory Response[ReadHoldingRegistersResponse: 3]
2022-07-29 15:13:22,572 pymodbus.transaction - DEBUG - Adding transaction 41
2022-07-29 15:13:22,572 pymodbus.transaction - DEBUG - Getting transaction 41
2022-07-29 15:13:22,572 pymodbus.transaction - DEBUG - Changing transaction state from 'PROCESSING REPLY' to 'TRANSACTION_COMPLETE'
2022-07-29 15:13:22,572 pymodbus.transaction - DEBUG - Current transaction state - TRANSACTION_COMPLETE
2022-07-29 15:13:22,572 pymodbus.transaction - DEBUG - Running transaction 42
2022-07-29 15:13:22,572 pymodbus.transaction - DEBUG - SEND: 0x0 0x2a 0x0 0x0 0x0 0x6 0x2 0x3 0x0 0x10 0x0 0x2
2022-07-29 15:13:22,573 pymodbus.client.sync - DEBUG - New Transaction state 'SENDING'
2022-07-29 15:13:22,573 pymodbus.transaction - DEBUG - Changing transaction state from 'SENDING' to 'WAITING FOR REPLY'
2022-07-29 15:13:22,602 pymodbus.transaction - DEBUG - Changing transaction state from 'WAITING FOR REPLY' to 'PROCESSING REPLY'
2022-07-29 15:13:22,602 pymodbus.transaction - DEBUG - RECV: 0x0 0x2a 0x0 0x0 0x0 0x7 0x2 0x3 0x4 0x0 0x0 0x0 0x0
2022-07-29 15:13:22,603 pymodbus.framer.socket_framer - DEBUG - Processing: 0x0 0x2a 0x0 0x0 0x0 0x7 0x2 0x3 0x4 0x0 0x0 0x0 0x0
2022-07-29 15:13:22,603 pymodbus.factory - DEBUG - Factory Response[ReadHoldingRegistersResponse: 3]
2022-07-29 15:13:22,603 pymodbus.transaction - DEBUG - Adding transaction 42
2022-07-29 15:13:22,603 pymodbus.transaction - DEBUG - Getting transaction 42
2022-07-29 15:13:22,603 pymodbus.transaction - DEBUG - Changing transaction state from 'PROCESSING REPLY' to 'TRANSACTION_COMPLETE'
2022-07-29 15:13:22,603 pymodbus.transaction - DEBUG - Current transaction state - TRANSACTION_COMPLETE
2022-07-29 15:13:22,603 pymodbus.transaction - DEBUG - Running transaction 43
2022-07-29 15:13:22,603 pymodbus.transaction - DEBUG - SEND: 0x0 0x2b 0x0 0x0 0x0 0x6 0x2 0x3 0x0 0x12 0x0 0x2
2022-07-29 15:13:22,603 pymodbus.client.sync - DEBUG - New Transaction state 'SENDING'
2022-07-29 15:13:22,604 pymodbus.transaction - DEBUG - Changing transaction state from 'SENDING' to 'WAITING FOR REPLY'
2022-07-29 15:13:22,633 pymodbus.transaction - DEBUG - Changing transaction state from 'WAITING FOR REPLY' to 'PROCESSING REPLY'
2022-07-29 15:13:22,634 pymodbus.transaction - DEBUG - RECV: 0x0 0x2b 0x0 0x0 0x0 0x7 0x2 0x3 0x4 0x0 0x0 0x0 0x0
2022-07-29 15:13:22,634 pymodbus.framer.socket_framer - DEBUG - Processing: 0x0 0x2b 0x0 0x0 0x0 0x7 0x2 0x3 0x4 0x0 0x0 0x0 0x0
2022-07-29 15:13:22,634 pymodbus.factory - DEBUG - Factory Response[ReadHoldingRegistersResponse: 3]
2022-07-29 15:13:22,634 pymodbus.transaction - DEBUG - Adding transaction 43
2022-07-29 15:13:22,634 pymodbus.transaction - DEBUG - Getting transaction 43
2022-07-29 15:13:22,634 pymodbus.transaction - DEBUG - Changing transaction state from 'PROCESSING REPLY' to 'TRANSACTION_COMPLETE'
2022-07-29 15:13:22,634 pymodbus.transaction - DEBUG - Current transaction state - TRANSACTION_COMPLETE
2022-07-29 15:13:22,634 pymodbus.transaction - DEBUG - Running transaction 44
2022-07-29 15:13:22,635 pymodbus.transaction - DEBUG - SEND: 0x0 0x2c 0x0 0x0 0x0 0x6 0x2 0x3 0x0 0x14 0x0 0x2
2022-07-29 15:13:22,635 pymodbus.client.sync - DEBUG - New Transaction state 'SENDING'
2022-07-29 15:13:22,635 pymodbus.transaction - DEBUG - Changing transaction state from 'SENDING' to 'WAITING FOR REPLY'
2022-07-29 15:13:22,665 pymodbus.transaction - DEBUG - Changing transaction state from 'WAITING FOR REPLY' to 'PROCESSING REPLY'
2022-07-29 15:13:22,665 pymodbus.transaction - DEBUG - RECV: 0x0 0x2c 0x0 0x0 0x0 0x7 0x2 0x3 0x4 0x0 0x0 0x0 0x0
2022-07-29 15:13:22,666 pymodbus.framer.socket_framer - DEBUG - Processing: 0x0 0x2c 0x0 0x0 0x0 0x7 0x2 0x3 0x4 0x0 0x0 0x0 0x0
2022-07-29 15:13:22,666 pymodbus.factory - DEBUG - Factory Response[ReadHoldingRegistersResponse: 3]
2022-07-29 15:13:22,666 pymodbus.transaction - DEBUG - Adding transaction 44
2022-07-29 15:13:22,666 pymodbus.transaction - DEBUG - Getting transaction 44
2022-07-29 15:13:22,666 pymodbus.transaction - DEBUG - Changing transaction state from 'PROCESSING REPLY' to 'TRANSACTION_COMPLETE'
2022-07-29 15:13:22,666 pymodbus.transaction - DEBUG - Current transaction state - TRANSACTION_COMPLETE
2022-07-29 15:13:22,666 pymodbus.transaction - DEBUG - Running transaction 45
2022-07-29 15:13:22,666 pymodbus.transaction - DEBUG - SEND: 0x0 0x2d 0x0 0x0 0x0 0x6 0x2 0x3 0x0 0x16 0x0 0x2
2022-07-29 15:13:22,666 pymodbus.client.sync - DEBUG - New Transaction state 'SENDING'
2022-07-29 15:13:22,667 pymodbus.transaction - DEBUG - Changing transaction state from 'SENDING' to 'WAITING FOR REPLY'
2022-07-29 15:13:22,696 pymodbus.transaction - DEBUG - Changing transaction state from 'WAITING FOR REPLY' to 'PROCESSING REPLY'
2022-07-29 15:13:22,696 pymodbus.transaction - DEBUG - RECV: 0x0 0x2d 0x0 0x0 0x0 0x7 0x2 0x3 0x4 0x0 0x0 0x0 0x2d
2022-07-29 15:13:22,697 pymodbus.framer.socket_framer - DEBUG - Processing: 0x0 0x2d 0x0 0x0 0x0 0x7 0x2 0x3 0x4 0x0 0x0 0x0 0x2d
2022-07-29 15:13:22,697 pymodbus.factory - DEBUG - Factory Response[ReadHoldingRegistersResponse: 3]
2022-07-29 15:13:22,697 pymodbus.transaction - DEBUG - Adding transaction 45
2022-07-29 15:13:22,697 pymodbus.transaction - DEBUG - Getting transaction 45
2022-07-29 15:13:22,697 pymodbus.transaction - DEBUG - Changing transaction state from 'PROCESSING REPLY' to 'TRANSACTION_COMPLETE'
2022-07-29 15:13:22,697 pymodbus.transaction - DEBUG - Current transaction state - TRANSACTION_COMPLETE
2022-07-29 15:13:22,697 pymodbus.transaction - DEBUG - Running transaction 46
2022-07-29 15:13:22,697 pymodbus.transaction - DEBUG - SEND: 0x0 0x2e 0x0 0x0 0x0 0x6 0x2 0x3 0x0 0x18 0x0 0x2
2022-07-29 15:13:22,697 pymodbus.client.sync - DEBUG - New Transaction state 'SENDING'
2022-07-29 15:13:22,698 pymodbus.transaction - DEBUG - Changing transaction state from 'SENDING' to 'WAITING FOR REPLY'
2022-07-29 15:13:22,728 pymodbus.transaction - DEBUG - Changing transaction state from 'WAITING FOR REPLY' to 'PROCESSING REPLY'
2022-07-29 15:13:22,728 pymodbus.transaction - DEBUG - RECV: 0x0 0x2e 0x0 0x0 0x0 0x7 0x2 0x3 0x4 0x0 0x0 0x0 0x0
2022-07-29 15:13:22,729 pymodbus.framer.socket_framer - DEBUG - Processing: 0x0 0x2e 0x0 0x0 0x0 0x7 0x2 0x3 0x4 0x0 0x0 0x0 0x0
2022-07-29 15:13:22,729 pymodbus.factory - DEBUG - Factory Response[ReadHoldingRegistersResponse: 3]
2022-07-29 15:13:22,729 pymodbus.transaction - DEBUG - Adding transaction 46
2022-07-29 15:13:22,729 pymodbus.transaction - DEBUG - Getting transaction 46
2022-07-29 15:13:22,729 pymodbus.transaction - DEBUG - Changing transaction state from 'PROCESSING REPLY' to 'TRANSACTION_COMPLETE'
2022-07-29 15:13:22,729 pymodbus.transaction - DEBUG - Current transaction state - TRANSACTION_COMPLETE
2022-07-29 15:13:22,729 pymodbus.transaction - DEBUG - Running transaction 47
2022-07-29 15:13:22,730 pymodbus.transaction - DEBUG - SEND: 0x0 0x2f 0x0 0x0 0x0 0x6 0x2 0x3 0x0 0x1a 0x0 0x2
2022-07-29 15:13:22,730 pymodbus.client.sync - DEBUG - New Transaction state 'SENDING'
2022-07-29 15:13:22,730 pymodbus.transaction - DEBUG - Changing transaction state from 'SENDING' to 'WAITING FOR REPLY'
2022-07-29 15:13:22,758 pymodbus.transaction - DEBUG - Changing transaction state from 'WAITING FOR REPLY' to 'PROCESSING REPLY'
2022-07-29 15:13:22,758 pymodbus.transaction - DEBUG - RECV: 0x0 0x2f 0x0 0x0 0x0 0x7 0x2 0x3 0x4 0x0 0x0 0x0 0x0
2022-07-29 15:13:22,758 pymodbus.framer.socket_framer - DEBUG - Processing: 0x0 0x2f 0x0 0x0 0x0 0x7 0x2 0x3 0x4 0x0 0x0 0x0 0x0
2022-07-29 15:13:22,758 pymodbus.factory - DEBUG - Factory Response[ReadHoldingRegistersResponse: 3]
2022-07-29 15:13:22,759 pymodbus.transaction - DEBUG - Adding transaction 47
2022-07-29 15:13:22,759 pymodbus.transaction - DEBUG - Getting transaction 47
2022-07-29 15:13:22,759 pymodbus.transaction - DEBUG - Changing transaction state from 'PROCESSING REPLY' to 'TRANSACTION_COMPLETE'
2022-07-29 15:13:22,759 pymodbus.transaction - DEBUG - Current transaction state - TRANSACTION_COMPLETE
2022-07-29 15:13:22,759 pymodbus.transaction - DEBUG - Running transaction 48
2022-07-29 15:13:22,759 pymodbus.transaction - DEBUG - SEND: 0x0 0x30 0x0 0x0 0x0 0x6 0x2 0x3 0x0 0x1c 0x0 0x2
2022-07-29 15:13:22,759 pymodbus.client.sync - DEBUG - New Transaction state 'SENDING'
2022-07-29 15:13:22,759 pymodbus.transaction - DEBUG - Changing transaction state from 'SENDING' to 'WAITING FOR REPLY'
2022-07-29 15:13:22,790 pymodbus.transaction - DEBUG - Changing transaction state from 'WAITING FOR REPLY' to 'PROCESSING REPLY'
2022-07-29 15:13:22,790 pymodbus.transaction - DEBUG - RECV: 0x0 0x30 0x0 0x0 0x0 0x7 0x2 0x3 0x4 0x0 0x0 0x0 0x0
2022-07-29 15:13:22,790 pymodbus.framer.socket_framer - DEBUG - Processing: 0x0 0x30 0x0 0x0 0x0 0x7 0x2 0x3 0x4 0x0 0x0 0x0 0x0
2022-07-29 15:13:22,790 pymodbus.factory - DEBUG - Factory Response[ReadHoldingRegistersResponse: 3]
2022-07-29 15:13:22,790 pymodbus.transaction - DEBUG - Adding transaction 48
2022-07-29 15:13:22,790 pymodbus.transaction - DEBUG - Getting transaction 48
2022-07-29 15:13:22,791 pymodbus.transaction - DEBUG - Changing transaction state from 'PROCESSING REPLY' to 'TRANSACTION_COMPLETE'
2022-07-29 15:13:22,791 pymodbus.transaction - DEBUG - Current transaction state - TRANSACTION_COMPLETE
2022-07-29 15:13:22,791 pymodbus.transaction - DEBUG - Running transaction 49
2022-07-29 15:13:22,791 pymodbus.transaction - DEBUG - SEND: 0x0 0x31 0x0 0x0 0x0 0x6 0x2 0x3 0x0 0x1e 0x0 0x2
2022-07-29 15:13:22,791 pymodbus.client.sync - DEBUG - New Transaction state 'SENDING'
2022-07-29 15:13:22,791 pymodbus.transaction - DEBUG - Changing transaction state from 'SENDING' to 'WAITING FOR REPLY'
2022-07-29 15:13:22,822 pymodbus.transaction - DEBUG - Changing transaction state from 'WAITING FOR REPLY' to 'PROCESSING REPLY'
2022-07-29 15:13:22,822 pymodbus.transaction - DEBUG - RECV: 0x0 0x31 0x0 0x0 0x0 0x7 0x2 0x3 0x4 0x0 0x0 0x0 0x0
2022-07-29 15:13:22,823 pymodbus.framer.socket_framer - DEBUG - Processing: 0x0 0x31 0x0 0x0 0x0 0x7 0x2 0x3 0x4 0x0 0x0 0x0 0x0
2022-07-29 15:13:22,823 pymodbus.factory - DEBUG - Factory Response[ReadHoldingRegistersResponse: 3]
2022-07-29 15:13:22,823 pymodbus.transaction - DEBUG - Adding transaction 49
2022-07-29 15:13:22,823 pymodbus.transaction - DEBUG - Getting transaction 49
2022-07-29 15:13:22,823 pymodbus.transaction - DEBUG - Changing transaction state from 'PROCESSING REPLY' to 'TRANSACTION_COMPLETE'
2022-07-29 15:13:22,824 pymodbus.transaction - DEBUG - Current transaction state - TRANSACTION_COMPLETE
2022-07-29 15:13:22,824 pymodbus.transaction - DEBUG - Running transaction 50
2022-07-29 15:13:22,824 pymodbus.transaction - DEBUG - SEND: 0x0 0x32 0x0 0x0 0x0 0x6 0x2 0x3 0x0 0x20 0x0 0x2
2022-07-29 15:13:22,824 pymodbus.client.sync - DEBUG - New Transaction state 'SENDING'
2022-07-29 15:13:22,824 pymodbus.transaction - DEBUG - Changing transaction state from 'SENDING' to 'WAITING FOR REPLY'
2022-07-29 15:13:22,853 pymodbus.transaction - DEBUG - Changing transaction state from 'WAITING FOR REPLY' to 'PROCESSING REPLY'
2022-07-29 15:13:22,854 pymodbus.transaction - DEBUG - RECV: 0x0 0x32 0x0 0x0 0x0 0x7 0x2 0x3 0x4 0x0 0x0 0x0 0x0
2022-07-29 15:13:22,854 pymodbus.framer.socket_framer - DEBUG - Processing: 0x0 0x32 0x0 0x0 0x0 0x7 0x2 0x3 0x4 0x0 0x0 0x0 0x0
2022-07-29 15:13:22,854 pymodbus.factory - DEBUG - Factory Response[ReadHoldingRegistersResponse: 3]
2022-07-29 15:13:22,854 pymodbus.transaction - DEBUG - Adding transaction 50
2022-07-29 15:13:22,854 pymodbus.transaction - DEBUG - Getting transaction 50
2022-07-29 15:13:22,854 pymodbus.transaction - DEBUG - Changing transaction state from 'PROCESSING REPLY' to 'TRANSACTION_COMPLETE'
2022-07-29 15:13:22,854 pymodbus.transaction - DEBUG - Current transaction state - TRANSACTION_COMPLETE
2022-07-29 15:13:22,854 pymodbus.transaction - DEBUG - Running transaction 51
2022-07-29 15:13:22,855 pymodbus.transaction - DEBUG - SEND: 0x0 0x33 0x0 0x0 0x0 0x6 0x2 0x3 0x0 0x22 0x0 0x2
2022-07-29 15:13:22,855 pymodbus.client.sync - DEBUG - New Transaction state 'SENDING'
2022-07-29 15:13:22,855 pymodbus.transaction - DEBUG - Changing transaction state from 'SENDING' to 'WAITING FOR REPLY'
2022-07-29 15:13:22,884 pymodbus.transaction - DEBUG - Changing transaction state from 'WAITING FOR REPLY' to 'PROCESSING REPLY'
2022-07-29 15:13:22,884 pymodbus.transaction - DEBUG - RECV: 0x0 0x33 0x0 0x0 0x0 0x7 0x2 0x3 0x4 0x0 0x0 0x0 0x0
2022-07-29 15:13:22,884 pymodbus.framer.socket_framer - DEBUG - Processing: 0x0 0x33 0x0 0x0 0x0 0x7 0x2 0x3 0x4 0x0 0x0 0x0 0x0
2022-07-29 15:13:22,885 pymodbus.factory - DEBUG - Factory Response[ReadHoldingRegistersResponse: 3]
2022-07-29 15:13:22,885 pymodbus.transaction - DEBUG - Adding transaction 51
2022-07-29 15:13:22,885 pymodbus.transaction - DEBUG - Getting transaction 51
2022-07-29 15:13:22,885 pymodbus.transaction - DEBUG - Changing transaction state from 'PROCESSING REPLY' to 'TRANSACTION_COMPLETE'
2022-07-29 15:13:22,885 pymodbus.transaction - DEBUG - Current transaction state - TRANSACTION_COMPLETE
2022-07-29 15:13:22,885 pymodbus.transaction - DEBUG - Running transaction 52
2022-07-29 15:13:22,885 pymodbus.transaction - DEBUG - SEND: 0x0 0x34 0x0 0x0 0x0 0x6 0x2 0x3 0x0 0x24 0x0 0x2
2022-07-29 15:13:22,885 pymodbus.client.sync - DEBUG - New Transaction state 'SENDING'
2022-07-29 15:13:22,885 pymodbus.transaction - DEBUG - Changing transaction state from 'SENDING' to 'WAITING FOR REPLY'
2022-07-29 15:13:22,916 pymodbus.transaction - DEBUG - Changing transaction state from 'WAITING FOR REPLY' to 'PROCESSING REPLY'
2022-07-29 15:13:22,917 pymodbus.transaction - DEBUG - RECV: 0x0 0x34 0x0 0x0 0x0 0x7 0x2 0x3 0x4 0x0 0x0 0x0 0x0
2022-07-29 15:13:22,917 pymodbus.framer.socket_framer - DEBUG - Processing: 0x0 0x34 0x0 0x0 0x0 0x7 0x2 0x3 0x4 0x0 0x0 0x0 0x0
2022-07-29 15:13:22,917 pymodbus.factory - DEBUG - Factory Response[ReadHoldingRegistersResponse: 3]
2022-07-29 15:13:22,917 pymodbus.transaction - DEBUG - Adding transaction 52
2022-07-29 15:13:22,917 pymodbus.transaction - DEBUG - Getting transaction 52
2022-07-29 15:13:22,917 pymodbus.transaction - DEBUG - Changing transaction state from 'PROCESSING REPLY' to 'TRANSACTION_COMPLETE'
2022-07-29 15:13:22,918 pymodbus.transaction - DEBUG - Current transaction state - TRANSACTION_COMPLETE
2022-07-29 15:13:22,918 pymodbus.transaction - DEBUG - Running transaction 53
2022-07-29 15:13:22,918 pymodbus.transaction - DEBUG - SEND: 0x0 0x35 0x0 0x0 0x0 0x6 0x2 0x3 0x0 0x26 0x0 0x2
2022-07-29 15:13:22,918 pymodbus.client.sync - DEBUG - New Transaction state 'SENDING'
2022-07-29 15:13:22,918 pymodbus.transaction - DEBUG - Changing transaction state from 'SENDING' to 'WAITING FOR REPLY'
2022-07-29 15:13:22,947 pymodbus.transaction - DEBUG - Changing transaction state from 'WAITING FOR REPLY' to 'PROCESSING REPLY'
2022-07-29 15:13:22,947 pymodbus.transaction - DEBUG - RECV: 0x0 0x35 0x0 0x0 0x0 0x7 0x2 0x3 0x4 0x0 0x0 0x0 0x0
2022-07-29 15:13:22,947 pymodbus.framer.socket_framer - DEBUG - Processing: 0x0 0x35 0x0 0x0 0x0 0x7 0x2 0x3 0x4 0x0 0x0 0x0 0x0
2022-07-29 15:13:22,948 pymodbus.factory - DEBUG - Factory Response[ReadHoldingRegistersResponse: 3]
2022-07-29 15:13:22,948 pymodbus.transaction - DEBUG - Adding transaction 53
2022-07-29 15:13:22,948 pymodbus.transaction - DEBUG - Getting transaction 53
2022-07-29 15:13:22,948 pymodbus.transaction - DEBUG - Changing transaction state from 'PROCESSING REPLY' to 'TRANSACTION_COMPLETE'
2022-07-29 15:13:22,948 pymodbus.transaction - DEBUG - Current transaction state - TRANSACTION_COMPLETE
2022-07-29 15:13:22,948 pymodbus.transaction - DEBUG - Running transaction 54
2022-07-29 15:13:22,948 pymodbus.transaction - DEBUG - SEND: 0x0 0x36 0x0 0x0 0x0 0x6 0x2 0x3 0x0 0x28 0x0 0x2
2022-07-29 15:13:22,948 pymodbus.client.sync - DEBUG - New Transaction state 'SENDING'
2022-07-29 15:13:22,949 pymodbus.transaction - DEBUG - Changing transaction state from 'SENDING' to 'WAITING FOR REPLY'
2022-07-29 15:13:22,977 pymodbus.transaction - DEBUG - Changing transaction state from 'WAITING FOR REPLY' to 'PROCESSING REPLY'
2022-07-29 15:13:22,977 pymodbus.transaction - DEBUG - RECV: 0x0 0x36 0x0 0x0 0x0 0x7 0x2 0x3 0x4 0x0 0x0 0x0 0x0
2022-07-29 15:13:22,978 pymodbus.framer.socket_framer - DEBUG - Processing: 0x0 0x36 0x0 0x0 0x0 0x7 0x2 0x3 0x4 0x0 0x0 0x0 0x0
2022-07-29 15:13:22,978 pymodbus.factory - DEBUG - Factory Response[ReadHoldingRegistersResponse: 3]
2022-07-29 15:13:22,978 pymodbus.transaction - DEBUG - Adding transaction 54
2022-07-29 15:13:22,978 pymodbus.transaction - DEBUG - Getting transaction 54
2022-07-29 15:13:22,978 pymodbus.transaction - DEBUG - Changing transaction state from 'PROCESSING REPLY' to 'TRANSACTION_COMPLETE'
2022-07-29 15:13:22,978 pymodbus.transaction - DEBUG - Current transaction state - TRANSACTION_COMPLETE
2022-07-29 15:13:22,978 pymodbus.transaction - DEBUG - Running transaction 55
2022-07-29 15:13:22,979 pymodbus.transaction - DEBUG - SEND: 0x0 0x37 0x0 0x0 0x0 0x6 0x2 0x3 0x0 0x2a 0x0 0x2
2022-07-29 15:13:22,979 pymodbus.client.sync - DEBUG - New Transaction state 'SENDING'
2022-07-29 15:13:22,979 pymodbus.transaction - DEBUG - Changing transaction state from 'SENDING' to 'WAITING FOR REPLY'
2022-07-29 15:13:23,009 pymodbus.transaction - DEBUG - Changing transaction state from 'WAITING FOR REPLY' to 'PROCESSING REPLY'
2022-07-29 15:13:23,010 pymodbus.transaction - DEBUG - RECV: 0x0 0x37 0x0 0x0 0x0 0x7 0x2 0x3 0x4 0x0 0x0 0x0 0x0
2022-07-29 15:13:23,010 pymodbus.framer.socket_framer - DEBUG - Processing: 0x0 0x37 0x0 0x0 0x0 0x7 0x2 0x3 0x4 0x0 0x0 0x0 0x0
2022-07-29 15:13:23,010 pymodbus.factory - DEBUG - Factory Response[ReadHoldingRegistersResponse: 3]
2022-07-29 15:13:23,010 pymodbus.transaction - DEBUG - Adding transaction 55
2022-07-29 15:13:23,011 pymodbus.transaction - DEBUG - Getting transaction 55
2022-07-29 15:13:23,011 pymodbus.transaction - DEBUG - Changing transaction state from 'PROCESSING REPLY' to 'TRANSACTION_COMPLETE'
2022-07-29 15:13:23,011 pymodbus.transaction - DEBUG - Current transaction state - TRANSACTION_COMPLETE
2022-07-29 15:13:23,011 pymodbus.transaction - DEBUG - Running transaction 56
2022-07-29 15:13:23,011 pymodbus.transaction - DEBUG - SEND: 0x0 0x38 0x0 0x0 0x0 0x6 0x2 0x3 0x0 0x2c 0x0 0x2
2022-07-29 15:13:23,011 pymodbus.client.sync - DEBUG - New Transaction state 'SENDING'
2022-07-29 15:13:23,011 pymodbus.transaction - DEBUG - Changing transaction state from 'SENDING' to 'WAITING FOR REPLY'
2022-07-29 15:13:23,040 pymodbus.transaction - DEBUG - Changing transaction state from 'WAITING FOR REPLY' to 'PROCESSING REPLY'
2022-07-29 15:13:23,040 pymodbus.transaction - DEBUG - RECV: 0x0 0x38 0x0 0x0 0x0 0x7 0x2 0x3 0x4 0x0 0x0 0x0 0x0
2022-07-29 15:13:23,041 pymodbus.framer.socket_framer - DEBUG - Processing: 0x0 0x38 0x0 0x0 0x0 0x7 0x2 0x3 0x4 0x0 0x0 0x0 0x0
2022-07-29 15:13:23,041 pymodbus.factory - DEBUG - Factory Response[ReadHoldingRegistersResponse: 3]
2022-07-29 15:13:23,041 pymodbus.transaction - DEBUG - Adding transaction 56
2022-07-29 15:13:23,041 pymodbus.transaction - DEBUG - Getting transaction 56
2022-07-29 15:13:23,041 pymodbus.transaction - DEBUG - Changing transaction state from 'PROCESSING REPLY' to 'TRANSACTION_COMPLETE'
2022-07-29 15:13:23,041 pymodbus.transaction - DEBUG - Current transaction state - TRANSACTION_COMPLETE
2022-07-29 15:13:23,041 pymodbus.transaction - DEBUG - Running transaction 57
2022-07-29 15:13:23,041 pymodbus.transaction - DEBUG - SEND: 0x0 0x39 0x0 0x0 0x0 0x6 0x2 0x3 0x0 0x2e 0x0 0x2
2022-07-29 15:13:23,042 pymodbus.client.sync - DEBUG - New Transaction state 'SENDING'
2022-07-29 15:13:23,042 pymodbus.transaction - DEBUG - Changing transaction state from 'SENDING' to 'WAITING FOR REPLY'
2022-07-29 15:13:23,071 pymodbus.transaction - DEBUG - Changing transaction state from 'WAITING FOR REPLY' to 'PROCESSING REPLY'
2022-07-29 15:13:23,072 pymodbus.transaction - DEBUG - RECV: 0x0 0x39 0x0 0x0 0x0 0x7 0x2 0x3 0x4 0x0 0x0 0x0 0x0
2022-07-29 15:13:23,072 pymodbus.framer.socket_framer - DEBUG - Processing: 0x0 0x39 0x0 0x0 0x0 0x7 0x2 0x3 0x4 0x0 0x0 0x0 0x0
2022-07-29 15:13:23,072 pymodbus.factory - DEBUG - Factory Response[ReadHoldingRegistersResponse: 3]
2022-07-29 15:13:23,072 pymodbus.transaction - DEBUG - Adding transaction 57
2022-07-29 15:13:23,072 pymodbus.transaction - DEBUG - Getting transaction 57
2022-07-29 15:13:23,072 pymodbus.transaction - DEBUG - Changing transaction state from 'PROCESSING REPLY' to 'TRANSACTION_COMPLETE'
2022-07-29 15:13:23,072 pymodbus.transaction - DEBUG - Current transaction state - TRANSACTION_COMPLETE
2022-07-29 15:13:23,073 pymodbus.transaction - DEBUG - Running transaction 58
2022-07-29 15:13:23,073 pymodbus.transaction - DEBUG - SEND: 0x0 0x3a 0x0 0x0 0x0 0x6 0x2 0x3 0x0 0x30 0x0 0x2
2022-07-29 15:13:23,073 pymodbus.client.sync - DEBUG - New Transaction state 'SENDING'
2022-07-29 15:13:23,073 pymodbus.transaction - DEBUG - Changing transaction state from 'SENDING' to 'WAITING FOR REPLY'
2022-07-29 15:13:23,104 pymodbus.transaction - DEBUG - Changing transaction state from 'WAITING FOR REPLY' to 'PROCESSING REPLY'
2022-07-29 15:13:23,104 pymodbus.transaction - DEBUG - RECV: 0x0 0x3a 0x0 0x0 0x0 0x7 0x2 0x3 0x4 0x0 0x0 0x0 0x0
2022-07-29 15:13:23,104 pymodbus.framer.socket_framer - DEBUG - Processing: 0x0 0x3a 0x0 0x0 0x0 0x7 0x2 0x3 0x4 0x0 0x0 0x0 0x0
2022-07-29 15:13:23,104 pymodbus.factory - DEBUG - Factory Response[ReadHoldingRegistersResponse: 3]
2022-07-29 15:13:23,104 pymodbus.transaction - DEBUG - Adding transaction 58
2022-07-29 15:13:23,105 pymodbus.transaction - DEBUG - Getting transaction 58
2022-07-29 15:13:23,105 pymodbus.transaction - DEBUG - Changing transaction state from 'PROCESSING REPLY' to 'TRANSACTION_COMPLETE'
2022-07-29 15:13:23,105 pymodbus.transaction - DEBUG - Current transaction state - TRANSACTION_COMPLETE
2022-07-29 15:13:23,105 pymodbus.transaction - DEBUG - Running transaction 59
2022-07-29 15:13:23,105 pymodbus.transaction - DEBUG - SEND: 0x0 0x3b 0x0 0x0 0x0 0x6 0x2 0x3 0x0 0x32 0x0 0x2
2022-07-29 15:13:23,105 pymodbus.client.sync - DEBUG - New Transaction state 'SENDING'
2022-07-29 15:13:23,105 pymodbus.transaction - DEBUG - Changing transaction state from 'SENDING' to 'WAITING FOR REPLY'
2022-07-29 15:13:23,135 pymodbus.transaction - DEBUG - Changing transaction state from 'WAITING FOR REPLY' to 'PROCESSING REPLY'
2022-07-29 15:13:23,135 pymodbus.transaction - DEBUG - RECV: 0x0 0x3b 0x0 0x0 0x0 0x7 0x2 0x3 0x4 0x0 0x0 0x0 0x0
2022-07-29 15:13:23,135 pymodbus.framer.socket_framer - DEBUG - Processing: 0x0 0x3b 0x0 0x0 0x0 0x7 0x2 0x3 0x4 0x0 0x0 0x0 0x0
2022-07-29 15:13:23,135 pymodbus.factory - DEBUG - Factory Response[ReadHoldingRegistersResponse: 3]
2022-07-29 15:13:23,135 pymodbus.transaction - DEBUG - Adding transaction 59
2022-07-29 15:13:23,136 pymodbus.transaction - DEBUG - Getting transaction 59
2022-07-29 15:13:23,136 pymodbus.transaction - DEBUG - Changing transaction state from 'PROCESSING REPLY' to 'TRANSACTION_COMPLETE'
2022-07-29 15:13:23,136 pymodbus.transaction - DEBUG - Current transaction state - TRANSACTION_COMPLETE
2022-07-29 15:13:23,136 pymodbus.transaction - DEBUG - Running transaction 60
2022-07-29 15:13:23,136 pymodbus.transaction - DEBUG - SEND: 0x0 0x3c 0x0 0x0 0x0 0x6 0x2 0x3 0x0 0x34 0x0 0x2
2022-07-29 15:13:23,136 pymodbus.client.sync - DEBUG - New Transaction state 'SENDING'
2022-07-29 15:13:23,136 pymodbus.transaction - DEBUG - Changing transaction state from 'SENDING' to 'WAITING FOR REPLY'
2022-07-29 15:13:23,165 pymodbus.transaction - DEBUG - Changing transaction state from 'WAITING FOR REPLY' to 'PROCESSING REPLY'
2022-07-29 15:13:23,165 pymodbus.transaction - DEBUG - RECV: 0x0 0x3c 0x0 0x0 0x0 0x7 0x2 0x3 0x4 0x0 0x0 0x0 0x0
2022-07-29 15:13:23,166 pymodbus.framer.socket_framer - DEBUG - Processing: 0x0 0x3c 0x0 0x0 0x0 0x7 0x2 0x3 0x4 0x0 0x0 0x0 0x0
2022-07-29 15:13:23,166 pymodbus.factory - DEBUG - Factory Response[ReadHoldingRegistersResponse: 3]
2022-07-29 15:13:23,166 pymodbus.transaction - DEBUG - Adding transaction 60
2022-07-29 15:13:23,166 pymodbus.transaction - DEBUG - Getting transaction 60
2022-07-29 15:13:23,166 pymodbus.transaction - DEBUG - Changing transaction state from 'PROCESSING REPLY' to 'TRANSACTION_COMPLETE'
2022-07-29 15:13:23,166 pymodbus.transaction - DEBUG - Current transaction state - TRANSACTION_COMPLETE
2022-07-29 15:13:23,166 pymodbus.transaction - DEBUG - Running transaction 61
2022-07-29 15:13:23,166 pymodbus.transaction - DEBUG - SEND: 0x0 0x3d 0x0 0x0 0x0 0x6 0x2 0x3 0x0 0x36 0x0 0x2
2022-07-29 15:13:23,167 pymodbus.client.sync - DEBUG - New Transaction state 'SENDING'
2022-07-29 15:13:23,167 pymodbus.transaction - DEBUG - Changing transaction state from 'SENDING' to 'WAITING FOR REPLY'
2022-07-29 15:13:23,197 pymodbus.transaction - DEBUG - Changing transaction state from 'WAITING FOR REPLY' to 'PROCESSING REPLY'
2022-07-29 15:13:23,197 pymodbus.transaction - DEBUG - RECV: 0x0 0x3d 0x0 0x0 0x0 0x7 0x2 0x3 0x4 0x0 0x0 0x0 0x0
2022-07-29 15:13:23,197 pymodbus.framer.socket_framer - DEBUG - Processing: 0x0 0x3d 0x0 0x0 0x0 0x7 0x2 0x3 0x4 0x0 0x0 0x0 0x0
2022-07-29 15:13:23,197 pymodbus.factory - DEBUG - Factory Response[ReadHoldingRegistersResponse: 3]
2022-07-29 15:13:23,198 pymodbus.transaction - DEBUG - Adding transaction 61
2022-07-29 15:13:23,198 pymodbus.transaction - DEBUG - Getting transaction 61
2022-07-29 15:13:23,198 pymodbus.transaction - DEBUG - Changing transaction state from 'PROCESSING REPLY' to 'TRANSACTION_COMPLETE'
2022-07-29 15:13:23,198 pymodbus.transaction - DEBUG - Current transaction state - TRANSACTION_COMPLETE
2022-07-29 15:13:23,198 pymodbus.transaction - DEBUG - Running transaction 62
2022-07-29 15:13:23,198 pymodbus.transaction - DEBUG - SEND: 0x0 0x3e 0x0 0x0 0x0 0x6 0x2 0x3 0x0 0x38 0x0 0x2
2022-07-29 15:13:23,198 pymodbus.client.sync - DEBUG - New Transaction state 'SENDING'
2022-07-29 15:13:23,198 pymodbus.transaction - DEBUG - Changing transaction state from 'SENDING' to 'WAITING FOR REPLY'
2022-07-29 15:13:23,227 pymodbus.transaction - DEBUG - Changing transaction state from 'WAITING FOR REPLY' to 'PROCESSING REPLY'
2022-07-29 15:13:23,228 pymodbus.transaction - DEBUG - RECV: 0x0 0x3e 0x0 0x0 0x0 0x7 0x2 0x3 0x4 0x0 0x0 0x0 0x0
2022-07-29 15:13:23,228 pymodbus.framer.socket_framer - DEBUG - Processing: 0x0 0x3e 0x0 0x0 0x0 0x7 0x2 0x3 0x4 0x0 0x0 0x0 0x0
2022-07-29 15:13:23,228 pymodbus.factory - DEBUG - Factory Response[ReadHoldingRegistersResponse: 3]
2022-07-29 15:13:23,228 pymodbus.transaction - DEBUG - Adding transaction 62
2022-07-29 15:13:23,228 pymodbus.transaction - DEBUG - Getting transaction 62
2022-07-29 15:13:23,228 pymodbus.transaction - DEBUG - Changing transaction state from 'PROCESSING REPLY' to 'TRANSACTION_COMPLETE'
2022-07-29 15:13:23,228 pymodbus.transaction - DEBUG - Current transaction state - TRANSACTION_COMPLETE
2022-07-29 15:13:23,228 pymodbus.transaction - DEBUG - Running transaction 63
2022-07-29 15:13:23,229 pymodbus.transaction - DEBUG - SEND: 0x0 0x3f 0x0 0x0 0x0 0x6 0x2 0x3 0x0 0x3a 0x0 0x2
2022-07-29 15:13:23,229 pymodbus.client.sync - DEBUG - New Transaction state 'SENDING'
2022-07-29 15:13:23,229 pymodbus.transaction - DEBUG - Changing transaction state from 'SENDING' to 'WAITING FOR REPLY'
2022-07-29 15:13:23,259 pymodbus.transaction - DEBUG - Changing transaction state from 'WAITING FOR REPLY' to 'PROCESSING REPLY'
2022-07-29 15:13:23,259 pymodbus.transaction - DEBUG - RECV: 0x0 0x3f 0x0 0x0 0x0 0x7 0x2 0x3 0x4 0x0 0x0 0x0 0x0
2022-07-29 15:13:23,260 pymodbus.framer.socket_framer - DEBUG - Processing: 0x0 0x3f 0x0 0x0 0x0 0x7 0x2 0x3 0x4 0x0 0x0 0x0 0x0
2022-07-29 15:13:23,260 pymodbus.factory - DEBUG - Factory Response[ReadHoldingRegistersResponse: 3]
2022-07-29 15:13:23,260 pymodbus.transaction - DEBUG - Adding transaction 63
2022-07-29 15:13:23,260 pymodbus.transaction - DEBUG - Getting transaction 63
2022-07-29 15:13:23,260 pymodbus.transaction - DEBUG - Changing transaction state from 'PROCESSING REPLY' to 'TRANSACTION_COMPLETE'
2022-07-29 15:13:23,260 pymodbus.transaction - DEBUG - Current transaction state - TRANSACTION_COMPLETE
2022-07-29 15:13:23,260 pymodbus.transaction - DEBUG - Running transaction 64
2022-07-29 15:13:23,260 pymodbus.transaction - DEBUG - SEND: 0x0 0x40 0x0 0x0 0x0 0x6 0x2 0x3 0x0 0x3c 0x0 0x2
2022-07-29 15:13:23,260 pymodbus.client.sync - DEBUG - New Transaction state 'SENDING'
2022-07-29 15:13:23,261 pymodbus.transaction - DEBUG - Changing transaction state from 'SENDING' to 'WAITING FOR REPLY'
2022-07-29 15:13:23,290 pymodbus.transaction - DEBUG - Changing transaction state from 'WAITING FOR REPLY' to 'PROCESSING REPLY'
2022-07-29 15:13:23,290 pymodbus.transaction - DEBUG - RECV: 0x0 0x40 0x0 0x0 0x0 0x7 0x2 0x3 0x4 0x0 0x0 0x0 0x0
2022-07-29 15:13:23,290 pymodbus.framer.socket_framer - DEBUG - Processing: 0x0 0x40 0x0 0x0 0x0 0x7 0x2 0x3 0x4 0x0 0x0 0x0 0x0
2022-07-29 15:13:23,290 pymodbus.factory - DEBUG - Factory Response[ReadHoldingRegistersResponse: 3]
2022-07-29 15:13:23,290 pymodbus.transaction - DEBUG - Adding transaction 64
2022-07-29 15:13:23,291 pymodbus.transaction - DEBUG - Getting transaction 64
2022-07-29 15:13:23,291 pymodbus.transaction - DEBUG - Changing transaction state from 'PROCESSING REPLY' to 'TRANSACTION_COMPLETE'
2022-07-29 15:13:23,291 pymodbus.transaction - DEBUG - Current transaction state - TRANSACTION_COMPLETE
2022-07-29 15:13:23,291 pymodbus.transaction - DEBUG - Running transaction 65
2022-07-29 15:13:23,291 pymodbus.transaction - DEBUG - SEND: 0x0 0x41 0x0 0x0 0x0 0x6 0x2 0x3 0x0 0x40 0x0 0x2
2022-07-29 15:13:23,291 pymodbus.client.sync - DEBUG - New Transaction state 'SENDING'
2022-07-29 15:13:23,291 pymodbus.transaction - DEBUG - Changing transaction state from 'SENDING' to 'WAITING FOR REPLY'
2022-07-29 15:13:23,322 pymodbus.transaction - DEBUG - Changing transaction state from 'WAITING FOR REPLY' to 'PROCESSING REPLY'
2022-07-29 15:13:23,322 pymodbus.transaction - DEBUG - RECV: 0x0 0x41 0x0 0x0 0x0 0x7 0x2 0x3 0x4 0x0 0x0 0x0 0x0
2022-07-29 15:13:23,323 pymodbus.framer.socket_framer - DEBUG - Processing: 0x0 0x41 0x0 0x0 0x0 0x7 0x2 0x3 0x4 0x0 0x0 0x0 0x0
2022-07-29 15:13:23,323 pymodbus.factory - DEBUG - Factory Response[ReadHoldingRegistersResponse: 3]
2022-07-29 15:13:23,323 pymodbus.transaction - DEBUG - Adding transaction 65
2022-07-29 15:13:23,323 pymodbus.transaction - DEBUG - Getting transaction 65
2022-07-29 15:13:23,323 pymodbus.transaction - DEBUG - Changing transaction state from 'PROCESSING REPLY' to 'TRANSACTION_COMPLETE'
2022-07-29 15:13:23,323 pymodbus.transaction - DEBUG - Current transaction state - TRANSACTION_COMPLETE
2022-07-29 15:13:23,323 pymodbus.transaction - DEBUG - Running transaction 66
2022-07-29 15:13:23,324 pymodbus.transaction - DEBUG - SEND: 0x0 0x42 0x0 0x0 0x0 0x6 0x2 0x3 0x0 0x3e 0x0 0x2
2022-07-29 15:13:23,324 pymodbus.client.sync - DEBUG - New Transaction state 'SENDING'
2022-07-29 15:13:23,324 pymodbus.transaction - DEBUG - Changing transaction state from 'SENDING' to 'WAITING FOR REPLY'
2022-07-29 15:13:23,354 pymodbus.transaction - DEBUG - Changing transaction state from 'WAITING FOR REPLY' to 'PROCESSING REPLY'
2022-07-29 15:13:23,354 pymodbus.transaction - DEBUG - RECV: 0x0 0x42 0x0 0x0 0x0 0x7 0x2 0x3 0x4 0x0 0x0 0x0 0x0
2022-07-29 15:13:23,355 pymodbus.framer.socket_framer - DEBUG - Processing: 0x0 0x42 0x0 0x0 0x0 0x7 0x2 0x3 0x4 0x0 0x0 0x0 0x0
2022-07-29 15:13:23,355 pymodbus.factory - DEBUG - Factory Response[ReadHoldingRegistersResponse: 3]
2022-07-29 15:13:23,355 pymodbus.transaction - DEBUG - Adding transaction 66
2022-07-29 15:13:23,355 pymodbus.transaction - DEBUG - Getting transaction 66
2022-07-29 15:13:23,355 pymodbus.transaction - DEBUG - Changing transaction state from 'PROCESSING REPLY' to 'TRANSACTION_COMPLETE'
2022-07-29 15:13:23,355 pymodbus.transaction - DEBUG - Current transaction state - TRANSACTION_COMPLETE
2022-07-29 15:13:23,355 pymodbus.transaction - DEBUG - Running transaction 67
2022-07-29 15:13:23,355 pymodbus.transaction - DEBUG - SEND: 0x0 0x43 0x0 0x0 0x0 0x6 0x2 0x3 0x0 0x66 0x0 0x2
2022-07-29 15:13:23,355 pymodbus.client.sync - DEBUG - New Transaction state 'SENDING'
2022-07-29 15:13:23,355 pymodbus.transaction - DEBUG - Changing transaction state from 'SENDING' to 'WAITING FOR REPLY'
2022-07-29 15:13:23,385 pymodbus.transaction - DEBUG - Changing transaction state from 'WAITING FOR REPLY' to 'PROCESSING REPLY'
2022-07-29 15:13:23,385 pymodbus.transaction - DEBUG - RECV: 0x0 0x43 0x0 0x0 0x0 0x7 0x2 0x3 0x4 0x0 0x0 0x0 0x0
2022-07-29 15:13:23,386 pymodbus.framer.socket_framer - DEBUG - Processing: 0x0 0x43 0x0 0x0 0x0 0x7 0x2 0x3 0x4 0x0 0x0 0x0 0x0
2022-07-29 15:13:23,386 pymodbus.factory - DEBUG - Factory Response[ReadHoldingRegistersResponse: 3]
2022-07-29 15:13:23,386 pymodbus.transaction - DEBUG - Adding transaction 67
2022-07-29 15:13:23,386 pymodbus.transaction - DEBUG - Getting transaction 67
2022-07-29 15:13:23,386 pymodbus.transaction - DEBUG - Changing transaction state from 'PROCESSING REPLY' to 'TRANSACTION_COMPLETE'
2022-07-29 15:13:23,386 pymodbus.transaction - DEBUG - Current transaction state - TRANSACTION_COMPLETE
2022-07-29 15:13:23,386 pymodbus.transaction - DEBUG - Running transaction 68
2022-07-29 15:13:23,387 pymodbus.transaction - DEBUG - SEND: 0x0 0x44 0x0 0x0 0x0 0x6 0x2 0x3 0x0 0x68 0x0 0x2
2022-07-29 15:13:23,387 pymodbus.client.sync - DEBUG - New Transaction state 'SENDING'
2022-07-29 15:13:23,387 pymodbus.transaction - DEBUG - Changing transaction state from 'SENDING' to 'WAITING FOR REPLY'
2022-07-29 15:13:23,416 pymodbus.transaction - DEBUG - Changing transaction state from 'WAITING FOR REPLY' to 'PROCESSING REPLY'
2022-07-29 15:13:23,416 pymodbus.transaction - DEBUG - RECV: 0x0 0x44 0x0 0x0 0x0 0x7 0x2 0x3 0x4 0x0 0x0 0x0 0x2
2022-07-29 15:13:23,416 pymodbus.framer.socket_framer - DEBUG - Processing: 0x0 0x44 0x0 0x0 0x0 0x7 0x2 0x3 0x4 0x0 0x0 0x0 0x2
2022-07-29 15:13:23,416 pymodbus.factory - DEBUG - Factory Response[ReadHoldingRegistersResponse: 3]
2022-07-29 15:13:23,416 pymodbus.transaction - DEBUG - Adding transaction 68
2022-07-29 15:13:23,416 pymodbus.transaction - DEBUG - Getting transaction 68
2022-07-29 15:13:23,416 pymodbus.transaction - DEBUG - Changing transaction state from 'PROCESSING REPLY' to 'TRANSACTION_COMPLETE'
2022-07-29 15:13:23,416 pymodbus.transaction - DEBUG - Current transaction state - TRANSACTION_COMPLETE
2022-07-29 15:13:23,416 pymodbus.transaction - DEBUG - Running transaction 69
2022-07-29 15:13:23,416 pymodbus.transaction - DEBUG - SEND: 0x0 0x45 0x0 0x0 0x0 0x6 0x2 0x3 0x0 0x6e 0x0 0x2
2022-07-29 15:13:23,417 pymodbus.client.sync - DEBUG - New Transaction state 'SENDING'
2022-07-29 15:13:23,417 pymodbus.transaction - DEBUG - Changing transaction state from 'SENDING' to 'WAITING FOR REPLY'
2022-07-29 15:13:23,447 pymodbus.transaction - DEBUG - Changing transaction state from 'WAITING FOR REPLY' to 'PROCESSING REPLY'
2022-07-29 15:13:23,447 pymodbus.transaction - DEBUG - RECV: 0x0 0x45 0x0 0x0 0x0 0x7 0x2 0x3 0x4 0x0 0x0 0x0 0x0
2022-07-29 15:13:23,448 pymodbus.framer.socket_framer - DEBUG - Processing: 0x0 0x45 0x0 0x0 0x0 0x7 0x2 0x3 0x4 0x0 0x0 0x0 0x0
2022-07-29 15:13:23,448 pymodbus.factory - DEBUG - Factory Response[ReadHoldingRegistersResponse: 3]
2022-07-29 15:13:23,448 pymodbus.transaction - DEBUG - Adding transaction 69
2022-07-29 15:13:23,448 pymodbus.transaction - DEBUG - Getting transaction 69
2022-07-29 15:13:23,448 pymodbus.transaction - DEBUG - Changing transaction state from 'PROCESSING REPLY' to 'TRANSACTION_COMPLETE'
2022-07-29 15:13:23,448 pymodbus.transaction - DEBUG - Current transaction state - TRANSACTION_COMPLETE
2022-07-29 15:13:23,448 pymodbus.transaction - DEBUG - Running transaction 70
2022-07-29 15:13:23,448 pymodbus.transaction - DEBUG - SEND: 0x0 0x46 0x0 0x0 0x0 0x6 0x2 0x3 0x0 0x70 0x0 0x2
2022-07-29 15:13:23,448 pymodbus.client.sync - DEBUG - New Transaction state 'SENDING'
2022-07-29 15:13:23,448 pymodbus.transaction - DEBUG - Changing transaction state from 'SENDING' to 'WAITING FOR REPLY'
2022-07-29 15:13:23,478 pymodbus.transaction - DEBUG - Changing transaction state from 'WAITING FOR REPLY' to 'PROCESSING REPLY'
2022-07-29 15:13:23,478 pymodbus.transaction - DEBUG - RECV: 0x0 0x46 0x0 0x0 0x0 0x7 0x2 0x3 0x4 0x0 0x0 0x0 0x1
2022-07-29 15:13:23,478 pymodbus.framer.socket_framer - DEBUG - Processing: 0x0 0x46 0x0 0x0 0x0 0x7 0x2 0x3 0x4 0x0 0x0 0x0 0x1
2022-07-29 15:13:23,479 pymodbus.factory - DEBUG - Factory Response[ReadHoldingRegistersResponse: 3]
2022-07-29 15:13:23,479 pymodbus.transaction - DEBUG - Adding transaction 70
2022-07-29 15:13:23,479 pymodbus.transaction - DEBUG - Getting transaction 70
2022-07-29 15:13:23,479 pymodbus.transaction - DEBUG - Changing transaction state from 'PROCESSING REPLY' to 'TRANSACTION_COMPLETE'
2022-07-29 15:13:23,479 log1 - DEBUG - Reading Register Complete
2022-07-29 15:13:23,481 log1 - DEBUG - Posting Data to DB
2022-07-29 15:13:23,484 urllib3.connectionpool - DEBUG - Resetting dropped connection: 192.168.1.36
2022-07-29 15:13:23,495 urllib3.connectionpool - DEBUG - http://192.168.1.36:4000 "POST /data HTTP/1.1" 200 20
2022-07-29 15:13:23,495 root - DEBUG - {"index":0,"code":2}
2022-07-29 15:13:23,495 log1 - DEBUG - POST Complete
2022-07-29 15:13:23,496 log1 - DEBUG - Sending to Local DB
2022-07-29 15:13:23,498 log1 - DEBUG - Local DB document inserted
2022-07-29 15:13:23,502 log1 - DEBUG - MQTT Publish Start
2022-07-29 15:13:23,502 log1 - DEBUG - MQTT Publish Complete
2022-07-29 15:13:28,515 root - DEBUG - Reading Registers
2022-07-29 15:13:28,515 log1 - DEBUG - Reading Registers
2022-07-29 15:13:28,516 pymodbus.transaction - DEBUG - Current transaction state - TRANSACTION_COMPLETE
2022-07-29 15:13:28,516 pymodbus.transaction - DEBUG - Running transaction 71
2022-07-29 15:13:28,516 pymodbus.transaction - DEBUG - SEND: 0x0 0x47 0x0 0x0 0x0 0x6 0x2 0x3 0x0 0x0 0x0 0x2
2022-07-29 15:13:28,517 pymodbus.client.sync - DEBUG - New Transaction state 'SENDING'
2022-07-29 15:13:28,517 pymodbus.transaction - DEBUG - Changing transaction state from 'SENDING' to 'WAITING FOR REPLY'
2022-07-29 15:13:28,531 pymodbus.transaction - DEBUG - Changing transaction state from 'WAITING FOR REPLY' to 'PROCESSING REPLY'
2022-07-29 15:13:28,531 pymodbus.transaction - DEBUG - RECV: 0x0 0x47 0x0 0x0 0x0 0x7 0x2 0x3 0x4 0x0 0x1 0x0 0x1
2022-07-29 15:13:28,532 pymodbus.framer.socket_framer - DEBUG - Processing: 0x0 0x47 0x0 0x0 0x0 0x7 0x2 0x3 0x4 0x0 0x1 0x0 0x1
2022-07-29 15:13:28,532 pymodbus.factory - DEBUG - Factory Response[ReadHoldingRegistersResponse: 3]
2022-07-29 15:13:28,532 pymodbus.transaction - DEBUG - Adding transaction 71
2022-07-29 15:13:28,532 pymodbus.transaction - DEBUG - Getting transaction 71
2022-07-29 15:13:28,532 pymodbus.transaction - DEBUG - Changing transaction state from 'PROCESSING REPLY' to 'TRANSACTION_COMPLETE'
2022-07-29 15:13:28,533 pymodbus.transaction - DEBUG - Current transaction state - TRANSACTION_COMPLETE
2022-07-29 15:13:28,533 pymodbus.transaction - DEBUG - Running transaction 72
2022-07-29 15:13:28,533 pymodbus.transaction - DEBUG - SEND: 0x0 0x48 0x0 0x0 0x0 0x6 0x2 0x3 0x0 0x2 0x0 0x2
2022-07-29 15:13:28,533 pymodbus.client.sync - DEBUG - New Transaction state 'SENDING'
2022-07-29 15:13:28,534 pymodbus.transaction - DEBUG - Changing transaction state from 'SENDING' to 'WAITING FOR REPLY'
2022-07-29 15:13:28,562 pymodbus.transaction - DEBUG - Changing transaction state from 'WAITING FOR REPLY' to 'PROCESSING REPLY'
2022-07-29 15:13:28,562 pymodbus.transaction - DEBUG - RECV: 0x0 0x48 0x0 0x0 0x0 0x7 0x2 0x3 0x4 0x0 0x0 0x0 0x50
2022-07-29 15:13:28,562 pymodbus.framer.socket_framer - DEBUG - Processing: 0x0 0x48 0x0 0x0 0x0 0x7 0x2 0x3 0x4 0x0 0x0 0x0 0x50
2022-07-29 15:13:28,562 pymodbus.factory - DEBUG - Factory Response[ReadHoldingRegistersResponse: 3]
2022-07-29 15:13:28,563 pymodbus.transaction - DEBUG - Adding transaction 72
2022-07-29 15:13:28,563 pymodbus.transaction - DEBUG - Getting transaction 72
2022-07-29 15:13:28,563 pymodbus.transaction - DEBUG - Changing transaction state from 'PROCESSING REPLY' to 'TRANSACTION_COMPLETE'
2022-07-29 15:13:28,563 pymodbus.transaction - DEBUG - Current transaction state - TRANSACTION_COMPLETE
2022-07-29 15:13:28,563 pymodbus.transaction - DEBUG - Running transaction 73
2022-07-29 15:13:28,563 pymodbus.transaction - DEBUG - SEND: 0x0 0x49 0x0 0x0 0x0 0x6 0x2 0x3 0x0 0x4 0x0 0x2
2022-07-29 15:13:28,563 pymodbus.client.sync - DEBUG - New Transaction state 'SENDING'
2022-07-29 15:13:28,563 pymodbus.transaction - DEBUG - Changing transaction state from 'SENDING' to 'WAITING FOR REPLY'
2022-07-29 15:13:28,594 pymodbus.transaction - DEBUG - Changing transaction state from 'WAITING FOR REPLY' to 'PROCESSING REPLY'
2022-07-29 15:13:28,594 pymodbus.transaction - DEBUG - RECV: 0x0 0x49 0x0 0x0 0x0 0x7 0x2 0x3 0x4 0x0 0x0 0x0 0x0
2022-07-29 15:13:28,595 pymodbus.framer.socket_framer - DEBUG - Processing: 0x0 0x49 0x0 0x0 0x0 0x7 0x2 0x3 0x4 0x0 0x0 0x0 0x0
2022-07-29 15:13:28,595 pymodbus.factory - DEBUG - Factory Response[ReadHoldingRegistersResponse: 3]
2022-07-29 15:13:28,595 pymodbus.transaction - DEBUG - Adding transaction 73
2022-07-29 15:13:28,595 pymodbus.transaction - DEBUG - Getting transaction 73
2022-07-29 15:13:28,595 pymodbus.transaction - DEBUG - Changing transaction state from 'PROCESSING REPLY' to 'TRANSACTION_COMPLETE'
2022-07-29 15:13:28,595 pymodbus.transaction - DEBUG - Current transaction state - TRANSACTION_COMPLETE
2022-07-29 15:13:28,595 pymodbus.transaction - DEBUG - Running transaction 74
2022-07-29 15:13:28,595 pymodbus.transaction - DEBUG - SEND: 0x0 0x4a 0x0 0x0 0x0 0x6 0x2 0x3 0x0 0x6 0x0 0x2
2022-07-29 15:13:28,595 pymodbus.client.sync - DEBUG - New Transaction state 'SENDING'
2022-07-29 15:13:28,596 pymodbus.transaction - DEBUG - Changing transaction state from 'SENDING' to 'WAITING FOR REPLY'
2022-07-29 15:13:28,625 pymodbus.transaction - DEBUG - Changing transaction state from 'WAITING FOR REPLY' to 'PROCESSING REPLY'
2022-07-29 15:13:28,625 pymodbus.transaction - DEBUG - RECV: 0x0 0x4a 0x0 0x0 0x0 0x7 0x2 0x3 0x4 0x0 0x0 0x0 0x0
2022-07-29 15:13:28,625 pymodbus.framer.socket_framer - DEBUG - Processing: 0x0 0x4a 0x0 0x0 0x0 0x7 0x2 0x3 0x4 0x0 0x0 0x0 0x0
2022-07-29 15:13:28,625 pymodbus.factory - DEBUG - Factory Response[ReadHoldingRegistersResponse: 3]
2022-07-29 15:13:28,626 pymodbus.transaction - DEBUG - Adding transaction 74
2022-07-29 15:13:28,626 pymodbus.transaction - DEBUG - Getting transaction 74
2022-07-29 15:13:28,626 pymodbus.transaction - DEBUG - Changing transaction state from 'PROCESSING REPLY' to 'TRANSACTION_COMPLETE'
2022-07-29 15:13:28,626 pymodbus.transaction - DEBUG - Current transaction state - TRANSACTION_COMPLETE
2022-07-29 15:13:28,626 pymodbus.transaction - DEBUG - Running transaction 75
2022-07-29 15:13:28,626 pymodbus.transaction - DEBUG - SEND: 0x0 0x4b 0x0 0x0 0x0 0x6 0x2 0x3 0x0 0xc 0x0 0x2
2022-07-29 15:13:28,626 pymodbus.client.sync - DEBUG - New Transaction state 'SENDING'
2022-07-29 15:13:28,626 pymodbus.transaction - DEBUG - Changing transaction state from 'SENDING' to 'WAITING FOR REPLY'
2022-07-29 15:13:28,657 pymodbus.transaction - DEBUG - Changing transaction state from 'WAITING FOR REPLY' to 'PROCESSING REPLY'
2022-07-29 15:13:28,657 pymodbus.transaction - DEBUG - RECV: 0x0 0x4b 0x0 0x0 0x0 0x7 0x2 0x3 0x4 0x0 0x0 0x0 0x0
2022-07-29 15:13:28,657 pymodbus.framer.socket_framer - DEBUG - Processing: 0x0 0x4b 0x0 0x0 0x0 0x7 0x2 0x3 0x4 0x0 0x0 0x0 0x0
2022-07-29 15:13:28,658 pymodbus.factory - DEBUG - Factory Response[ReadHoldingRegistersResponse: 3]
2022-07-29 15:13:28,658 pymodbus.transaction - DEBUG - Adding transaction 75
2022-07-29 15:13:28,658 pymodbus.transaction - DEBUG - Getting transaction 75
2022-07-29 15:13:28,658 pymodbus.transaction - DEBUG - Changing transaction state from 'PROCESSING REPLY' to 'TRANSACTION_COMPLETE'
2022-07-29 15:13:28,658 pymodbus.transaction - DEBUG - Current transaction state - TRANSACTION_COMPLETE
2022-07-29 15:13:28,658 pymodbus.transaction - DEBUG - Running transaction 76
2022-07-29 15:13:28,658 pymodbus.transaction - DEBUG - SEND: 0x0 0x4c 0x0 0x0 0x0 0x6 0x2 0x3 0x0 0xe 0x0 0x2
2022-07-29 15:13:28,658 pymodbus.client.sync - DEBUG - New Transaction state 'SENDING'
2022-07-29 15:13:28,658 pymodbus.transaction - DEBUG - Changing transaction state from 'SENDING' to 'WAITING FOR REPLY'
2022-07-29 15:13:28,688 pymodbus.transaction - DEBUG - Changing transaction state from 'WAITING FOR REPLY' to 'PROCESSING REPLY'
2022-07-29 15:13:28,688 pymodbus.transaction - DEBUG - RECV: 0x0 0x4c 0x0 0x0 0x0 0x7 0x2 0x3 0x4 0x0 0x0 0x0 0x0
2022-07-29 15:13:28,689 pymodbus.framer.socket_framer - DEBUG - Processing: 0x0 0x4c 0x0 0x0 0x0 0x7 0x2 0x3 0x4 0x0 0x0 0x0 0x0
2022-07-29 15:13:28,689 pymodbus.factory - DEBUG - Factory Response[ReadHoldingRegistersResponse: 3]
2022-07-29 15:13:28,690 pymodbus.transaction - DEBUG - Adding transaction 76
2022-07-29 15:13:28,690 pymodbus.transaction - DEBUG - Getting transaction 76
2022-07-29 15:13:28,690 pymodbus.transaction - DEBUG - Changing transaction state from 'PROCESSING REPLY' to 'TRANSACTION_COMPLETE'
2022-07-29 15:13:28,690 pymodbus.transaction - DEBUG - Current transaction state - TRANSACTION_COMPLETE
2022-07-29 15:13:28,690 pymodbus.transaction - DEBUG - Running transaction 77
2022-07-29 15:13:28,691 pymodbus.transaction - DEBUG - SEND: 0x0 0x4d 0x0 0x0 0x0 0x6 0x2 0x3 0x0 0x10 0x0 0x2
2022-07-29 15:13:28,691 pymodbus.client.sync - DEBUG - New Transaction state 'SENDING'
2022-07-29 15:13:28,691 pymodbus.transaction - DEBUG - Changing transaction state from 'SENDING' to 'WAITING FOR REPLY'
2022-07-29 15:13:28,719 pymodbus.transaction - DEBUG - Changing transaction state from 'WAITING FOR REPLY' to 'PROCESSING REPLY'
2022-07-29 15:13:28,719 pymodbus.transaction - DEBUG - RECV: 0x0 0x4d 0x0 0x0 0x0 0x7 0x2 0x3 0x4 0x0 0x0 0x0 0x0
2022-07-29 15:13:28,719 pymodbus.framer.socket_framer - DEBUG - Processing: 0x0 0x4d 0x0 0x0 0x0 0x7 0x2 0x3 0x4 0x0 0x0 0x0 0x0
2022-07-29 15:13:28,719 pymodbus.factory - DEBUG - Factory Response[ReadHoldingRegistersResponse: 3]
2022-07-29 15:13:28,719 pymodbus.transaction - DEBUG - Adding transaction 77
2022-07-29 15:13:28,719 pymodbus.transaction - DEBUG - Getting transaction 77
2022-07-29 15:13:28,719 pymodbus.transaction - DEBUG - Changing transaction state from 'PROCESSING REPLY' to 'TRANSACTION_COMPLETE'
2022-07-29 15:13:28,720 pymodbus.transaction - DEBUG - Current transaction state - TRANSACTION_COMPLETE
2022-07-29 15:13:28,720 pymodbus.transaction - DEBUG - Running transaction 78
2022-07-29 15:13:28,720 pymodbus.transaction - DEBUG - SEND: 0x0 0x4e 0x0 0x0 0x0 0x6 0x2 0x3 0x0 0x12 0x0 0x2
2022-07-29 15:13:28,720 pymodbus.client.sync - DEBUG - New Transaction state 'SENDING'
2022-07-29 15:13:28,720 pymodbus.transaction - DEBUG - Changing transaction state from 'SENDING' to 'WAITING FOR REPLY'
2022-07-29 15:13:28,751 pymodbus.transaction - DEBUG - Changing transaction state from 'WAITING FOR REPLY' to 'PROCESSING REPLY'
2022-07-29 15:13:28,751 pymodbus.transaction - DEBUG - RECV: 0x0 0x4e 0x0 0x0 0x0 0x7 0x2 0x3 0x4 0x0 0x0 0x0 0x0
2022-07-29 15:13:28,751 pymodbus.framer.socket_framer - DEBUG - Processing: 0x0 0x4e 0x0 0x0 0x0 0x7 0x2 0x3 0x4 0x0 0x0 0x0 0x0
2022-07-29 15:13:28,751 pymodbus.factory - DEBUG - Factory Response[ReadHoldingRegistersResponse: 3]
