2022-07-26 18:10:56,942 log1 - DEBUG - Connecting to Modbus...
2022-07-26 18:10:56,955 pymodbus.client.sync - DEBUG - Connection to Modbus server established. Socket ('192.168.1.36', 61236)
2022-07-26 18:10:56,955 root - DEBUG - True
2022-07-26 18:10:56,956 log1 - DEBUG - Modbus Connection Status: True
2022-07-26 18:10:56,967 root - DEBUG - Reading Registers
2022-07-26 18:10:56,968 log1 - DEBUG - Reading Registers
2022-07-26 18:10:56,968 pymodbus.transaction - DEBUG - Current transaction state - IDLE
2022-07-26 18:10:56,969 pymodbus.transaction - DEBUG - Running transaction 1
2022-07-26 18:10:56,969 pymodbus.transaction - DEBUG - SEND: 0x0 0x1 0x0 0x0 0x0 0x6 0x2 0x3 0x0 0x0 0x0 0x2
2022-07-26 18:10:56,970 pymodbus.client.sync - DEBUG - New Transaction state 'SENDING'
2022-07-26 18:10:56,971 pymodbus.transaction - DEBUG - Changing transaction state from 'SENDING' to 'WAITING FOR REPLY'
2022-07-26 18:10:56,985 pymodbus.transaction - DEBUG - Changing transaction state from 'WAITING FOR REPLY' to 'PROCESSING REPLY'
2022-07-26 18:10:56,985 pymodbus.transaction - DEBUG - RECV: 0x0 0x1 0x0 0x0 0x0 0x7 0x2 0x3 0x4 0x0 0x0 0xff 0xfe
2022-07-26 18:10:56,985 pymodbus.framer.socket_framer - DEBUG - Processing: 0x0 0x1 0x0 0x0 0x0 0x7 0x2 0x3 0x4 0x0 0x0 0xff 0xfe
2022-07-26 18:10:56,986 pymodbus.factory - DEBUG - Factory Response[ReadHoldingRegistersResponse: 3]
2022-07-26 18:10:56,986 pymodbus.transaction - DEBUG - Adding transaction 1
2022-07-26 18:10:56,986 pymodbus.transaction - DEBUG - Getting transaction 1
2022-07-26 18:10:56,986 pymodbus.transaction - DEBUG - Changing transaction state from 'PROCESSING REPLY' to 'TRANSACTION_COMPLETE'
2022-07-26 18:10:56,986 pymodbus.transaction - DEBUG - Current transaction state - TRANSACTION_COMPLETE
2022-07-26 18:10:56,986 pymodbus.transaction - DEBUG - Running transaction 2
2022-07-26 18:10:56,986 pymodbus.transaction - DEBUG - SEND: 0x0 0x2 0x0 0x0 0x0 0x6 0x2 0x3 0x0 0x2 0x0 0x2
2022-07-26 18:10:56,986 pymodbus.client.sync - DEBUG - New Transaction state 'SENDING'
2022-07-26 18:10:56,986 pymodbus.transaction - DEBUG - Changing transaction state from 'SENDING' to 'WAITING FOR REPLY'
2022-07-26 18:10:57,017 pymodbus.transaction - DEBUG - Changing transaction state from 'WAITING FOR REPLY' to 'PROCESSING REPLY'
2022-07-26 18:10:57,017 pymodbus.transaction - DEBUG - RECV: 0x0 0x2 0x0 0x0 0x0 0x7 0x2 0x3 0x4 0x0 0x0 0x0 0x50
2022-07-26 18:10:57,017 pymodbus.framer.socket_framer - DEBUG - Processing: 0x0 0x2 0x0 0x0 0x0 0x7 0x2 0x3 0x4 0x0 0x0 0x0 0x50
2022-07-26 18:10:57,017 pymodbus.factory - DEBUG - Factory Response[ReadHoldingRegistersResponse: 3]
2022-07-26 18:10:57,017 pymodbus.transaction - DEBUG - Adding transaction 2
2022-07-26 18:10:57,017 pymodbus.transaction - DEBUG - Getting transaction 2
2022-07-26 18:10:57,017 pymodbus.transaction - DEBUG - Changing transaction state from 'PROCESSING REPLY' to 'TRANSACTION_COMPLETE'
2022-07-26 18:10:57,017 pymodbus.transaction - DEBUG - Current transaction state - TRANSACTION_COMPLETE
2022-07-26 18:10:57,017 pymodbus.transaction - DEBUG - Running transaction 3
2022-07-26 18:10:57,017 pymodbus.transaction - DEBUG - SEND: 0x0 0x3 0x0 0x0 0x0 0x6 0x2 0x3 0x0 0x4 0x0 0x2
2022-07-26 18:10:57,017 pymodbus.client.sync - DEBUG - New Transaction state 'SENDING'
2022-07-26 18:10:57,017 pymodbus.transaction - DEBUG - Changing transaction state from 'SENDING' to 'WAITING FOR REPLY'
2022-07-26 18:10:57,048 pymodbus.transaction - DEBUG - Changing transaction state from 'WAITING FOR REPLY' to 'PROCESSING REPLY'
2022-07-26 18:10:57,048 pymodbus.transaction - DEBUG - RECV: 0x0 0x3 0x0 0x0 0x0 0x7 0x2 0x3 0x4 0x0 0x0 0x0 0x17
2022-07-26 18:10:57,048 pymodbus.framer.socket_framer - DEBUG - Processing: 0x0 0x3 0x0 0x0 0x0 0x7 0x2 0x3 0x4 0x0 0x0 0x0 0x17
2022-07-26 18:10:57,048 pymodbus.factory - DEBUG - Factory Response[ReadHoldingRegistersResponse: 3]
2022-07-26 18:10:57,048 pymodbus.transaction - DEBUG - Adding transaction 3
2022-07-26 18:10:57,048 pymodbus.transaction - DEBUG - Getting transaction 3
2022-07-26 18:10:57,048 pymodbus.transaction - DEBUG - Changing transaction state from 'PROCESSING REPLY' to 'TRANSACTION_COMPLETE'
2022-07-26 18:10:57,049 pymodbus.transaction - DEBUG - Current transaction state - TRANSACTION_COMPLETE
2022-07-26 18:10:57,049 pymodbus.transaction - DEBUG - Running transaction 4
2022-07-26 18:10:57,049 pymodbus.transaction - DEBUG - SEND: 0x0 0x4 0x0 0x0 0x0 0x6 0x2 0x3 0x0 0x6 0x0 0x2
2022-07-26 18:10:57,049 pymodbus.client.sync - DEBUG - New Transaction state 'SENDING'
2022-07-26 18:10:57,049 pymodbus.transaction - DEBUG - Changing transaction state from 'SENDING' to 'WAITING FOR REPLY'
2022-07-26 18:10:57,078 pymodbus.transaction - DEBUG - Changing transaction state from 'WAITING FOR REPLY' to 'PROCESSING REPLY'
2022-07-26 18:10:57,078 pymodbus.transaction - DEBUG - RECV: 0x0 0x4 0x0 0x0 0x0 0x7 0x2 0x3 0x4 0x0 0x0 0x0 0x4
2022-07-26 18:10:57,078 pymodbus.framer.socket_framer - DEBUG - Processing: 0x0 0x4 0x0 0x0 0x0 0x7 0x2 0x3 0x4 0x0 0x0 0x0 0x4
2022-07-26 18:10:57,078 pymodbus.factory - DEBUG - Factory Response[ReadHoldingRegistersResponse: 3]
2022-07-26 18:10:57,078 pymodbus.transaction - DEBUG - Adding transaction 4
2022-07-26 18:10:57,078 pymodbus.transaction - DEBUG - Getting transaction 4
2022-07-26 18:10:57,078 pymodbus.transaction - DEBUG - Changing transaction state from 'PROCESSING REPLY' to 'TRANSACTION_COMPLETE'
2022-07-26 18:10:57,078 pymodbus.transaction - DEBUG - Current transaction state - TRANSACTION_COMPLETE
2022-07-26 18:10:57,079 pymodbus.transaction - DEBUG - Running transaction 5
2022-07-26 18:10:57,079 pymodbus.transaction - DEBUG - SEND: 0x0 0x5 0x0 0x0 0x0 0x6 0x2 0x3 0x0 0xc 0x0 0x2
2022-07-26 18:10:57,079 pymodbus.client.sync - DEBUG - New Transaction state 'SENDING'
2022-07-26 18:10:57,079 pymodbus.transaction - DEBUG - Changing transaction state from 'SENDING' to 'WAITING FOR REPLY'
2022-07-26 18:10:57,109 pymodbus.transaction - DEBUG - Changing transaction state from 'WAITING FOR REPLY' to 'PROCESSING REPLY'
2022-07-26 18:10:57,109 pymodbus.transaction - DEBUG - RECV: 0x0 0x5 0x0 0x0 0x0 0x7 0x2 0x3 0x4 0x0 0x0 0x0 0x0
2022-07-26 18:10:57,109 pymodbus.framer.socket_framer - DEBUG - Processing: 0x0 0x5 0x0 0x0 0x0 0x7 0x2 0x3 0x4 0x0 0x0 0x0 0x0
2022-07-26 18:10:57,109 pymodbus.factory - DEBUG - Factory Response[ReadHoldingRegistersResponse: 3]
2022-07-26 18:10:57,111 pymodbus.transaction - DEBUG - Adding transaction 5
2022-07-26 18:10:57,111 pymodbus.transaction - DEBUG - Getting transaction 5
2022-07-26 18:10:57,111 pymodbus.transaction - DEBUG - Changing transaction state from 'PROCESSING REPLY' to 'TRANSACTION_COMPLETE'
2022-07-26 18:10:57,111 pymodbus.transaction - DEBUG - Current transaction state - TRANSACTION_COMPLETE
2022-07-26 18:10:57,111 pymodbus.transaction - DEBUG - Running transaction 6
2022-07-26 18:10:57,111 pymodbus.transaction - DEBUG - SEND: 0x0 0x6 0x0 0x0 0x0 0x6 0x2 0x3 0x0 0xe 0x0 0x2
2022-07-26 18:10:57,111 pymodbus.client.sync - DEBUG - New Transaction state 'SENDING'
2022-07-26 18:10:57,111 pymodbus.transaction - DEBUG - Changing transaction state from 'SENDING' to 'WAITING FOR REPLY'
2022-07-26 18:10:57,140 pymodbus.transaction - DEBUG - Changing transaction state from 'WAITING FOR REPLY' to 'PROCESSING REPLY'
2022-07-26 18:10:57,140 pymodbus.transaction - DEBUG - RECV: 0x0 0x6 0x0 0x0 0x0 0x7 0x2 0x3 0x4 0x0 0x0 0x0 0x0
2022-07-26 18:10:57,140 pymodbus.framer.socket_framer - DEBUG - Processing: 0x0 0x6 0x0 0x0 0x0 0x7 0x2 0x3 0x4 0x0 0x0 0x0 0x0
2022-07-26 18:10:57,141 pymodbus.factory - DEBUG - Factory Response[ReadHoldingRegistersResponse: 3]
2022-07-26 18:10:57,141 pymodbus.transaction - DEBUG - Adding transaction 6
2022-07-26 18:10:57,141 pymodbus.transaction - DEBUG - Getting transaction 6
2022-07-26 18:10:57,141 pymodbus.transaction - DEBUG - Changing transaction state from 'PROCESSING REPLY' to 'TRANSACTION_COMPLETE'
2022-07-26 18:10:57,141 pymodbus.transaction - DEBUG - Current transaction state - TRANSACTION_COMPLETE
2022-07-26 18:10:57,141 pymodbus.transaction - DEBUG - Running transaction 7
2022-07-26 18:10:57,141 pymodbus.transaction - DEBUG - SEND: 0x0 0x7 0x0 0x0 0x0 0x6 0x2 0x3 0x0 0x10 0x0 0x2
2022-07-26 18:10:57,141 pymodbus.client.sync - DEBUG - New Transaction state 'SENDING'
2022-07-26 18:10:57,142 pymodbus.transaction - DEBUG - Changing transaction state from 'SENDING' to 'WAITING FOR REPLY'
2022-07-26 18:10:57,173 pymodbus.transaction - DEBUG - Changing transaction state from 'WAITING FOR REPLY' to 'PROCESSING REPLY'
2022-07-26 18:10:57,173 pymodbus.transaction - DEBUG - RECV: 0x0 0x7 0x0 0x0 0x0 0x7 0x2 0x3 0x4 0x0 0x0 0x0 0x0
2022-07-26 18:10:57,173 pymodbus.framer.socket_framer - DEBUG - Processing: 0x0 0x7 0x0 0x0 0x0 0x7 0x2 0x3 0x4 0x0 0x0 0x0 0x0
2022-07-26 18:10:57,173 pymodbus.factory - DEBUG - Factory Response[ReadHoldingRegistersResponse: 3]
2022-07-26 18:10:57,173 pymodbus.transaction - DEBUG - Adding transaction 7
2022-07-26 18:10:57,173 pymodbus.transaction - DEBUG - Getting transaction 7
2022-07-26 18:10:57,173 pymodbus.transaction - DEBUG - Changing transaction state from 'PROCESSING REPLY' to 'TRANSACTION_COMPLETE'
2022-07-26 18:10:57,173 pymodbus.transaction - DEBUG - Current transaction state - TRANSACTION_COMPLETE
2022-07-26 18:10:57,174 pymodbus.transaction - DEBUG - Running transaction 8
2022-07-26 18:10:57,174 pymodbus.transaction - DEBUG - SEND: 0x0 0x8 0x0 0x0 0x0 0x6 0x2 0x3 0x0 0x12 0x0 0x2
2022-07-26 18:10:57,174 pymodbus.client.sync - DEBUG - New Transaction state 'SENDING'
2022-07-26 18:10:57,174 pymodbus.transaction - DEBUG - Changing transaction state from 'SENDING' to 'WAITING FOR REPLY'
2022-07-26 18:10:57,203 pymodbus.transaction - DEBUG - Changing transaction state from 'WAITING FOR REPLY' to 'PROCESSING REPLY'
2022-07-26 18:10:57,204 pymodbus.transaction - DEBUG - RECV: 0x0 0x8 0x0 0x0 0x0 0x7 0x2 0x3 0x4 0x0 0x0 0xff 0xfe
2022-07-26 18:10:57,204 pymodbus.framer.socket_framer - DEBUG - Processing: 0x0 0x8 0x0 0x0 0x0 0x7 0x2 0x3 0x4 0x0 0x0 0xff 0xfe
2022-07-26 18:10:57,204 pymodbus.factory - DEBUG - Factory Response[ReadHoldingRegistersResponse: 3]
2022-07-26 18:10:57,204 pymodbus.transaction - DEBUG - Adding transaction 8
2022-07-26 18:10:57,204 pymodbus.transaction - DEBUG - Getting transaction 8
2022-07-26 18:10:57,204 pymodbus.transaction - DEBUG - Changing transaction state from 'PROCESSING REPLY' to 'TRANSACTION_COMPLETE'
2022-07-26 18:10:57,204 pymodbus.transaction - DEBUG - Current transaction state - TRANSACTION_COMPLETE
2022-07-26 18:10:57,204 pymodbus.transaction - DEBUG - Running transaction 9
2022-07-26 18:10:57,204 pymodbus.transaction - DEBUG - SEND: 0x0 0x9 0x0 0x0 0x0 0x6 0x2 0x3 0x0 0x14 0x0 0x2
2022-07-26 18:10:57,204 pymodbus.client.sync - DEBUG - New Transaction state 'SENDING'
2022-07-26 18:10:57,204 pymodbus.transaction - DEBUG - Changing transaction state from 'SENDING' to 'WAITING FOR REPLY'
2022-07-26 18:10:57,241 pymodbus.transaction - DEBUG - Changing transaction state from 'WAITING FOR REPLY' to 'PROCESSING REPLY'
2022-07-26 18:10:57,241 pymodbus.transaction - DEBUG - RECV: 0x0 0x9 0x0 0x0 0x0 0x7 0x2 0x3 0x4 0x0 0x0 0x0 0x0
2022-07-26 18:10:57,241 pymodbus.framer.socket_framer - DEBUG - Processing: 0x0 0x9 0x0 0x0 0x0 0x7 0x2 0x3 0x4 0x0 0x0 0x0 0x0
2022-07-26 18:10:57,241 pymodbus.factory - DEBUG - Factory Response[ReadHoldingRegistersResponse: 3]
2022-07-26 18:10:57,242 pymodbus.transaction - DEBUG - Adding transaction 9
2022-07-26 18:10:57,242 pymodbus.transaction - DEBUG - Getting transaction 9
2022-07-26 18:10:57,242 pymodbus.transaction - DEBUG - Changing transaction state from 'PROCESSING REPLY' to 'TRANSACTION_COMPLETE'
2022-07-26 18:10:57,242 pymodbus.transaction - DEBUG - Current transaction state - TRANSACTION_COMPLETE
2022-07-26 18:10:57,242 pymodbus.transaction - DEBUG - Running transaction 10
2022-07-26 18:10:57,242 pymodbus.transaction - DEBUG - SEND: 0x0 0xa 0x0 0x0 0x0 0x6 0x2 0x3 0x0 0x16 0x0 0x2
2022-07-26 18:10:57,242 pymodbus.client.sync - DEBUG - New Transaction state 'SENDING'
2022-07-26 18:10:57,243 pymodbus.transaction - DEBUG - Changing transaction state from 'SENDING' to 'WAITING FOR REPLY'
2022-07-26 18:10:57,297 pymodbus.transaction - DEBUG - Changing transaction state from 'WAITING FOR REPLY' to 'PROCESSING REPLY'
2022-07-26 18:10:57,297 pymodbus.transaction - DEBUG - RECV: 0x0 0xa 0x0 0x0 0x0 0x7 0x2 0x3 0x4 0x0 0x0 0x0 0x0
2022-07-26 18:10:57,297 pymodbus.framer.socket_framer - DEBUG - Processing: 0x0 0xa 0x0 0x0 0x0 0x7 0x2 0x3 0x4 0x0 0x0 0x0 0x0
2022-07-26 18:10:57,297 pymodbus.factory - DEBUG - Factory Response[ReadHoldingRegistersResponse: 3]
2022-07-26 18:10:57,297 pymodbus.transaction - DEBUG - Adding transaction 10
2022-07-26 18:10:57,297 pymodbus.transaction - DEBUG - Getting transaction 10
2022-07-26 18:10:57,297 pymodbus.transaction - DEBUG - Changing transaction state from 'PROCESSING REPLY' to 'TRANSACTION_COMPLETE'
2022-07-26 18:10:57,297 pymodbus.transaction - DEBUG - Current transaction state - TRANSACTION_COMPLETE
2022-07-26 18:10:57,297 pymodbus.transaction - DEBUG - Running transaction 11
2022-07-26 18:10:57,297 pymodbus.transaction - DEBUG - SEND: 0x0 0xb 0x0 0x0 0x0 0x6 0x2 0x3 0x0 0x18 0x0 0x2
2022-07-26 18:10:57,297 pymodbus.client.sync - DEBUG - New Transaction state 'SENDING'
2022-07-26 18:10:57,298 pymodbus.transaction - DEBUG - Changing transaction state from 'SENDING' to 'WAITING FOR REPLY'
2022-07-26 18:10:57,328 pymodbus.transaction - DEBUG - Changing transaction state from 'WAITING FOR REPLY' to 'PROCESSING REPLY'
2022-07-26 18:10:57,328 pymodbus.transaction - DEBUG - RECV: 0x0 0xb 0x0 0x0 0x0 0x7 0x2 0x3 0x4 0x0 0x0 0x0 0x0
2022-07-26 18:10:57,328 pymodbus.framer.socket_framer - DEBUG - Processing: 0x0 0xb 0x0 0x0 0x0 0x7 0x2 0x3 0x4 0x0 0x0 0x0 0x0
2022-07-26 18:10:57,328 pymodbus.factory - DEBUG - Factory Response[ReadHoldingRegistersResponse: 3]
2022-07-26 18:10:57,328 pymodbus.transaction - DEBUG - Adding transaction 11
2022-07-26 18:10:57,328 pymodbus.transaction - DEBUG - Getting transaction 11
2022-07-26 18:10:57,328 pymodbus.transaction - DEBUG - Changing transaction state from 'PROCESSING REPLY' to 'TRANSACTION_COMPLETE'
2022-07-26 18:10:57,328 pymodbus.transaction - DEBUG - Current transaction state - TRANSACTION_COMPLETE
2022-07-26 18:10:57,328 pymodbus.transaction - DEBUG - Running transaction 12
2022-07-26 18:10:57,329 pymodbus.transaction - DEBUG - SEND: 0x0 0xc 0x0 0x0 0x0 0x6 0x2 0x3 0x0 0x1a 0x0 0x2
2022-07-26 18:10:57,329 pymodbus.client.sync - DEBUG - New Transaction state 'SENDING'
2022-07-26 18:10:57,329 pymodbus.transaction - DEBUG - Changing transaction state from 'SENDING' to 'WAITING FOR REPLY'
2022-07-26 18:10:57,360 pymodbus.transaction - DEBUG - Changing transaction state from 'WAITING FOR REPLY' to 'PROCESSING REPLY'
2022-07-26 18:10:57,360 pymodbus.transaction - DEBUG - RECV: 0x0 0xc 0x0 0x0 0x0 0x7 0x2 0x3 0x4 0x0 0x0 0x0 0x0
2022-07-26 18:10:57,360 pymodbus.framer.socket_framer - DEBUG - Processing: 0x0 0xc 0x0 0x0 0x0 0x7 0x2 0x3 0x4 0x0 0x0 0x0 0x0
2022-07-26 18:10:57,361 pymodbus.factory - DEBUG - Factory Response[ReadHoldingRegistersResponse: 3]
2022-07-26 18:10:57,361 pymodbus.transaction - DEBUG - Adding transaction 12
2022-07-26 18:10:57,361 pymodbus.transaction - DEBUG - Getting transaction 12
2022-07-26 18:10:57,361 pymodbus.transaction - DEBUG - Changing transaction state from 'PROCESSING REPLY' to 'TRANSACTION_COMPLETE'
2022-07-26 18:10:57,361 pymodbus.transaction - DEBUG - Current transaction state - TRANSACTION_COMPLETE
2022-07-26 18:10:57,361 pymodbus.transaction - DEBUG - Running transaction 13
2022-07-26 18:10:57,361 pymodbus.transaction - DEBUG - SEND: 0x0 0xd 0x0 0x0 0x0 0x6 0x2 0x3 0x0 0x1c 0x0 0x2
2022-07-26 18:10:57,361 pymodbus.client.sync - DEBUG - New Transaction state 'SENDING'
2022-07-26 18:10:57,362 pymodbus.transaction - DEBUG - Changing transaction state from 'SENDING' to 'WAITING FOR REPLY'
2022-07-26 18:10:57,392 pymodbus.transaction - DEBUG - Changing transaction state from 'WAITING FOR REPLY' to 'PROCESSING REPLY'
2022-07-26 18:10:57,392 pymodbus.transaction - DEBUG - RECV: 0x0 0xd 0x0 0x0 0x0 0x7 0x2 0x3 0x4 0x0 0x0 0x0 0x0
2022-07-26 18:10:57,392 pymodbus.framer.socket_framer - DEBUG - Processing: 0x0 0xd 0x0 0x0 0x0 0x7 0x2 0x3 0x4 0x0 0x0 0x0 0x0
2022-07-26 18:10:57,392 pymodbus.factory - DEBUG - Factory Response[ReadHoldingRegistersResponse: 3]
2022-07-26 18:10:57,392 pymodbus.transaction - DEBUG - Adding transaction 13
2022-07-26 18:10:57,392 pymodbus.transaction - DEBUG - Getting transaction 13
2022-07-26 18:10:57,392 pymodbus.transaction - DEBUG - Changing transaction state from 'PROCESSING REPLY' to 'TRANSACTION_COMPLETE'
2022-07-26 18:10:57,392 pymodbus.transaction - DEBUG - Current transaction state - TRANSACTION_COMPLETE
2022-07-26 18:10:57,392 pymodbus.transaction - DEBUG - Running transaction 14
2022-07-26 18:10:57,392 pymodbus.transaction - DEBUG - SEND: 0x0 0xe 0x0 0x0 0x0 0x6 0x2 0x3 0x0 0x1e 0x0 0x2
2022-07-26 18:10:57,392 pymodbus.client.sync - DEBUG - New Transaction state 'SENDING'
2022-07-26 18:10:57,393 pymodbus.transaction - DEBUG - Changing transaction state from 'SENDING' to 'WAITING FOR REPLY'
2022-07-26 18:10:57,424 pymodbus.transaction - DEBUG - Changing transaction state from 'WAITING FOR REPLY' to 'PROCESSING REPLY'
2022-07-26 18:10:57,424 pymodbus.transaction - DEBUG - RECV: 0x0 0xe 0x0 0x0 0x0 0x7 0x2 0x3 0x4 0x0 0x0 0x0 0x0
2022-07-26 18:10:57,425 pymodbus.framer.socket_framer - DEBUG - Processing: 0x0 0xe 0x0 0x0 0x0 0x7 0x2 0x3 0x4 0x0 0x0 0x0 0x0
2022-07-26 18:10:57,425 pymodbus.factory - DEBUG - Factory Response[ReadHoldingRegistersResponse: 3]
2022-07-26 18:10:57,425 pymodbus.transaction - DEBUG - Adding transaction 14
2022-07-26 18:10:57,425 pymodbus.transaction - DEBUG - Getting transaction 14
2022-07-26 18:10:57,425 pymodbus.transaction - DEBUG - Changing transaction state from 'PROCESSING REPLY' to 'TRANSACTION_COMPLETE'
2022-07-26 18:10:57,425 pymodbus.transaction - DEBUG - Current transaction state - TRANSACTION_COMPLETE
2022-07-26 18:10:57,425 pymodbus.transaction - DEBUG - Running transaction 15
2022-07-26 18:10:57,426 pymodbus.transaction - DEBUG - SEND: 0x0 0xf 0x0 0x0 0x0 0x6 0x2 0x3 0x0 0x20 0x0 0x2
2022-07-26 18:10:57,426 pymodbus.client.sync - DEBUG - New Transaction state 'SENDING'
2022-07-26 18:10:57,426 pymodbus.transaction - DEBUG - Changing transaction state from 'SENDING' to 'WAITING FOR REPLY'
2022-07-26 18:10:57,455 pymodbus.transaction - DEBUG - Changing transaction state from 'WAITING FOR REPLY' to 'PROCESSING REPLY'
2022-07-26 18:10:57,455 pymodbus.transaction - DEBUG - RECV: 0x0 0xf 0x0 0x0 0x0 0x7 0x2 0x3 0x4 0x0 0x0 0x0 0x0
2022-07-26 18:10:57,456 pymodbus.framer.socket_framer - DEBUG - Processing: 0x0 0xf 0x0 0x0 0x0 0x7 0x2 0x3 0x4 0x0 0x0 0x0 0x0
2022-07-26 18:10:57,456 pymodbus.factory - DEBUG - Factory Response[ReadHoldingRegistersResponse: 3]
2022-07-26 18:10:57,456 pymodbus.transaction - DEBUG - Adding transaction 15
2022-07-26 18:10:57,456 pymodbus.transaction - DEBUG - Getting transaction 15
2022-07-26 18:10:57,456 pymodbus.transaction - DEBUG - Changing transaction state from 'PROCESSING REPLY' to 'TRANSACTION_COMPLETE'
2022-07-26 18:10:57,456 pymodbus.transaction - DEBUG - Current transaction state - TRANSACTION_COMPLETE
2022-07-26 18:10:57,457 pymodbus.transaction - DEBUG - Running transaction 16
2022-07-26 18:10:57,457 pymodbus.transaction - DEBUG - SEND: 0x0 0x10 0x0 0x0 0x0 0x6 0x2 0x3 0x0 0x22 0x0 0x2
2022-07-26 18:10:57,457 pymodbus.client.sync - DEBUG - New Transaction state 'SENDING'
2022-07-26 18:10:57,457 pymodbus.transaction - DEBUG - Changing transaction state from 'SENDING' to 'WAITING FOR REPLY'
2022-07-26 18:10:57,487 pymodbus.transaction - DEBUG - Changing transaction state from 'WAITING FOR REPLY' to 'PROCESSING REPLY'
2022-07-26 18:10:57,487 pymodbus.transaction - DEBUG - RECV: 0x0 0x10 0x0 0x0 0x0 0x7 0x2 0x3 0x4 0x0 0x0 0x0 0x0
2022-07-26 18:10:57,487 pymodbus.framer.socket_framer - DEBUG - Processing: 0x0 0x10 0x0 0x0 0x0 0x7 0x2 0x3 0x4 0x0 0x0 0x0 0x0
2022-07-26 18:10:57,488 pymodbus.factory - DEBUG - Factory Response[ReadHoldingRegistersResponse: 3]
2022-07-26 18:10:57,488 pymodbus.transaction - DEBUG - Adding transaction 16
2022-07-26 18:10:57,488 pymodbus.transaction - DEBUG - Getting transaction 16
2022-07-26 18:10:57,488 pymodbus.transaction - DEBUG - Changing transaction state from 'PROCESSING REPLY' to 'TRANSACTION_COMPLETE'
2022-07-26 18:10:57,488 pymodbus.transaction - DEBUG - Current transaction state - TRANSACTION_COMPLETE
2022-07-26 18:10:57,488 pymodbus.transaction - DEBUG - Running transaction 17
2022-07-26 18:10:57,488 pymodbus.transaction - DEBUG - SEND: 0x0 0x11 0x0 0x0 0x0 0x6 0x2 0x3 0x0 0x24 0x0 0x2
2022-07-26 18:10:57,488 pymodbus.client.sync - DEBUG - New Transaction state 'SENDING'
2022-07-26 18:10:57,489 pymodbus.transaction - DEBUG - Changing transaction state from 'SENDING' to 'WAITING FOR REPLY'
2022-07-26 18:10:57,518 pymodbus.transaction - DEBUG - Changing transaction state from 'WAITING FOR REPLY' to 'PROCESSING REPLY'
2022-07-26 18:10:57,519 pymodbus.transaction - DEBUG - RECV: 0x0 0x11 0x0 0x0 0x0 0x7 0x2 0x3 0x4 0x0 0x0 0x0 0x0
2022-07-26 18:10:57,519 pymodbus.framer.socket_framer - DEBUG - Processing: 0x0 0x11 0x0 0x0 0x0 0x7 0x2 0x3 0x4 0x0 0x0 0x0 0x0
2022-07-26 18:10:57,519 pymodbus.factory - DEBUG - Factory Response[ReadHoldingRegistersResponse: 3]
2022-07-26 18:10:57,520 pymodbus.transaction - DEBUG - Adding transaction 17
2022-07-26 18:10:57,520 pymodbus.transaction - DEBUG - Getting transaction 17
2022-07-26 18:10:57,520 pymodbus.transaction - DEBUG - Changing transaction state from 'PROCESSING REPLY' to 'TRANSACTION_COMPLETE'
2022-07-26 18:10:57,520 pymodbus.transaction - DEBUG - Current transaction state - TRANSACTION_COMPLETE
2022-07-26 18:10:57,520 pymodbus.transaction - DEBUG - Running transaction 18
2022-07-26 18:10:57,520 pymodbus.transaction - DEBUG - SEND: 0x0 0x12 0x0 0x0 0x0 0x6 0x2 0x3 0x0 0x26 0x0 0x2
2022-07-26 18:10:57,521 pymodbus.client.sync - DEBUG - New Transaction state 'SENDING'
2022-07-26 18:10:57,521 pymodbus.transaction - DEBUG - Changing transaction state from 'SENDING' to 'WAITING FOR REPLY'
2022-07-26 18:10:57,549 pymodbus.transaction - DEBUG - Changing transaction state from 'WAITING FOR REPLY' to 'PROCESSING REPLY'
2022-07-26 18:10:57,549 pymodbus.transaction - DEBUG - RECV: 0x0 0x12 0x0 0x0 0x0 0x7 0x2 0x3 0x4 0x0 0x0 0x0 0x0
2022-07-26 18:10:57,549 pymodbus.framer.socket_framer - DEBUG - Processing: 0x0 0x12 0x0 0x0 0x0 0x7 0x2 0x3 0x4 0x0 0x0 0x0 0x0
2022-07-26 18:10:57,549 pymodbus.factory - DEBUG - Factory Response[ReadHoldingRegistersResponse: 3]
2022-07-26 18:10:57,549 pymodbus.transaction - DEBUG - Adding transaction 18
2022-07-26 18:10:57,549 pymodbus.transaction - DEBUG - Getting transaction 18
2022-07-26 18:10:57,549 pymodbus.transaction - DEBUG - Changing transaction state from 'PROCESSING REPLY' to 'TRANSACTION_COMPLETE'
2022-07-26 18:10:57,549 pymodbus.transaction - DEBUG - Current transaction state - TRANSACTION_COMPLETE
2022-07-26 18:10:57,549 pymodbus.transaction - DEBUG - Running transaction 19
2022-07-26 18:10:57,549 pymodbus.transaction - DEBUG - SEND: 0x0 0x13 0x0 0x0 0x0 0x6 0x2 0x3 0x0 0x28 0x0 0x2
2022-07-26 18:10:57,549 pymodbus.client.sync - DEBUG - New Transaction state 'SENDING'
2022-07-26 18:10:57,550 pymodbus.transaction - DEBUG - Changing transaction state from 'SENDING' to 'WAITING FOR REPLY'
2022-07-26 18:10:57,581 pymodbus.transaction - DEBUG - Changing transaction state from 'WAITING FOR REPLY' to 'PROCESSING REPLY'
2022-07-26 18:10:57,581 pymodbus.transaction - DEBUG - RECV: 0x0 0x13 0x0 0x0 0x0 0x7 0x2 0x3 0x4 0x0 0x0 0x0 0x0
2022-07-26 18:10:57,581 pymodbus.framer.socket_framer - DEBUG - Processing: 0x0 0x13 0x0 0x0 0x0 0x7 0x2 0x3 0x4 0x0 0x0 0x0 0x0
2022-07-26 18:10:57,581 pymodbus.factory - DEBUG - Factory Response[ReadHoldingRegistersResponse: 3]
2022-07-26 18:10:57,581 pymodbus.transaction - DEBUG - Adding transaction 19
2022-07-26 18:10:57,581 pymodbus.transaction - DEBUG - Getting transaction 19
2022-07-26 18:10:57,581 pymodbus.transaction - DEBUG - Changing transaction state from 'PROCESSING REPLY' to 'TRANSACTION_COMPLETE'
2022-07-26 18:10:57,581 pymodbus.transaction - DEBUG - Current transaction state - TRANSACTION_COMPLETE
2022-07-26 18:10:57,581 pymodbus.transaction - DEBUG - Running transaction 20
2022-07-26 18:10:57,581 pymodbus.transaction - DEBUG - SEND: 0x0 0x14 0x0 0x0 0x0 0x6 0x2 0x3 0x0 0x2a 0x0 0x2
2022-07-26 18:10:57,581 pymodbus.client.sync - DEBUG - New Transaction state 'SENDING'
2022-07-26 18:10:57,581 pymodbus.transaction - DEBUG - Changing transaction state from 'SENDING' to 'WAITING FOR REPLY'
2022-07-26 18:10:57,611 pymodbus.transaction - DEBUG - Changing transaction state from 'WAITING FOR REPLY' to 'PROCESSING REPLY'
2022-07-26 18:10:57,611 pymodbus.transaction - DEBUG - RECV: 0x0 0x14 0x0 0x0 0x0 0x7 0x2 0x3 0x4 0x0 0x0 0x0 0x0
2022-07-26 18:10:57,612 pymodbus.framer.socket_framer - DEBUG - Processing: 0x0 0x14 0x0 0x0 0x0 0x7 0x2 0x3 0x4 0x0 0x0 0x0 0x0
2022-07-26 18:10:57,612 pymodbus.factory - DEBUG - Factory Response[ReadHoldingRegistersResponse: 3]
2022-07-26 18:10:57,612 pymodbus.transaction - DEBUG - Adding transaction 20
2022-07-26 18:10:57,612 pymodbus.transaction - DEBUG - Getting transaction 20
2022-07-26 18:10:57,612 pymodbus.transaction - DEBUG - Changing transaction state from 'PROCESSING REPLY' to 'TRANSACTION_COMPLETE'
2022-07-26 18:10:57,612 pymodbus.transaction - DEBUG - Current transaction state - TRANSACTION_COMPLETE
2022-07-26 18:10:57,612 pymodbus.transaction - DEBUG - Running transaction 21
2022-07-26 18:10:57,612 pymodbus.transaction - DEBUG - SEND: 0x0 0x15 0x0 0x0 0x0 0x6 0x2 0x3 0x0 0x2c 0x0 0x2
2022-07-26 18:10:57,613 pymodbus.client.sync - DEBUG - New Transaction state 'SENDING'
2022-07-26 18:10:57,613 pymodbus.transaction - DEBUG - Changing transaction state from 'SENDING' to 'WAITING FOR REPLY'
2022-07-26 18:10:57,642 pymodbus.transaction - DEBUG - Changing transaction state from 'WAITING FOR REPLY' to 'PROCESSING REPLY'
2022-07-26 18:10:57,642 pymodbus.transaction - DEBUG - RECV: 0x0 0x15 0x0 0x0 0x0 0x7 0x2 0x3 0x4 0x0 0x0 0x0 0x0
2022-07-26 18:10:57,642 pymodbus.framer.socket_framer - DEBUG - Processing: 0x0 0x15 0x0 0x0 0x0 0x7 0x2 0x3 0x4 0x0 0x0 0x0 0x0
2022-07-26 18:10:57,642 pymodbus.factory - DEBUG - Factory Response[ReadHoldingRegistersResponse: 3]
2022-07-26 18:10:57,642 pymodbus.transaction - DEBUG - Adding transaction 21
2022-07-26 18:10:57,642 pymodbus.transaction - DEBUG - Getting transaction 21
2022-07-26 18:10:57,642 pymodbus.transaction - DEBUG - Changing transaction state from 'PROCESSING REPLY' to 'TRANSACTION_COMPLETE'
2022-07-26 18:10:57,642 pymodbus.transaction - DEBUG - Current transaction state - TRANSACTION_COMPLETE
2022-07-26 18:10:57,642 pymodbus.transaction - DEBUG - Running transaction 22
2022-07-26 18:10:57,642 pymodbus.transaction - DEBUG - SEND: 0x0 0x16 0x0 0x0 0x0 0x6 0x2 0x3 0x0 0x2e 0x0 0x2
2022-07-26 18:10:57,643 pymodbus.client.sync - DEBUG - New Transaction state 'SENDING'
2022-07-26 18:10:57,643 pymodbus.transaction - DEBUG - Changing transaction state from 'SENDING' to 'WAITING FOR REPLY'
2022-07-26 18:10:57,673 pymodbus.transaction - DEBUG - Changing transaction state from 'WAITING FOR REPLY' to 'PROCESSING REPLY'
2022-07-26 18:10:57,673 pymodbus.transaction - DEBUG - RECV: 0x0 0x16 0x0 0x0 0x0 0x7 0x2 0x3 0x4 0x0 0x0 0x0 0x0
2022-07-26 18:10:57,673 pymodbus.framer.socket_framer - DEBUG - Processing: 0x0 0x16 0x0 0x0 0x0 0x7 0x2 0x3 0x4 0x0 0x0 0x0 0x0
2022-07-26 18:10:57,673 pymodbus.factory - DEBUG - Factory Response[ReadHoldingRegistersResponse: 3]
2022-07-26 18:10:57,673 pymodbus.transaction - DEBUG - Adding transaction 22
2022-07-26 18:10:57,673 pymodbus.transaction - DEBUG - Getting transaction 22
2022-07-26 18:10:57,673 pymodbus.transaction - DEBUG - Changing transaction state from 'PROCESSING REPLY' to 'TRANSACTION_COMPLETE'
2022-07-26 18:10:57,673 pymodbus.transaction - DEBUG - Current transaction state - TRANSACTION_COMPLETE
2022-07-26 18:10:57,673 pymodbus.transaction - DEBUG - Running transaction 23
2022-07-26 18:10:57,674 pymodbus.transaction - DEBUG - SEND: 0x0 0x17 0x0 0x0 0x0 0x6 0x2 0x3 0x0 0x30 0x0 0x2
2022-07-26 18:10:57,674 pymodbus.client.sync - DEBUG - New Transaction state 'SENDING'
2022-07-26 18:10:57,674 pymodbus.transaction - DEBUG - Changing transaction state from 'SENDING' to 'WAITING FOR REPLY'
2022-07-26 18:10:57,704 pymodbus.transaction - DEBUG - Changing transaction state from 'WAITING FOR REPLY' to 'PROCESSING REPLY'
2022-07-26 18:10:57,704 pymodbus.transaction - DEBUG - RECV: 0x0 0x17 0x0 0x0 0x0 0x7 0x2 0x3 0x4 0x0 0x0 0x0 0x0
2022-07-26 18:10:57,704 pymodbus.framer.socket_framer - DEBUG - Processing: 0x0 0x17 0x0 0x0 0x0 0x7 0x2 0x3 0x4 0x0 0x0 0x0 0x0
2022-07-26 18:10:57,704 pymodbus.factory - DEBUG - Factory Response[ReadHoldingRegistersResponse: 3]
2022-07-26 18:10:57,704 pymodbus.transaction - DEBUG - Adding transaction 23
2022-07-26 18:10:57,704 pymodbus.transaction - DEBUG - Getting transaction 23
2022-07-26 18:10:57,704 pymodbus.transaction - DEBUG - Changing transaction state from 'PROCESSING REPLY' to 'TRANSACTION_COMPLETE'
2022-07-26 18:10:57,704 pymodbus.transaction - DEBUG - Current transaction state - TRANSACTION_COMPLETE
2022-07-26 18:10:57,705 pymodbus.transaction - DEBUG - Running transaction 24
2022-07-26 18:10:57,705 pymodbus.transaction - DEBUG - SEND: 0x0 0x18 0x0 0x0 0x0 0x6 0x2 0x3 0x0 0x32 0x0 0x2
2022-07-26 18:10:57,705 pymodbus.client.sync - DEBUG - New Transaction state 'SENDING'
2022-07-26 18:10:57,705 pymodbus.transaction - DEBUG - Changing transaction state from 'SENDING' to 'WAITING FOR REPLY'
2022-07-26 18:10:57,734 pymodbus.transaction - DEBUG - Changing transaction state from 'WAITING FOR REPLY' to 'PROCESSING REPLY'
2022-07-26 18:10:57,735 pymodbus.transaction - DEBUG - RECV: 0x0 0x18 0x0 0x0 0x0 0x7 0x2 0x3 0x4 0x0 0x0 0x0 0x0
2022-07-26 18:10:57,735 pymodbus.framer.socket_framer - DEBUG - Processing: 0x0 0x18 0x0 0x0 0x0 0x7 0x2 0x3 0x4 0x0 0x0 0x0 0x0
2022-07-26 18:10:57,735 pymodbus.factory - DEBUG - Factory Response[ReadHoldingRegistersResponse: 3]
2022-07-26 18:10:57,735 pymodbus.transaction - DEBUG - Adding transaction 24
2022-07-26 18:10:57,735 pymodbus.transaction - DEBUG - Getting transaction 24
2022-07-26 18:10:57,735 pymodbus.transaction - DEBUG - Changing transaction state from 'PROCESSING REPLY' to 'TRANSACTION_COMPLETE'
2022-07-26 18:10:57,736 pymodbus.transaction - DEBUG - Current transaction state - TRANSACTION_COMPLETE
2022-07-26 18:10:57,736 pymodbus.transaction - DEBUG - Running transaction 25
2022-07-26 18:10:57,736 pymodbus.transaction - DEBUG - SEND: 0x0 0x19 0x0 0x0 0x0 0x6 0x2 0x3 0x0 0x34 0x0 0x2
2022-07-26 18:10:57,736 pymodbus.client.sync - DEBUG - New Transaction state 'SENDING'
2022-07-26 18:10:57,736 pymodbus.transaction - DEBUG - Changing transaction state from 'SENDING' to 'WAITING FOR REPLY'
2022-07-26 18:10:57,781 pymodbus.transaction - DEBUG - Changing transaction state from 'WAITING FOR REPLY' to 'PROCESSING REPLY'
2022-07-26 18:10:57,781 pymodbus.transaction - DEBUG - RECV: 0x0 0x19 0x0 0x0 0x0 0x7 0x2 0x3 0x4 0x0 0x0 0x0 0x0
2022-07-26 18:10:57,781 pymodbus.framer.socket_framer - DEBUG - Processing: 0x0 0x19 0x0 0x0 0x0 0x7 0x2 0x3 0x4 0x0 0x0 0x0 0x0
2022-07-26 18:10:57,781 pymodbus.factory - DEBUG - Factory Response[ReadHoldingRegistersResponse: 3]
2022-07-26 18:10:57,781 pymodbus.transaction - DEBUG - Adding transaction 25
2022-07-26 18:10:57,781 pymodbus.transaction - DEBUG - Getting transaction 25
2022-07-26 18:10:57,781 pymodbus.transaction - DEBUG - Changing transaction state from 'PROCESSING REPLY' to 'TRANSACTION_COMPLETE'
2022-07-26 18:10:57,781 pymodbus.transaction - DEBUG - Current transaction state - TRANSACTION_COMPLETE
2022-07-26 18:10:57,781 pymodbus.transaction - DEBUG - Running transaction 26
2022-07-26 18:10:57,781 pymodbus.transaction - DEBUG - SEND: 0x0 0x1a 0x0 0x0 0x0 0x6 0x2 0x3 0x0 0x36 0x0 0x2
2022-07-26 18:10:57,781 pymodbus.client.sync - DEBUG - New Transaction state 'SENDING'
2022-07-26 18:10:57,781 pymodbus.transaction - DEBUG - Changing transaction state from 'SENDING' to 'WAITING FOR REPLY'
2022-07-26 18:10:57,811 pymodbus.transaction - DEBUG - Changing transaction state from 'WAITING FOR REPLY' to 'PROCESSING REPLY'
2022-07-26 18:10:57,811 pymodbus.transaction - DEBUG - RECV: 0x0 0x1a 0x0 0x0 0x0 0x7 0x2 0x3 0x4 0x0 0x0 0x0 0x0
2022-07-26 18:10:57,811 pymodbus.framer.socket_framer - DEBUG - Processing: 0x0 0x1a 0x0 0x0 0x0 0x7 0x2 0x3 0x4 0x0 0x0 0x0 0x0
2022-07-26 18:10:57,811 pymodbus.factory - DEBUG - Factory Response[ReadHoldingRegistersResponse: 3]
2022-07-26 18:10:57,811 pymodbus.transaction - DEBUG - Adding transaction 26
2022-07-26 18:10:57,811 pymodbus.transaction - DEBUG - Getting transaction 26
2022-07-26 18:10:57,811 pymodbus.transaction - DEBUG - Changing transaction state from 'PROCESSING REPLY' to 'TRANSACTION_COMPLETE'
2022-07-26 18:10:57,811 pymodbus.transaction - DEBUG - Current transaction state - TRANSACTION_COMPLETE
2022-07-26 18:10:57,811 pymodbus.transaction - DEBUG - Running transaction 27
2022-07-26 18:10:57,812 pymodbus.transaction - DEBUG - SEND: 0x0 0x1b 0x0 0x0 0x0 0x6 0x2 0x3 0x0 0x38 0x0 0x2
2022-07-26 18:10:57,812 pymodbus.client.sync - DEBUG - New Transaction state 'SENDING'
2022-07-26 18:10:57,812 pymodbus.transaction - DEBUG - Changing transaction state from 'SENDING' to 'WAITING FOR REPLY'
2022-07-26 18:10:57,843 pymodbus.transaction - DEBUG - Changing transaction state from 'WAITING FOR REPLY' to 'PROCESSING REPLY'
2022-07-26 18:10:57,843 pymodbus.transaction - DEBUG - RECV: 0x0 0x1b 0x0 0x0 0x0 0x7 0x2 0x3 0x4 0x0 0x0 0x0 0x0
2022-07-26 18:10:57,843 pymodbus.framer.socket_framer - DEBUG - Processing: 0x0 0x1b 0x0 0x0 0x0 0x7 0x2 0x3 0x4 0x0 0x0 0x0 0x0
2022-07-26 18:10:57,843 pymodbus.factory - DEBUG - Factory Response[ReadHoldingRegistersResponse: 3]
2022-07-26 18:10:57,843 pymodbus.transaction - DEBUG - Adding transaction 27
2022-07-26 18:10:57,843 pymodbus.transaction - DEBUG - Getting transaction 27
2022-07-26 18:10:57,843 pymodbus.transaction - DEBUG - Changing transaction state from 'PROCESSING REPLY' to 'TRANSACTION_COMPLETE'
2022-07-26 18:10:57,843 pymodbus.transaction - DEBUG - Current transaction state - TRANSACTION_COMPLETE
2022-07-26 18:10:57,843 pymodbus.transaction - DEBUG - Running transaction 28
2022-07-26 18:10:57,844 pymodbus.transaction - DEBUG - SEND: 0x0 0x1c 0x0 0x0 0x0 0x6 0x2 0x3 0x0 0x3a 0x0 0x2
2022-07-26 18:10:57,844 pymodbus.client.sync - DEBUG - New Transaction state 'SENDING'
2022-07-26 18:10:57,844 pymodbus.transaction - DEBUG - Changing transaction state from 'SENDING' to 'WAITING FOR REPLY'
2022-07-26 18:10:57,873 pymodbus.transaction - DEBUG - Changing transaction state from 'WAITING FOR REPLY' to 'PROCESSING REPLY'
2022-07-26 18:10:57,873 pymodbus.transaction - DEBUG - RECV: 0x0 0x1c 0x0 0x0 0x0 0x7 0x2 0x3 0x4 0x0 0x0 0x0 0x0
2022-07-26 18:10:57,874 pymodbus.framer.socket_framer - DEBUG - Processing: 0x0 0x1c 0x0 0x0 0x0 0x7 0x2 0x3 0x4 0x0 0x0 0x0 0x0
2022-07-26 18:10:57,874 pymodbus.factory - DEBUG - Factory Response[ReadHoldingRegistersResponse: 3]
2022-07-26 18:10:57,874 pymodbus.transaction - DEBUG - Adding transaction 28
2022-07-26 18:10:57,874 pymodbus.transaction - DEBUG - Getting transaction 28
2022-07-26 18:10:57,874 pymodbus.transaction - DEBUG - Changing transaction state from 'PROCESSING REPLY' to 'TRANSACTION_COMPLETE'
2022-07-26 18:10:57,874 pymodbus.transaction - DEBUG - Current transaction state - TRANSACTION_COMPLETE
2022-07-26 18:10:57,874 pymodbus.transaction - DEBUG - Running transaction 29
2022-07-26 18:10:57,874 pymodbus.transaction - DEBUG - SEND: 0x0 0x1d 0x0 0x0 0x0 0x6 0x2 0x3 0x0 0x3c 0x0 0x2
2022-07-26 18:10:57,875 pymodbus.client.sync - DEBUG - New Transaction state 'SENDING'
2022-07-26 18:10:57,875 pymodbus.transaction - DEBUG - Changing transaction state from 'SENDING' to 'WAITING FOR REPLY'
2022-07-26 18:10:57,905 pymodbus.transaction - DEBUG - Changing transaction state from 'WAITING FOR REPLY' to 'PROCESSING REPLY'
2022-07-26 18:10:57,905 pymodbus.transaction - DEBUG - RECV: 0x0 0x1d 0x0 0x0 0x0 0x7 0x2 0x3 0x4 0x0 0x0 0x0 0x0
2022-07-26 18:10:57,905 pymodbus.framer.socket_framer - DEBUG - Processing: 0x0 0x1d 0x0 0x0 0x0 0x7 0x2 0x3 0x4 0x0 0x0 0x0 0x0
2022-07-26 18:10:57,905 pymodbus.factory - DEBUG - Factory Response[ReadHoldingRegistersResponse: 3]
2022-07-26 18:10:57,905 pymodbus.transaction - DEBUG - Adding transaction 29
2022-07-26 18:10:57,905 pymodbus.transaction - DEBUG - Getting transaction 29
2022-07-26 18:10:57,906 pymodbus.transaction - DEBUG - Changing transaction state from 'PROCESSING REPLY' to 'TRANSACTION_COMPLETE'
2022-07-26 18:10:57,906 pymodbus.transaction - DEBUG - Current transaction state - TRANSACTION_COMPLETE
2022-07-26 18:10:57,906 pymodbus.transaction - DEBUG - Running transaction 30
2022-07-26 18:10:57,906 pymodbus.transaction - DEBUG - SEND: 0x0 0x1e 0x0 0x0 0x0 0x6 0x2 0x3 0x0 0x40 0x0 0x2
2022-07-26 18:10:57,906 pymodbus.client.sync - DEBUG - New Transaction state 'SENDING'
2022-07-26 18:10:57,906 pymodbus.transaction - DEBUG - Changing transaction state from 'SENDING' to 'WAITING FOR REPLY'
2022-07-26 18:10:57,936 pymodbus.transaction - DEBUG - Changing transaction state from 'WAITING FOR REPLY' to 'PROCESSING REPLY'
2022-07-26 18:10:57,936 pymodbus.transaction - DEBUG - RECV: 0x0 0x1e 0x0 0x0 0x0 0x7 0x2 0x3 0x4 0x0 0x0 0x0 0x0
2022-07-26 18:10:57,936 pymodbus.framer.socket_framer - DEBUG - Processing: 0x0 0x1e 0x0 0x0 0x0 0x7 0x2 0x3 0x4 0x0 0x0 0x0 0x0
2022-07-26 18:10:57,936 pymodbus.factory - DEBUG - Factory Response[ReadHoldingRegistersResponse: 3]
2022-07-26 18:10:57,937 pymodbus.transaction - DEBUG - Adding transaction 30
2022-07-26 18:10:57,937 pymodbus.transaction - DEBUG - Getting transaction 30
2022-07-26 18:10:57,937 pymodbus.transaction - DEBUG - Changing transaction state from 'PROCESSING REPLY' to 'TRANSACTION_COMPLETE'
2022-07-26 18:10:57,937 pymodbus.transaction - DEBUG - Current transaction state - TRANSACTION_COMPLETE
2022-07-26 18:10:57,937 pymodbus.transaction - DEBUG - Running transaction 31
2022-07-26 18:10:57,937 pymodbus.transaction - DEBUG - SEND: 0x0 0x1f 0x0 0x0 0x0 0x6 0x2 0x3 0x0 0x3e 0x0 0x2
2022-07-26 18:10:57,937 pymodbus.client.sync - DEBUG - New Transaction state 'SENDING'
2022-07-26 18:10:57,937 pymodbus.transaction - DEBUG - Changing transaction state from 'SENDING' to 'WAITING FOR REPLY'
2022-07-26 18:10:57,966 pymodbus.transaction - DEBUG - Changing transaction state from 'WAITING FOR REPLY' to 'PROCESSING REPLY'
2022-07-26 18:10:57,967 pymodbus.transaction - DEBUG - RECV: 0x0 0x1f 0x0 0x0 0x0 0x7 0x2 0x3 0x4 0x0 0x0 0x0 0x0
2022-07-26 18:10:57,967 pymodbus.framer.socket_framer - DEBUG - Processing: 0x0 0x1f 0x0 0x0 0x0 0x7 0x2 0x3 0x4 0x0 0x0 0x0 0x0
2022-07-26 18:10:57,967 pymodbus.factory - DEBUG - Factory Response[ReadHoldingRegistersResponse: 3]
2022-07-26 18:10:57,967 pymodbus.transaction - DEBUG - Adding transaction 31
2022-07-26 18:10:57,967 pymodbus.transaction - DEBUG - Getting transaction 31
2022-07-26 18:10:57,967 pymodbus.transaction - DEBUG - Changing transaction state from 'PROCESSING REPLY' to 'TRANSACTION_COMPLETE'
2022-07-26 18:10:57,967 pymodbus.transaction - DEBUG - Current transaction state - TRANSACTION_COMPLETE
2022-07-26 18:10:57,967 pymodbus.transaction - DEBUG - Running transaction 32
2022-07-26 18:10:57,968 pymodbus.transaction - DEBUG - SEND: 0x0 0x20 0x0 0x0 0x0 0x6 0x2 0x3 0x0 0x66 0x0 0x2
2022-07-26 18:10:57,968 pymodbus.client.sync - DEBUG - New Transaction state 'SENDING'
2022-07-26 18:10:57,968 pymodbus.transaction - DEBUG - Changing transaction state from 'SENDING' to 'WAITING FOR REPLY'
2022-07-26 18:10:57,997 pymodbus.transaction - DEBUG - Changing transaction state from 'WAITING FOR REPLY' to 'PROCESSING REPLY'
2022-07-26 18:10:57,998 pymodbus.transaction - DEBUG - RECV: 0x0 0x20 0x0 0x0 0x0 0x7 0x2 0x3 0x4 0x0 0x0 0x0 0x0
2022-07-26 18:10:57,998 pymodbus.framer.socket_framer - DEBUG - Processing: 0x0 0x20 0x0 0x0 0x0 0x7 0x2 0x3 0x4 0x0 0x0 0x0 0x0
2022-07-26 18:10:57,998 pymodbus.factory - DEBUG - Factory Response[ReadHoldingRegistersResponse: 3]
2022-07-26 18:10:57,998 pymodbus.transaction - DEBUG - Adding transaction 32
2022-07-26 18:10:57,999 pymodbus.transaction - DEBUG - Getting transaction 32
2022-07-26 18:10:57,999 pymodbus.transaction - DEBUG - Changing transaction state from 'PROCESSING REPLY' to 'TRANSACTION_COMPLETE'
2022-07-26 18:10:57,999 pymodbus.transaction - DEBUG - Current transaction state - TRANSACTION_COMPLETE
2022-07-26 18:10:57,999 pymodbus.transaction - DEBUG - Running transaction 33
2022-07-26 18:10:57,999 pymodbus.transaction - DEBUG - SEND: 0x0 0x21 0x0 0x0 0x0 0x6 0x2 0x3 0x0 0x68 0x0 0x2
2022-07-26 18:10:57,999 pymodbus.client.sync - DEBUG - New Transaction state 'SENDING'
2022-07-26 18:10:57,999 pymodbus.transaction - DEBUG - Changing transaction state from 'SENDING' to 'WAITING FOR REPLY'
2022-07-26 18:10:58,030 pymodbus.transaction - DEBUG - Changing transaction state from 'WAITING FOR REPLY' to 'PROCESSING REPLY'
2022-07-26 18:10:58,031 pymodbus.transaction - DEBUG - RECV: 0x0 0x21 0x0 0x0 0x0 0x7 0x2 0x3 0x4 0x0 0x0 0x0 0x0
2022-07-26 18:10:58,032 pymodbus.framer.socket_framer - DEBUG - Processing: 0x0 0x21 0x0 0x0 0x0 0x7 0x2 0x3 0x4 0x0 0x0 0x0 0x0
2022-07-26 18:10:58,032 pymodbus.factory - DEBUG - Factory Response[ReadHoldingRegistersResponse: 3]
2022-07-26 18:10:58,032 pymodbus.transaction - DEBUG - Adding transaction 33
2022-07-26 18:10:58,032 pymodbus.transaction - DEBUG - Getting transaction 33
2022-07-26 18:10:58,032 pymodbus.transaction - DEBUG - Changing transaction state from 'PROCESSING REPLY' to 'TRANSACTION_COMPLETE'
2022-07-26 18:10:58,033 pymodbus.transaction - DEBUG - Current transaction state - TRANSACTION_COMPLETE
2022-07-26 18:10:58,033 pymodbus.transaction - DEBUG - Running transaction 34
2022-07-26 18:10:58,033 pymodbus.transaction - DEBUG - SEND: 0x0 0x22 0x0 0x0 0x0 0x6 0x2 0x3 0x0 0x6e 0x0 0x2
2022-07-26 18:10:58,033 pymodbus.client.sync - DEBUG - New Transaction state 'SENDING'
2022-07-26 18:10:58,033 pymodbus.transaction - DEBUG - Changing transaction state from 'SENDING' to 'WAITING FOR REPLY'
2022-07-26 18:10:58,060 pymodbus.transaction - DEBUG - Changing transaction state from 'WAITING FOR REPLY' to 'PROCESSING REPLY'
2022-07-26 18:10:58,061 pymodbus.transaction - DEBUG - RECV: 0x0 0x22 0x0 0x0 0x0 0x7 0x2 0x3 0x4 0x0 0x0 0x0 0x0
2022-07-26 18:10:58,061 pymodbus.framer.socket_framer - DEBUG - Processing: 0x0 0x22 0x0 0x0 0x0 0x7 0x2 0x3 0x4 0x0 0x0 0x0 0x0
2022-07-26 18:10:58,062 pymodbus.factory - DEBUG - Factory Response[ReadHoldingRegistersResponse: 3]
2022-07-26 18:10:58,062 pymodbus.transaction - DEBUG - Adding transaction 34
2022-07-26 18:10:58,062 pymodbus.transaction - DEBUG - Getting transaction 34
2022-07-26 18:10:58,062 pymodbus.transaction - DEBUG - Changing transaction state from 'PROCESSING REPLY' to 'TRANSACTION_COMPLETE'
2022-07-26 18:10:58,062 pymodbus.transaction - DEBUG - Current transaction state - TRANSACTION_COMPLETE
2022-07-26 18:10:58,062 pymodbus.transaction - DEBUG - Running transaction 35
2022-07-26 18:10:58,062 pymodbus.transaction - DEBUG - SEND: 0x0 0x23 0x0 0x0 0x0 0x6 0x2 0x3 0x0 0x70 0x0 0x2
2022-07-26 18:10:58,062 pymodbus.client.sync - DEBUG - New Transaction state 'SENDING'
2022-07-26 18:10:58,062 pymodbus.transaction - DEBUG - Changing transaction state from 'SENDING' to 'WAITING FOR REPLY'
2022-07-26 18:10:58,092 pymodbus.transaction - DEBUG - Changing transaction state from 'WAITING FOR REPLY' to 'PROCESSING REPLY'
2022-07-26 18:10:58,092 pymodbus.transaction - DEBUG - RECV: 0x0 0x23 0x0 0x0 0x0 0x7 0x2 0x3 0x4 0x0 0x0 0x0 0x0
2022-07-26 18:10:58,092 pymodbus.framer.socket_framer - DEBUG - Processing: 0x0 0x23 0x0 0x0 0x0 0x7 0x2 0x3 0x4 0x0 0x0 0x0 0x0
2022-07-26 18:10:58,092 pymodbus.factory - DEBUG - Factory Response[ReadHoldingRegistersResponse: 3]
2022-07-26 18:10:58,093 pymodbus.transaction - DEBUG - Adding transaction 35
2022-07-26 18:10:58,093 pymodbus.transaction - DEBUG - Getting transaction 35
2022-07-26 18:10:58,093 pymodbus.transaction - DEBUG - Changing transaction state from 'PROCESSING REPLY' to 'TRANSACTION_COMPLETE'
2022-07-26 18:10:58,093 log1 - DEBUG - Reading Register Complete
2022-07-26 18:10:58,095 log1 - DEBUG - Posting Data to DB
2022-07-26 18:10:58,102 urllib3.connectionpool - DEBUG - Starting new HTTP connection (1): 192.168.1.36:4000
2022-07-26 18:10:58,125 urllib3.connectionpool - DEBUG - http://192.168.1.36:4000 "POST /data HTTP/1.1" 200 20
2022-07-26 18:10:58,126 root - DEBUG - {"index":0,"code":2}
2022-07-26 18:10:58,126 log1 - DEBUG - POST Complete
2022-07-26 18:10:58,127 log1 - DEBUG - Sending to Local DB
2022-07-26 18:10:58,157 log1 - DEBUG - Local DB document inserted
2022-07-26 18:11:03,165 root - DEBUG - Reading Registers
2022-07-26 18:11:03,166 log1 - DEBUG - Reading Registers
2022-07-26 18:11:03,167 pymodbus.transaction - DEBUG - Current transaction state - TRANSACTION_COMPLETE
2022-07-26 18:11:03,167 pymodbus.transaction - DEBUG - Running transaction 36
2022-07-26 18:11:03,167 pymodbus.transaction - DEBUG - SEND: 0x0 0x24 0x0 0x0 0x0 0x6 0x2 0x3 0x0 0x0 0x0 0x2
2022-07-26 18:11:03,167 pymodbus.client.sync - DEBUG - New Transaction state 'SENDING'
2022-07-26 18:11:03,168 pymodbus.transaction - DEBUG - Changing transaction state from 'SENDING' to 'WAITING FOR REPLY'
2022-07-26 18:11:03,180 pymodbus.transaction - DEBUG - Changing transaction state from 'WAITING FOR REPLY' to 'PROCESSING REPLY'
2022-07-26 18:11:03,181 pymodbus.transaction - DEBUG - RECV: 0x0 0x24 0x0 0x0 0x0 0x7 0x2 0x3 0x4 0x0 0x0 0xff 0xfe
2022-07-26 18:11:03,181 pymodbus.framer.socket_framer - DEBUG - Processing: 0x0 0x24 0x0 0x0 0x0 0x7 0x2 0x3 0x4 0x0 0x0 0xff 0xfe
2022-07-26 18:11:03,181 pymodbus.factory - DEBUG - Factory Response[ReadHoldingRegistersResponse: 3]
2022-07-26 18:11:03,181 pymodbus.transaction - DEBUG - Adding transaction 36
2022-07-26 18:11:03,182 pymodbus.transaction - DEBUG - Getting transaction 36
2022-07-26 18:11:03,182 pymodbus.transaction - DEBUG - Changing transaction state from 'PROCESSING REPLY' to 'TRANSACTION_COMPLETE'
2022-07-26 18:11:03,182 pymodbus.transaction - DEBUG - Current transaction state - TRANSACTION_COMPLETE
2022-07-26 18:11:03,182 pymodbus.transaction - DEBUG - Running transaction 37
2022-07-26 18:11:03,182 pymodbus.transaction - DEBUG - SEND: 0x0 0x25 0x0 0x0 0x0 0x6 0x2 0x3 0x0 0x2 0x0 0x2
2022-07-26 18:11:03,182 pymodbus.client.sync - DEBUG - New Transaction state 'SENDING'
2022-07-26 18:11:03,182 pymodbus.transaction - DEBUG - Changing transaction state from 'SENDING' to 'WAITING FOR REPLY'
2022-07-26 18:11:03,211 pymodbus.transaction - DEBUG - Changing transaction state from 'WAITING FOR REPLY' to 'PROCESSING REPLY'
2022-07-26 18:11:03,212 pymodbus.transaction - DEBUG - RECV: 0x0 0x25 0x0 0x0 0x0 0x7 0x2 0x3 0x4 0x0 0x0 0x0 0x50
2022-07-26 18:11:03,212 pymodbus.framer.socket_framer - DEBUG - Processing: 0x0 0x25 0x0 0x0 0x0 0x7 0x2 0x3 0x4 0x0 0x0 0x0 0x50
2022-07-26 18:11:03,212 pymodbus.factory - DEBUG - Factory Response[ReadHoldingRegistersResponse: 3]
2022-07-26 18:11:03,212 pymodbus.transaction - DEBUG - Adding transaction 37
2022-07-26 18:11:03,212 pymodbus.transaction - DEBUG - Getting transaction 37
2022-07-26 18:11:03,212 pymodbus.transaction - DEBUG - Changing transaction state from 'PROCESSING REPLY' to 'TRANSACTION_COMPLETE'
2022-07-26 18:11:03,212 pymodbus.transaction - DEBUG - Current transaction state - TRANSACTION_COMPLETE
2022-07-26 18:11:03,212 pymodbus.transaction - DEBUG - Running transaction 38
2022-07-26 18:11:03,213 pymodbus.transaction - DEBUG - SEND: 0x0 0x26 0x0 0x0 0x0 0x6 0x2 0x3 0x0 0x4 0x0 0x2
2022-07-26 18:11:03,213 pymodbus.client.sync - DEBUG - New Transaction state 'SENDING'
2022-07-26 18:11:03,213 pymodbus.transaction - DEBUG - Changing transaction state from 'SENDING' to 'WAITING FOR REPLY'
2022-07-26 18:11:03,242 pymodbus.transaction - DEBUG - Changing transaction state from 'WAITING FOR REPLY' to 'PROCESSING REPLY'
2022-07-26 18:11:03,242 pymodbus.transaction - DEBUG - RECV: 0x0 0x26 0x0 0x0 0x0 0x7 0x2 0x3 0x4 0x0 0x0 0x0 0x17
2022-07-26 18:11:03,243 pymodbus.framer.socket_framer - DEBUG - Processing: 0x0 0x26 0x0 0x0 0x0 0x7 0x2 0x3 0x4 0x0 0x0 0x0 0x17
2022-07-26 18:11:03,243 pymodbus.factory - DEBUG - Factory Response[ReadHoldingRegistersResponse: 3]
2022-07-26 18:11:03,243 pymodbus.transaction - DEBUG - Adding transaction 38
2022-07-26 18:11:03,243 pymodbus.transaction - DEBUG - Getting transaction 38
2022-07-26 18:11:03,243 pymodbus.transaction - DEBUG - Changing transaction state from 'PROCESSING REPLY' to 'TRANSACTION_COMPLETE'
2022-07-26 18:11:03,243 pymodbus.transaction - DEBUG - Current transaction state - TRANSACTION_COMPLETE
2022-07-26 18:11:03,244 pymodbus.transaction - DEBUG - Running transaction 39
2022-07-26 18:11:03,244 pymodbus.transaction - DEBUG - SEND: 0x0 0x27 0x0 0x0 0x0 0x6 0x2 0x3 0x0 0x6 0x0 0x2
2022-07-26 18:11:03,244 pymodbus.client.sync - DEBUG - New Transaction state 'SENDING'
2022-07-26 18:11:03,244 pymodbus.transaction - DEBUG - Changing transaction state from 'SENDING' to 'WAITING FOR REPLY'
2022-07-26 18:11:03,273 pymodbus.transaction - DEBUG - Changing transaction state from 'WAITING FOR REPLY' to 'PROCESSING REPLY'
2022-07-26 18:11:03,273 pymodbus.transaction - DEBUG - RECV: 0x0 0x27 0x0 0x0 0x0 0x7 0x2 0x3 0x4 0x0 0x0 0x0 0x4
2022-07-26 18:11:03,274 pymodbus.framer.socket_framer - DEBUG - Processing: 0x0 0x27 0x0 0x0 0x0 0x7 0x2 0x3 0x4 0x0 0x0 0x0 0x4
2022-07-26 18:11:03,274 pymodbus.factory - DEBUG - Factory Response[ReadHoldingRegistersResponse: 3]
2022-07-26 18:11:03,274 pymodbus.transaction - DEBUG - Adding transaction 39
2022-07-26 18:11:03,274 pymodbus.transaction - DEBUG - Getting transaction 39
2022-07-26 18:11:03,274 pymodbus.transaction - DEBUG - Changing transaction state from 'PROCESSING REPLY' to 'TRANSACTION_COMPLETE'
2022-07-26 18:11:03,274 pymodbus.transaction - DEBUG - Current transaction state - TRANSACTION_COMPLETE
2022-07-26 18:11:03,274 pymodbus.transaction - DEBUG - Running transaction 40
2022-07-26 18:11:03,274 pymodbus.transaction - DEBUG - SEND: 0x0 0x28 0x0 0x0 0x0 0x6 0x2 0x3 0x0 0xc 0x0 0x2
2022-07-26 18:11:03,274 pymodbus.client.sync - DEBUG - New Transaction state 'SENDING'
2022-07-26 18:11:03,274 pymodbus.transaction - DEBUG - Changing transaction state from 'SENDING' to 'WAITING FOR REPLY'
2022-07-26 18:11:03,305 pymodbus.transaction - DEBUG - Changing transaction state from 'WAITING FOR REPLY' to 'PROCESSING REPLY'
2022-07-26 18:11:03,305 pymodbus.transaction - DEBUG - RECV: 0x0 0x28 0x0 0x0 0x0 0x7 0x2 0x3 0x4 0x0 0x0 0x0 0x0
2022-07-26 18:11:03,305 pymodbus.framer.socket_framer - DEBUG - Processing: 0x0 0x28 0x0 0x0 0x0 0x7 0x2 0x3 0x4 0x0 0x0 0x0 0x0
2022-07-26 18:11:03,306 pymodbus.factory - DEBUG - Factory Response[ReadHoldingRegistersResponse: 3]
2022-07-26 18:11:03,306 pymodbus.transaction - DEBUG - Adding transaction 40
2022-07-26 18:11:03,306 pymodbus.transaction - DEBUG - Getting transaction 40
2022-07-26 18:11:03,306 pymodbus.transaction - DEBUG - Changing transaction state from 'PROCESSING REPLY' to 'TRANSACTION_COMPLETE'
2022-07-26 18:11:03,306 pymodbus.transaction - DEBUG - Current transaction state - TRANSACTION_COMPLETE
2022-07-26 18:11:03,306 pymodbus.transaction - DEBUG - Running transaction 41
2022-07-26 18:11:03,306 pymodbus.transaction - DEBUG - SEND: 0x0 0x29 0x0 0x0 0x0 0x6 0x2 0x3 0x0 0xe 0x0 0x2
2022-07-26 18:11:03,306 pymodbus.client.sync - DEBUG - New Transaction state 'SENDING'
2022-07-26 18:11:03,307 pymodbus.transaction - DEBUG - Changing transaction state from 'SENDING' to 'WAITING FOR REPLY'
2022-07-26 18:11:03,336 pymodbus.transaction - DEBUG - Changing transaction state from 'WAITING FOR REPLY' to 'PROCESSING REPLY'
2022-07-26 18:11:03,336 pymodbus.transaction - DEBUG - RECV: 0x0 0x29 0x0 0x0 0x0 0x7 0x2 0x3 0x4 0x0 0x0 0x0 0x0
2022-07-26 18:11:03,336 pymodbus.framer.socket_framer - DEBUG - Processing: 0x0 0x29 0x0 0x0 0x0 0x7 0x2 0x3 0x4 0x0 0x0 0x0 0x0
2022-07-26 18:11:03,336 pymodbus.factory - DEBUG - Factory Response[ReadHoldingRegistersResponse: 3]
2022-07-26 18:11:03,336 pymodbus.transaction - DEBUG - Adding transaction 41
2022-07-26 18:11:03,336 pymodbus.transaction - DEBUG - Getting transaction 41
2022-07-26 18:11:03,336 pymodbus.transaction - DEBUG - Changing transaction state from 'PROCESSING REPLY' to 'TRANSACTION_COMPLETE'
2022-07-26 18:11:03,336 pymodbus.transaction - DEBUG - Current transaction state - TRANSACTION_COMPLETE
2022-07-26 18:11:03,336 pymodbus.transaction - DEBUG - Running transaction 42
2022-07-26 18:11:03,337 pymodbus.transaction - DEBUG - SEND: 0x0 0x2a 0x0 0x0 0x0 0x6 0x2 0x3 0x0 0x10 0x0 0x2
2022-07-26 18:11:03,337 pymodbus.client.sync - DEBUG - New Transaction state 'SENDING'
2022-07-26 18:11:03,337 pymodbus.transaction - DEBUG - Changing transaction state from 'SENDING' to 'WAITING FOR REPLY'
2022-07-26 18:11:03,367 pymodbus.transaction - DEBUG - Changing transaction state from 'WAITING FOR REPLY' to 'PROCESSING REPLY'
2022-07-26 18:11:03,367 pymodbus.transaction - DEBUG - RECV: 0x0 0x2a 0x0 0x0 0x0 0x7 0x2 0x3 0x4 0x0 0x0 0x0 0x0
2022-07-26 18:11:03,368 pymodbus.framer.socket_framer - DEBUG - Processing: 0x0 0x2a 0x0 0x0 0x0 0x7 0x2 0x3 0x4 0x0 0x0 0x0 0x0
2022-07-26 18:11:03,368 pymodbus.factory - DEBUG - Factory Response[ReadHoldingRegistersResponse: 3]
2022-07-26 18:11:03,368 pymodbus.transaction - DEBUG - Adding transaction 42
2022-07-26 18:11:03,368 pymodbus.transaction - DEBUG - Getting transaction 42
2022-07-26 18:11:03,369 pymodbus.transaction - DEBUG - Changing transaction state from 'PROCESSING REPLY' to 'TRANSACTION_COMPLETE'
2022-07-26 18:11:03,369 pymodbus.transaction - DEBUG - Current transaction state - TRANSACTION_COMPLETE
2022-07-26 18:11:03,369 pymodbus.transaction - DEBUG - Running transaction 43
2022-07-26 18:11:03,369 pymodbus.transaction - DEBUG - SEND: 0x0 0x2b 0x0 0x0 0x0 0x6 0x2 0x3 0x0 0x12 0x0 0x2
2022-07-26 18:11:03,369 pymodbus.client.sync - DEBUG - New Transaction state 'SENDING'
2022-07-26 18:11:03,369 pymodbus.transaction - DEBUG - Changing transaction state from 'SENDING' to 'WAITING FOR REPLY'
2022-07-26 18:11:03,398 pymodbus.transaction - DEBUG - Changing transaction state from 'WAITING FOR REPLY' to 'PROCESSING REPLY'
2022-07-26 18:11:03,398 pymodbus.transaction - DEBUG - RECV: 0x0 0x2b 0x0 0x0 0x0 0x7 0x2 0x3 0x4 0x0 0x0 0xff 0xfe
2022-07-26 18:11:03,398 pymodbus.framer.socket_framer - DEBUG - Processing: 0x0 0x2b 0x0 0x0 0x0 0x7 0x2 0x3 0x4 0x0 0x0 0xff 0xfe
2022-07-26 18:11:03,399 pymodbus.factory - DEBUG - Factory Response[ReadHoldingRegistersResponse: 3]
2022-07-26 18:11:03,399 pymodbus.transaction - DEBUG - Adding transaction 43
2022-07-26 18:11:03,399 pymodbus.transaction - DEBUG - Getting transaction 43
2022-07-26 18:11:03,399 pymodbus.transaction - DEBUG - Changing transaction state from 'PROCESSING REPLY' to 'TRANSACTION_COMPLETE'
2022-07-26 18:11:03,399 pymodbus.transaction - DEBUG - Current transaction state - TRANSACTION_COMPLETE
2022-07-26 18:11:03,399 pymodbus.transaction - DEBUG - Running transaction 44
2022-07-26 18:11:03,399 pymodbus.transaction - DEBUG - SEND: 0x0 0x2c 0x0 0x0 0x0 0x6 0x2 0x3 0x0 0x14 0x0 0x2
2022-07-26 18:11:03,399 pymodbus.client.sync - DEBUG - New Transaction state 'SENDING'
2022-07-26 18:11:03,399 pymodbus.transaction - DEBUG - Changing transaction state from 'SENDING' to 'WAITING FOR REPLY'
2022-07-26 18:11:03,429 pymodbus.transaction - DEBUG - Changing transaction state from 'WAITING FOR REPLY' to 'PROCESSING REPLY'
2022-07-26 18:11:03,429 pymodbus.transaction - DEBUG - RECV: 0x0 0x2c 0x0 0x0 0x0 0x7 0x2 0x3 0x4 0x0 0x0 0x0 0x0
2022-07-26 18:11:03,430 pymodbus.framer.socket_framer - DEBUG - Processing: 0x0 0x2c 0x0 0x0 0x0 0x7 0x2 0x3 0x4 0x0 0x0 0x0 0x0
2022-07-26 18:11:03,430 pymodbus.factory - DEBUG - Factory Response[ReadHoldingRegistersResponse: 3]
2022-07-26 18:11:03,430 pymodbus.transaction - DEBUG - Adding transaction 44
2022-07-26 18:11:03,430 pymodbus.transaction - DEBUG - Getting transaction 44
2022-07-26 18:11:03,430 pymodbus.transaction - DEBUG - Changing transaction state from 'PROCESSING REPLY' to 'TRANSACTION_COMPLETE'
2022-07-26 18:11:03,430 pymodbus.transaction - DEBUG - Current transaction state - TRANSACTION_COMPLETE
2022-07-26 18:11:03,430 pymodbus.transaction - DEBUG - Running transaction 45
2022-07-26 18:11:03,430 pymodbus.transaction - DEBUG - SEND: 0x0 0x2d 0x0 0x0 0x0 0x6 0x2 0x3 0x0 0x16 0x0 0x2
2022-07-26 18:11:03,431 pymodbus.client.sync - DEBUG - New Transaction state 'SENDING'
2022-07-26 18:11:03,431 pymodbus.transaction - DEBUG - Changing transaction state from 'SENDING' to 'WAITING FOR REPLY'
2022-07-26 18:11:03,461 pymodbus.transaction - DEBUG - Changing transaction state from 'WAITING FOR REPLY' to 'PROCESSING REPLY'
2022-07-26 18:11:03,461 pymodbus.transaction - DEBUG - RECV: 0x0 0x2d 0x0 0x0 0x0 0x7 0x2 0x3 0x4 0x0 0x0 0x0 0x0
2022-07-26 18:11:03,462 pymodbus.framer.socket_framer - DEBUG - Processing: 0x0 0x2d 0x0 0x0 0x0 0x7 0x2 0x3 0x4 0x0 0x0 0x0 0x0
2022-07-26 18:11:03,462 pymodbus.factory - DEBUG - Factory Response[ReadHoldingRegistersResponse: 3]
2022-07-26 18:11:03,462 pymodbus.transaction - DEBUG - Adding transaction 45
2022-07-26 18:11:03,462 pymodbus.transaction - DEBUG - Getting transaction 45
2022-07-26 18:11:03,462 pymodbus.transaction - DEBUG - Changing transaction state from 'PROCESSING REPLY' to 'TRANSACTION_COMPLETE'
2022-07-26 18:11:03,462 pymodbus.transaction - DEBUG - Current transaction state - TRANSACTION_COMPLETE
2022-07-26 18:11:03,462 pymodbus.transaction - DEBUG - Running transaction 46
2022-07-26 18:11:03,462 pymodbus.transaction - DEBUG - SEND: 0x0 0x2e 0x0 0x0 0x0 0x6 0x2 0x3 0x0 0x18 0x0 0x2
2022-07-26 18:11:03,463 pymodbus.client.sync - DEBUG - New Transaction state 'SENDING'
2022-07-26 18:11:03,463 pymodbus.transaction - DEBUG - Changing transaction state from 'SENDING' to 'WAITING FOR REPLY'
2022-07-26 18:11:03,493 pymodbus.transaction - DEBUG - Changing transaction state from 'WAITING FOR REPLY' to 'PROCESSING REPLY'
2022-07-26 18:11:03,493 pymodbus.transaction - DEBUG - RECV: 0x0 0x2e 0x0 0x0 0x0 0x7 0x2 0x3 0x4 0x0 0x0 0x0 0x0
2022-07-26 18:11:03,493 pymodbus.framer.socket_framer - DEBUG - Processing: 0x0 0x2e 0x0 0x0 0x0 0x7 0x2 0x3 0x4 0x0 0x0 0x0 0x0
2022-07-26 18:11:03,493 pymodbus.factory - DEBUG - Factory Response[ReadHoldingRegistersResponse: 3]
2022-07-26 18:11:03,493 pymodbus.transaction - DEBUG - Adding transaction 46
2022-07-26 18:11:03,494 pymodbus.transaction - DEBUG - Getting transaction 46
2022-07-26 18:11:03,494 pymodbus.transaction - DEBUG - Changing transaction state from 'PROCESSING REPLY' to 'TRANSACTION_COMPLETE'
2022-07-26 18:11:03,494 pymodbus.transaction - DEBUG - Current transaction state - TRANSACTION_COMPLETE
2022-07-26 18:11:03,494 pymodbus.transaction - DEBUG - Running transaction 47
2022-07-26 18:11:03,494 pymodbus.transaction - DEBUG - SEND: 0x0 0x2f 0x0 0x0 0x0 0x6 0x2 0x3 0x0 0x1a 0x0 0x2
2022-07-26 18:11:03,494 pymodbus.client.sync - DEBUG - New Transaction state 'SENDING'
2022-07-26 18:11:03,494 pymodbus.transaction - DEBUG - Changing transaction state from 'SENDING' to 'WAITING FOR REPLY'
2022-07-26 18:11:03,523 pymodbus.transaction - DEBUG - Changing transaction state from 'WAITING FOR REPLY' to 'PROCESSING REPLY'
2022-07-26 18:11:03,523 pymodbus.transaction - DEBUG - RECV: 0x0 0x2f 0x0 0x0 0x0 0x7 0x2 0x3 0x4 0x0 0x0 0x0 0x0
2022-07-26 18:11:03,523 pymodbus.framer.socket_framer - DEBUG - Processing: 0x0 0x2f 0x0 0x0 0x0 0x7 0x2 0x3 0x4 0x0 0x0 0x0 0x0
2022-07-26 18:11:03,523 pymodbus.factory - DEBUG - Factory Response[ReadHoldingRegistersResponse: 3]
2022-07-26 18:11:03,523 pymodbus.transaction - DEBUG - Adding transaction 47
2022-07-26 18:11:03,523 pymodbus.transaction - DEBUG - Getting transaction 47
2022-07-26 18:11:03,523 pymodbus.transaction - DEBUG - Changing transaction state from 'PROCESSING REPLY' to 'TRANSACTION_COMPLETE'
2022-07-26 18:11:03,524 pymodbus.transaction - DEBUG - Current transaction state - TRANSACTION_COMPLETE
2022-07-26 18:11:03,524 pymodbus.transaction - DEBUG - Running transaction 48
2022-07-26 18:11:03,524 pymodbus.transaction - DEBUG - SEND: 0x0 0x30 0x0 0x0 0x0 0x6 0x2 0x3 0x0 0x1c 0x0 0x2
2022-07-26 18:11:03,524 pymodbus.client.sync - DEBUG - New Transaction state 'SENDING'
2022-07-26 18:11:03,524 pymodbus.transaction - DEBUG - Changing transaction state from 'SENDING' to 'WAITING FOR REPLY'
2022-07-26 18:11:03,555 pymodbus.transaction - DEBUG - Changing transaction state from 'WAITING FOR REPLY' to 'PROCESSING REPLY'
2022-07-26 18:11:03,555 pymodbus.transaction - DEBUG - RECV: 0x0 0x30 0x0 0x0 0x0 0x7 0x2 0x3 0x4 0x0 0x0 0x0 0x0
2022-07-26 18:11:03,555 pymodbus.framer.socket_framer - DEBUG - Processing: 0x0 0x30 0x0 0x0 0x0 0x7 0x2 0x3 0x4 0x0 0x0 0x0 0x0
2022-07-26 18:11:03,555 pymodbus.factory - DEBUG - Factory Response[ReadHoldingRegistersResponse: 3]
2022-07-26 18:11:03,555 pymodbus.transaction - DEBUG - Adding transaction 48
2022-07-26 18:11:03,555 pymodbus.transaction - DEBUG - Getting transaction 48
2022-07-26 18:11:03,555 pymodbus.transaction - DEBUG - Changing transaction state from 'PROCESSING REPLY' to 'TRANSACTION_COMPLETE'
2022-07-26 18:11:03,555 pymodbus.transaction - DEBUG - Current transaction state - TRANSACTION_COMPLETE
2022-07-26 18:11:03,555 pymodbus.transaction - DEBUG - Running transaction 49
2022-07-26 18:11:03,555 pymodbus.transaction - DEBUG - SEND: 0x0 0x31 0x0 0x0 0x0 0x6 0x2 0x3 0x0 0x1e 0x0 0x2
2022-07-26 18:11:03,556 pymodbus.client.sync - DEBUG - New Transaction state 'SENDING'
2022-07-26 18:11:03,556 pymodbus.transaction - DEBUG - Changing transaction state from 'SENDING' to 'WAITING FOR REPLY'
2022-07-26 18:11:03,586 pymodbus.transaction - DEBUG - Changing transaction state from 'WAITING FOR REPLY' to 'PROCESSING REPLY'
2022-07-26 18:11:03,586 pymodbus.transaction - DEBUG - RECV: 0x0 0x31 0x0 0x0 0x0 0x7 0x2 0x3 0x4 0x0 0x0 0x0 0x0
2022-07-26 18:11:03,586 pymodbus.framer.socket_framer - DEBUG - Processing: 0x0 0x31 0x0 0x0 0x0 0x7 0x2 0x3 0x4 0x0 0x0 0x0 0x0
2022-07-26 18:11:03,586 pymodbus.factory - DEBUG - Factory Response[ReadHoldingRegistersResponse: 3]
2022-07-26 18:11:03,586 pymodbus.transaction - DEBUG - Adding transaction 49
2022-07-26 18:11:03,586 pymodbus.transaction - DEBUG - Getting transaction 49
2022-07-26 18:11:03,586 pymodbus.transaction - DEBUG - Changing transaction state from 'PROCESSING REPLY' to 'TRANSACTION_COMPLETE'
2022-07-26 18:11:03,586 pymodbus.transaction - DEBUG - Current transaction state - TRANSACTION_COMPLETE
2022-07-26 18:11:03,586 pymodbus.transaction - DEBUG - Running transaction 50
2022-07-26 18:11:03,586 pymodbus.transaction - DEBUG - SEND: 0x0 0x32 0x0 0x0 0x0 0x6 0x2 0x3 0x0 0x20 0x0 0x2
2022-07-26 18:11:03,586 pymodbus.client.sync - DEBUG - New Transaction state 'SENDING'
2022-07-26 18:11:03,586 pymodbus.transaction - DEBUG - Changing transaction state from 'SENDING' to 'WAITING FOR REPLY'
2022-07-26 18:11:03,617 pymodbus.transaction - DEBUG - Changing transaction state from 'WAITING FOR REPLY' to 'PROCESSING REPLY'
2022-07-26 18:11:03,617 pymodbus.transaction - DEBUG - RECV: 0x0 0x32 0x0 0x0 0x0 0x7 0x2 0x3 0x4 0x0 0x0 0x0 0x0
2022-07-26 18:11:03,617 pymodbus.framer.socket_framer - DEBUG - Processing: 0x0 0x32 0x0 0x0 0x0 0x7 0x2 0x3 0x4 0x0 0x0 0x0 0x0
2022-07-26 18:11:03,617 pymodbus.factory - DEBUG - Factory Response[ReadHoldingRegistersResponse: 3]
2022-07-26 18:11:03,618 pymodbus.transaction - DEBUG - Adding transaction 50
2022-07-26 18:11:03,618 pymodbus.transaction - DEBUG - Getting transaction 50
2022-07-26 18:11:03,618 pymodbus.transaction - DEBUG - Changing transaction state from 'PROCESSING REPLY' to 'TRANSACTION_COMPLETE'
2022-07-26 18:11:03,618 pymodbus.transaction - DEBUG - Current transaction state - TRANSACTION_COMPLETE
2022-07-26 18:11:03,618 pymodbus.transaction - DEBUG - Running transaction 51
2022-07-26 18:11:03,618 pymodbus.transaction - DEBUG - SEND: 0x0 0x33 0x0 0x0 0x0 0x6 0x2 0x3 0x0 0x22 0x0 0x2
2022-07-26 18:11:03,618 pymodbus.client.sync - DEBUG - New Transaction state 'SENDING'
2022-07-26 18:11:03,619 pymodbus.transaction - DEBUG - Changing transaction state from 'SENDING' to 'WAITING FOR REPLY'
2022-07-26 18:11:03,648 pymodbus.transaction - DEBUG - Changing transaction state from 'WAITING FOR REPLY' to 'PROCESSING REPLY'
2022-07-26 18:11:03,648 pymodbus.transaction - DEBUG - RECV: 0x0 0x33 0x0 0x0 0x0 0x7 0x2 0x3 0x4 0x0 0x0 0x0 0x0
2022-07-26 18:11:03,648 pymodbus.framer.socket_framer - DEBUG - Processing: 0x0 0x33 0x0 0x0 0x0 0x7 0x2 0x3 0x4 0x0 0x0 0x0 0x0
2022-07-26 18:11:03,648 pymodbus.factory - DEBUG - Factory Response[ReadHoldingRegistersResponse: 3]
2022-07-26 18:11:03,648 pymodbus.transaction - DEBUG - Adding transaction 51
2022-07-26 18:11:03,648 pymodbus.transaction - DEBUG - Getting transaction 51
2022-07-26 18:11:03,648 pymodbus.transaction - DEBUG - Changing transaction state from 'PROCESSING REPLY' to 'TRANSACTION_COMPLETE'
2022-07-26 18:11:03,648 pymodbus.transaction - DEBUG - Current transaction state - TRANSACTION_COMPLETE
2022-07-26 18:11:03,648 pymodbus.transaction - DEBUG - Running transaction 52
2022-07-26 18:11:03,648 pymodbus.transaction - DEBUG - SEND: 0x0 0x34 0x0 0x0 0x0 0x6 0x2 0x3 0x0 0x24 0x0 0x2
2022-07-26 18:11:03,648 pymodbus.client.sync - DEBUG - New Transaction state 'SENDING'
2022-07-26 18:11:03,648 pymodbus.transaction - DEBUG - Changing transaction state from 'SENDING' to 'WAITING FOR REPLY'
2022-07-26 18:11:03,680 pymodbus.transaction - DEBUG - Changing transaction state from 'WAITING FOR REPLY' to 'PROCESSING REPLY'
2022-07-26 18:11:03,680 pymodbus.transaction - DEBUG - RECV: 0x0 0x34 0x0 0x0 0x0 0x7 0x2 0x3 0x4 0x0 0x0 0x0 0x0
2022-07-26 18:11:03,680 pymodbus.framer.socket_framer - DEBUG - Processing: 0x0 0x34 0x0 0x0 0x0 0x7 0x2 0x3 0x4 0x0 0x0 0x0 0x0
2022-07-26 18:11:03,680 pymodbus.factory - DEBUG - Factory Response[ReadHoldingRegistersResponse: 3]
2022-07-26 18:11:03,680 pymodbus.transaction - DEBUG - Adding transaction 52
2022-07-26 18:11:03,680 pymodbus.transaction - DEBUG - Getting transaction 52
2022-07-26 18:11:03,680 pymodbus.transaction - DEBUG - Changing transaction state from 'PROCESSING REPLY' to 'TRANSACTION_COMPLETE'
2022-07-26 18:11:03,680 pymodbus.transaction - DEBUG - Current transaction state - TRANSACTION_COMPLETE
2022-07-26 18:11:03,680 pymodbus.transaction - DEBUG - Running transaction 53
2022-07-26 18:11:03,680 pymodbus.transaction - DEBUG - SEND: 0x0 0x35 0x0 0x0 0x0 0x6 0x2 0x3 0x0 0x26 0x0 0x2
2022-07-26 18:11:03,681 pymodbus.client.sync - DEBUG - New Transaction state 'SENDING'
2022-07-26 18:11:03,681 pymodbus.transaction - DEBUG - Changing transaction state from 'SENDING' to 'WAITING FOR REPLY'
2022-07-26 18:11:03,710 pymodbus.transaction - DEBUG - Changing transaction state from 'WAITING FOR REPLY' to 'PROCESSING REPLY'
2022-07-26 18:11:03,710 pymodbus.transaction - DEBUG - RECV: 0x0 0x35 0x0 0x0 0x0 0x7 0x2 0x3 0x4 0x0 0x0 0x0 0x0
2022-07-26 18:11:03,710 pymodbus.framer.socket_framer - DEBUG - Processing: 0x0 0x35 0x0 0x0 0x0 0x7 0x2 0x3 0x4 0x0 0x0 0x0 0x0
2022-07-26 18:11:03,711 pymodbus.factory - DEBUG - Factory Response[ReadHoldingRegistersResponse: 3]
2022-07-26 18:11:03,712 pymodbus.transaction - DEBUG - Adding transaction 53
2022-07-26 18:11:03,712 pymodbus.transaction - DEBUG - Getting transaction 53
2022-07-26 18:11:03,712 pymodbus.transaction - DEBUG - Changing transaction state from 'PROCESSING REPLY' to 'TRANSACTION_COMPLETE'
2022-07-26 18:11:03,712 pymodbus.transaction - DEBUG - Current transaction state - TRANSACTION_COMPLETE
2022-07-26 18:11:03,712 pymodbus.transaction - DEBUG - Running transaction 54
2022-07-26 18:11:03,712 pymodbus.transaction - DEBUG - SEND: 0x0 0x36 0x0 0x0 0x0 0x6 0x2 0x3 0x0 0x28 0x0 0x2
2022-07-26 18:11:03,712 pymodbus.client.sync - DEBUG - New Transaction state 'SENDING'
2022-07-26 18:11:03,713 pymodbus.transaction - DEBUG - Changing transaction state from 'SENDING' to 'WAITING FOR REPLY'
2022-07-26 18:11:03,742 pymodbus.transaction - DEBUG - Changing transaction state from 'WAITING FOR REPLY' to 'PROCESSING REPLY'
2022-07-26 18:11:03,742 pymodbus.transaction - DEBUG - RECV: 0x0 0x36 0x0 0x0 0x0 0x7 0x2 0x3 0x4 0x0 0x0 0x0 0x0
2022-07-26 18:11:03,742 pymodbus.framer.socket_framer - DEBUG - Processing: 0x0 0x36 0x0 0x0 0x0 0x7 0x2 0x3 0x4 0x0 0x0 0x0 0x0
2022-07-26 18:11:03,742 pymodbus.factory - DEBUG - Factory Response[ReadHoldingRegistersResponse: 3]
2022-07-26 18:11:03,743 pymodbus.transaction - DEBUG - Adding transaction 54
2022-07-26 18:11:03,743 pymodbus.transaction - DEBUG - Getting transaction 54
2022-07-26 18:11:03,743 pymodbus.transaction - DEBUG - Changing transaction state from 'PROCESSING REPLY' to 'TRANSACTION_COMPLETE'
2022-07-26 18:11:03,743 pymodbus.transaction - DEBUG - Current transaction state - TRANSACTION_COMPLETE
2022-07-26 18:11:03,743 pymodbus.transaction - DEBUG - Running transaction 55
2022-07-26 18:11:03,743 pymodbus.transaction - DEBUG - SEND: 0x0 0x37 0x0 0x0 0x0 0x6 0x2 0x3 0x0 0x2a 0x0 0x2
2022-07-26 18:11:03,743 pymodbus.client.sync - DEBUG - New Transaction state 'SENDING'
2022-07-26 18:11:03,743 pymodbus.transaction - DEBUG - Changing transaction state from 'SENDING' to 'WAITING FOR REPLY'
2022-07-26 18:11:03,772 pymodbus.transaction - DEBUG - Changing transaction state from 'WAITING FOR REPLY' to 'PROCESSING REPLY'
2022-07-26 18:11:03,773 pymodbus.transaction - DEBUG - RECV: 0x0 0x37 0x0 0x0 0x0 0x7 0x2 0x3 0x4 0x0 0x0 0x0 0x0
2022-07-26 18:11:03,773 pymodbus.framer.socket_framer - DEBUG - Processing: 0x0 0x37 0x0 0x0 0x0 0x7 0x2 0x3 0x4 0x0 0x0 0x0 0x0
2022-07-26 18:11:03,773 pymodbus.factory - DEBUG - Factory Response[ReadHoldingRegistersResponse: 3]
2022-07-26 18:11:03,773 pymodbus.transaction - DEBUG - Adding transaction 55
2022-07-26 18:11:03,773 pymodbus.transaction - DEBUG - Getting transaction 55
2022-07-26 18:11:03,773 pymodbus.transaction - DEBUG - Changing transaction state from 'PROCESSING REPLY' to 'TRANSACTION_COMPLETE'
2022-07-26 18:11:03,773 pymodbus.transaction - DEBUG - Current transaction state - TRANSACTION_COMPLETE
2022-07-26 18:11:03,774 pymodbus.transaction - DEBUG - Running transaction 56
2022-07-26 18:11:03,774 pymodbus.transaction - DEBUG - SEND: 0x0 0x38 0x0 0x0 0x0 0x6 0x2 0x3 0x0 0x2c 0x0 0x2
2022-07-26 18:11:03,774 pymodbus.client.sync - DEBUG - New Transaction state 'SENDING'
2022-07-26 18:11:03,774 pymodbus.transaction - DEBUG - Changing transaction state from 'SENDING' to 'WAITING FOR REPLY'
2022-07-26 18:11:03,804 pymodbus.transaction - DEBUG - Changing transaction state from 'WAITING FOR REPLY' to 'PROCESSING REPLY'
2022-07-26 18:11:03,804 pymodbus.transaction - DEBUG - RECV: 0x0 0x38 0x0 0x0 0x0 0x7 0x2 0x3 0x4 0x0 0x0 0x0 0x0
2022-07-26 18:11:03,804 pymodbus.framer.socket_framer - DEBUG - Processing: 0x0 0x38 0x0 0x0 0x0 0x7 0x2 0x3 0x4 0x0 0x0 0x0 0x0
2022-07-26 18:11:03,804 pymodbus.factory - DEBUG - Factory Response[ReadHoldingRegistersResponse: 3]
2022-07-26 18:11:03,805 pymodbus.transaction - DEBUG - Adding transaction 56
2022-07-26 18:11:03,805 pymodbus.transaction - DEBUG - Getting transaction 56
2022-07-26 18:11:03,805 pymodbus.transaction - DEBUG - Changing transaction state from 'PROCESSING REPLY' to 'TRANSACTION_COMPLETE'
2022-07-26 18:11:03,805 pymodbus.transaction - DEBUG - Current transaction state - TRANSACTION_COMPLETE
2022-07-26 18:11:03,805 pymodbus.transaction - DEBUG - Running transaction 57
2022-07-26 18:11:03,805 pymodbus.transaction - DEBUG - SEND: 0x0 0x39 0x0 0x0 0x0 0x6 0x2 0x3 0x0 0x2e 0x0 0x2
2022-07-26 18:11:03,805 pymodbus.client.sync - DEBUG - New Transaction state 'SENDING'
2022-07-26 18:11:03,805 pymodbus.transaction - DEBUG - Changing transaction state from 'SENDING' to 'WAITING FOR REPLY'
2022-07-26 18:11:03,834 pymodbus.transaction - DEBUG - Changing transaction state from 'WAITING FOR REPLY' to 'PROCESSING REPLY'
2022-07-26 18:11:03,834 pymodbus.transaction - DEBUG - RECV: 0x0 0x39 0x0 0x0 0x0 0x7 0x2 0x3 0x4 0x0 0x0 0x0 0x0
2022-07-26 18:11:03,834 pymodbus.framer.socket_framer - DEBUG - Processing: 0x0 0x39 0x0 0x0 0x0 0x7 0x2 0x3 0x4 0x0 0x0 0x0 0x0
2022-07-26 18:11:03,834 pymodbus.factory - DEBUG - Factory Response[ReadHoldingRegistersResponse: 3]
2022-07-26 18:11:03,835 pymodbus.transaction - DEBUG - Adding transaction 57
2022-07-26 18:11:03,835 pymodbus.transaction - DEBUG - Getting transaction 57
2022-07-26 18:11:03,835 pymodbus.transaction - DEBUG - Changing transaction state from 'PROCESSING REPLY' to 'TRANSACTION_COMPLETE'
2022-07-26 18:11:03,835 pymodbus.transaction - DEBUG - Current transaction state - TRANSACTION_COMPLETE
2022-07-26 18:11:03,836 pymodbus.transaction - DEBUG - Running transaction 58
2022-07-26 18:11:03,836 pymodbus.transaction - DEBUG - SEND: 0x0 0x3a 0x0 0x0 0x0 0x6 0x2 0x3 0x0 0x30 0x0 0x2
2022-07-26 18:11:03,836 pymodbus.client.sync - DEBUG - New Transaction state 'SENDING'
2022-07-26 18:11:03,836 pymodbus.transaction - DEBUG - Changing transaction state from 'SENDING' to 'WAITING FOR REPLY'
2022-07-26 18:11:03,865 pymodbus.transaction - DEBUG - Changing transaction state from 'WAITING FOR REPLY' to 'PROCESSING REPLY'
2022-07-26 18:11:03,866 pymodbus.transaction - DEBUG - RECV: 0x0 0x3a 0x0 0x0 0x0 0x7 0x2 0x3 0x4 0x0 0x0 0x0 0x0
2022-07-26 18:11:03,866 pymodbus.framer.socket_framer - DEBUG - Processing: 0x0 0x3a 0x0 0x0 0x0 0x7 0x2 0x3 0x4 0x0 0x0 0x0 0x0
2022-07-26 18:11:03,866 pymodbus.factory - DEBUG - Factory Response[ReadHoldingRegistersResponse: 3]
2022-07-26 18:11:03,866 pymodbus.transaction - DEBUG - Adding transaction 58
2022-07-26 18:11:03,866 pymodbus.transaction - DEBUG - Getting transaction 58
2022-07-26 18:11:03,866 pymodbus.transaction - DEBUG - Changing transaction state from 'PROCESSING REPLY' to 'TRANSACTION_COMPLETE'
2022-07-26 18:11:03,866 pymodbus.transaction - DEBUG - Current transaction state - TRANSACTION_COMPLETE
2022-07-26 18:11:03,866 pymodbus.transaction - DEBUG - Running transaction 59
2022-07-26 18:11:03,866 pymodbus.transaction - DEBUG - SEND: 0x0 0x3b 0x0 0x0 0x0 0x6 0x2 0x3 0x0 0x32 0x0 0x2
2022-07-26 18:11:03,866 pymodbus.client.sync - DEBUG - New Transaction state 'SENDING'
2022-07-26 18:11:03,866 pymodbus.transaction - DEBUG - Changing transaction state from 'SENDING' to 'WAITING FOR REPLY'
2022-07-26 18:11:03,897 pymodbus.transaction - DEBUG - Changing transaction state from 'WAITING FOR REPLY' to 'PROCESSING REPLY'
2022-07-26 18:11:03,897 pymodbus.transaction - DEBUG - RECV: 0x0 0x3b 0x0 0x0 0x0 0x7 0x2 0x3 0x4 0x0 0x0 0x0 0x0
2022-07-26 18:11:03,897 pymodbus.framer.socket_framer - DEBUG - Processing: 0x0 0x3b 0x0 0x0 0x0 0x7 0x2 0x3 0x4 0x0 0x0 0x0 0x0
2022-07-26 18:11:03,897 pymodbus.factory - DEBUG - Factory Response[ReadHoldingRegistersResponse: 3]
2022-07-26 18:11:03,898 pymodbus.transaction - DEBUG - Adding transaction 59
2022-07-26 18:11:03,898 pymodbus.transaction - DEBUG - Getting transaction 59
2022-07-26 18:11:03,898 pymodbus.transaction - DEBUG - Changing transaction state from 'PROCESSING REPLY' to 'TRANSACTION_COMPLETE'
2022-07-26 18:11:03,898 pymodbus.transaction - DEBUG - Current transaction state - TRANSACTION_COMPLETE
2022-07-26 18:11:03,898 pymodbus.transaction - DEBUG - Running transaction 60
2022-07-26 18:11:03,898 pymodbus.transaction - DEBUG - SEND: 0x0 0x3c 0x0 0x0 0x0 0x6 0x2 0x3 0x0 0x34 0x0 0x2
2022-07-26 18:11:03,898 pymodbus.client.sync - DEBUG - New Transaction state 'SENDING'
2022-07-26 18:11:03,898 pymodbus.transaction - DEBUG - Changing transaction state from 'SENDING' to 'WAITING FOR REPLY'
2022-07-26 18:11:03,928 pymodbus.transaction - DEBUG - Changing transaction state from 'WAITING FOR REPLY' to 'PROCESSING REPLY'
2022-07-26 18:11:03,929 pymodbus.transaction - DEBUG - RECV: 0x0 0x3c 0x0 0x0 0x0 0x7 0x2 0x3 0x4 0x0 0x0 0x0 0x0
2022-07-26 18:11:03,929 pymodbus.framer.socket_framer - DEBUG - Processing: 0x0 0x3c 0x0 0x0 0x0 0x7 0x2 0x3 0x4 0x0 0x0 0x0 0x0
2022-07-26 18:11:03,929 pymodbus.factory - DEBUG - Factory Response[ReadHoldingRegistersResponse: 3]
2022-07-26 18:11:03,929 pymodbus.transaction - DEBUG - Adding transaction 60
2022-07-26 18:11:03,929 pymodbus.transaction - DEBUG - Getting transaction 60
2022-07-26 18:11:03,929 pymodbus.transaction - DEBUG - Changing transaction state from 'PROCESSING REPLY' to 'TRANSACTION_COMPLETE'
2022-07-26 18:11:03,929 pymodbus.transaction - DEBUG - Current transaction state - TRANSACTION_COMPLETE
2022-07-26 18:11:03,929 pymodbus.transaction - DEBUG - Running transaction 61
2022-07-26 18:11:03,929 pymodbus.transaction - DEBUG - SEND: 0x0 0x3d 0x0 0x0 0x0 0x6 0x2 0x3 0x0 0x36 0x0 0x2
2022-07-26 18:11:03,929 pymodbus.client.sync - DEBUG - New Transaction state 'SENDING'
2022-07-26 18:11:03,929 pymodbus.transaction - DEBUG - Changing transaction state from 'SENDING' to 'WAITING FOR REPLY'
2022-07-26 18:11:03,960 pymodbus.transaction - DEBUG - Changing transaction state from 'WAITING FOR REPLY' to 'PROCESSING REPLY'
2022-07-26 18:11:03,960 pymodbus.transaction - DEBUG - RECV: 0x0 0x3d 0x0 0x0 0x0 0x7 0x2 0x3 0x4 0x0 0x0 0x0 0x0
2022-07-26 18:11:03,960 pymodbus.framer.socket_framer - DEBUG - Processing: 0x0 0x3d 0x0 0x0 0x0 0x7 0x2 0x3 0x4 0x0 0x0 0x0 0x0
2022-07-26 18:11:03,960 pymodbus.factory - DEBUG - Factory Response[ReadHoldingRegistersResponse: 3]
2022-07-26 18:11:03,961 pymodbus.transaction - DEBUG - Adding transaction 61
2022-07-26 18:11:03,961 pymodbus.transaction - DEBUG - Getting transaction 61
2022-07-26 18:11:03,961 pymodbus.transaction - DEBUG - Changing transaction state from 'PROCESSING REPLY' to 'TRANSACTION_COMPLETE'
2022-07-26 18:11:03,961 pymodbus.transaction - DEBUG - Current transaction state - TRANSACTION_COMPLETE
2022-07-26 18:11:03,961 pymodbus.transaction - DEBUG - Running transaction 62
2022-07-26 18:11:03,961 pymodbus.transaction - DEBUG - SEND: 0x0 0x3e 0x0 0x0 0x0 0x6 0x2 0x3 0x0 0x38 0x0 0x2
2022-07-26 18:11:03,961 pymodbus.client.sync - DEBUG - New Transaction state 'SENDING'
2022-07-26 18:11:03,961 pymodbus.transaction - DEBUG - Changing transaction state from 'SENDING' to 'WAITING FOR REPLY'
2022-07-26 18:11:03,991 pymodbus.transaction - DEBUG - Changing transaction state from 'WAITING FOR REPLY' to 'PROCESSING REPLY'
2022-07-26 18:11:03,991 pymodbus.transaction - DEBUG - RECV: 0x0 0x3e 0x0 0x0 0x0 0x7 0x2 0x3 0x4 0x0 0x0 0x0 0x0
2022-07-26 18:11:03,992 pymodbus.framer.socket_framer - DEBUG - Processing: 0x0 0x3e 0x0 0x0 0x0 0x7 0x2 0x3 0x4 0x0 0x0 0x0 0x0
2022-07-26 18:11:03,992 pymodbus.factory - DEBUG - Factory Response[ReadHoldingRegistersResponse: 3]
2022-07-26 18:11:03,992 pymodbus.transaction - DEBUG - Adding transaction 62
2022-07-26 18:11:03,992 pymodbus.transaction - DEBUG - Getting transaction 62
2022-07-26 18:11:03,992 pymodbus.transaction - DEBUG - Changing transaction state from 'PROCESSING REPLY' to 'TRANSACTION_COMPLETE'
2022-07-26 18:11:03,992 pymodbus.transaction - DEBUG - Current transaction state - TRANSACTION_COMPLETE
2022-07-26 18:11:03,992 pymodbus.transaction - DEBUG - Running transaction 63
2022-07-26 18:11:03,992 pymodbus.transaction - DEBUG - SEND: 0x0 0x3f 0x0 0x0 0x0 0x6 0x2 0x3 0x0 0x3a 0x0 0x2
2022-07-26 18:11:03,992 pymodbus.client.sync - DEBUG - New Transaction state 'SENDING'
2022-07-26 18:11:03,992 pymodbus.transaction - DEBUG - Changing transaction state from 'SENDING' to 'WAITING FOR REPLY'
2022-07-26 18:11:04,022 pymodbus.transaction - DEBUG - Changing transaction state from 'WAITING FOR REPLY' to 'PROCESSING REPLY'
2022-07-26 18:11:04,022 pymodbus.transaction - DEBUG - RECV: 0x0 0x3f 0x0 0x0 0x0 0x7 0x2 0x3 0x4 0x0 0x0 0x0 0x0
2022-07-26 18:11:04,022 pymodbus.framer.socket_framer - DEBUG - Processing: 0x0 0x3f 0x0 0x0 0x0 0x7 0x2 0x3 0x4 0x0 0x0 0x0 0x0
2022-07-26 18:11:04,022 pymodbus.factory - DEBUG - Factory Response[ReadHoldingRegistersResponse: 3]
2022-07-26 18:11:04,022 pymodbus.transaction - DEBUG - Adding transaction 63
2022-07-26 18:11:04,022 pymodbus.transaction - DEBUG - Getting transaction 63
2022-07-26 18:11:04,022 pymodbus.transaction - DEBUG - Changing transaction state from 'PROCESSING REPLY' to 'TRANSACTION_COMPLETE'
2022-07-26 18:11:04,022 pymodbus.transaction - DEBUG - Current transaction state - TRANSACTION_COMPLETE
2022-07-26 18:11:04,023 pymodbus.transaction - DEBUG - Running transaction 64
2022-07-26 18:11:04,023 pymodbus.transaction - DEBUG - SEND: 0x0 0x40 0x0 0x0 0x0 0x6 0x2 0x3 0x0 0x3c 0x0 0x2
2022-07-26 18:11:04,023 pymodbus.client.sync - DEBUG - New Transaction state 'SENDING'
2022-07-26 18:11:04,024 pymodbus.transaction - DEBUG - Changing transaction state from 'SENDING' to 'WAITING FOR REPLY'
2022-07-26 18:11:04,054 pymodbus.transaction - DEBUG - Changing transaction state from 'WAITING FOR REPLY' to 'PROCESSING REPLY'
2022-07-26 18:11:04,054 pymodbus.transaction - DEBUG - RECV: 0x0 0x40 0x0 0x0 0x0 0x7 0x2 0x3 0x4 0x0 0x0 0x0 0x0
2022-07-26 18:11:04,054 pymodbus.framer.socket_framer - DEBUG - Processing: 0x0 0x40 0x0 0x0 0x0 0x7 0x2 0x3 0x4 0x0 0x0 0x0 0x0
2022-07-26 18:11:04,054 pymodbus.factory - DEBUG - Factory Response[ReadHoldingRegistersResponse: 3]
2022-07-26 18:11:04,054 pymodbus.transaction - DEBUG - Adding transaction 64
2022-07-26 18:11:04,054 pymodbus.transaction - DEBUG - Getting transaction 64
2022-07-26 18:11:04,054 pymodbus.transaction - DEBUG - Changing transaction state from 'PROCESSING REPLY' to 'TRANSACTION_COMPLETE'
2022-07-26 18:11:04,054 pymodbus.transaction - DEBUG - Current transaction state - TRANSACTION_COMPLETE
2022-07-26 18:11:04,054 pymodbus.transaction - DEBUG - Running transaction 65
2022-07-26 18:11:04,054 pymodbus.transaction - DEBUG - SEND: 0x0 0x41 0x0 0x0 0x0 0x6 0x2 0x3 0x0 0x40 0x0 0x2
2022-07-26 18:11:04,055 pymodbus.client.sync - DEBUG - New Transaction state 'SENDING'
2022-07-26 18:11:04,055 pymodbus.transaction - DEBUG - Changing transaction state from 'SENDING' to 'WAITING FOR REPLY'
2022-07-26 18:11:04,084 pymodbus.transaction - DEBUG - Changing transaction state from 'WAITING FOR REPLY' to 'PROCESSING REPLY'
2022-07-26 18:11:04,084 pymodbus.transaction - DEBUG - RECV: 0x0 0x41 0x0 0x0 0x0 0x7 0x2 0x3 0x4 0x0 0x0 0x0 0x0
2022-07-26 18:11:04,085 pymodbus.framer.socket_framer - DEBUG - Processing: 0x0 0x41 0x0 0x0 0x0 0x7 0x2 0x3 0x4 0x0 0x0 0x0 0x0
2022-07-26 18:11:04,085 pymodbus.factory - DEBUG - Factory Response[ReadHoldingRegistersResponse: 3]
2022-07-26 18:11:04,085 pymodbus.transaction - DEBUG - Adding transaction 65
2022-07-26 18:11:04,085 pymodbus.transaction - DEBUG - Getting transaction 65
2022-07-26 18:11:04,085 pymodbus.transaction - DEBUG - Changing transaction state from 'PROCESSING REPLY' to 'TRANSACTION_COMPLETE'
2022-07-26 18:11:04,085 pymodbus.transaction - DEBUG - Current transaction state - TRANSACTION_COMPLETE
2022-07-26 18:11:04,085 pymodbus.transaction - DEBUG - Running transaction 66
2022-07-26 18:11:04,085 pymodbus.transaction - DEBUG - SEND: 0x0 0x42 0x0 0x0 0x0 0x6 0x2 0x3 0x0 0x3e 0x0 0x2
2022-07-26 18:11:04,085 pymodbus.client.sync - DEBUG - New Transaction state 'SENDING'
2022-07-26 18:11:04,085 pymodbus.transaction - DEBUG - Changing transaction state from 'SENDING' to 'WAITING FOR REPLY'
2022-07-26 18:11:04,115 pymodbus.transaction - DEBUG - Changing transaction state from 'WAITING FOR REPLY' to 'PROCESSING REPLY'
2022-07-26 18:11:04,115 pymodbus.transaction - DEBUG - RECV: 0x0 0x42 0x0 0x0 0x0 0x7 0x2 0x3 0x4 0x0 0x0 0x0 0x0
2022-07-26 18:11:04,115 pymodbus.framer.socket_framer - DEBUG - Processing: 0x0 0x42 0x0 0x0 0x0 0x7 0x2 0x3 0x4 0x0 0x0 0x0 0x0
2022-07-26 18:11:04,115 pymodbus.factory - DEBUG - Factory Response[ReadHoldingRegistersResponse: 3]
2022-07-26 18:11:04,116 pymodbus.transaction - DEBUG - Adding transaction 66
2022-07-26 18:11:04,116 pymodbus.transaction - DEBUG - Getting transaction 66
2022-07-26 18:11:04,116 pymodbus.transaction - DEBUG - Changing transaction state from 'PROCESSING REPLY' to 'TRANSACTION_COMPLETE'
2022-07-26 18:11:04,116 pymodbus.transaction - DEBUG - Current transaction state - TRANSACTION_COMPLETE
2022-07-26 18:11:04,116 pymodbus.transaction - DEBUG - Running transaction 67
2022-07-26 18:11:04,117 pymodbus.transaction - DEBUG - SEND: 0x0 0x43 0x0 0x0 0x0 0x6 0x2 0x3 0x0 0x66 0x0 0x2
2022-07-26 18:11:04,117 pymodbus.client.sync - DEBUG - New Transaction state 'SENDING'
2022-07-26 18:11:04,117 pymodbus.transaction - DEBUG - Changing transaction state from 'SENDING' to 'WAITING FOR REPLY'
2022-07-26 18:11:04,146 pymodbus.transaction - DEBUG - Changing transaction state from 'WAITING FOR REPLY' to 'PROCESSING REPLY'
2022-07-26 18:11:04,146 pymodbus.transaction - DEBUG - RECV: 0x0 0x43 0x0 0x0 0x0 0x7 0x2 0x3 0x4 0x0 0x0 0x0 0x0
2022-07-26 18:11:04,146 pymodbus.framer.socket_framer - DEBUG - Processing: 0x0 0x43 0x0 0x0 0x0 0x7 0x2 0x3 0x4 0x0 0x0 0x0 0x0
2022-07-26 18:11:04,147 pymodbus.factory - DEBUG - Factory Response[ReadHoldingRegistersResponse: 3]
2022-07-26 18:11:04,147 pymodbus.transaction - DEBUG - Adding transaction 67
2022-07-26 18:11:04,147 pymodbus.transaction - DEBUG - Getting transaction 67
2022-07-26 18:11:04,147 pymodbus.transaction - DEBUG - Changing transaction state from 'PROCESSING REPLY' to 'TRANSACTION_COMPLETE'
2022-07-26 18:11:04,147 pymodbus.transaction - DEBUG - Current transaction state - TRANSACTION_COMPLETE
2022-07-26 18:11:04,147 pymodbus.transaction - DEBUG - Running transaction 68
2022-07-26 18:11:04,147 pymodbus.transaction - DEBUG - SEND: 0x0 0x44 0x0 0x0 0x0 0x6 0x2 0x3 0x0 0x68 0x0 0x2
2022-07-26 18:11:04,147 pymodbus.client.sync - DEBUG - New Transaction state 'SENDING'
2022-07-26 18:11:04,147 pymodbus.transaction - DEBUG - Changing transaction state from 'SENDING' to 'WAITING FOR REPLY'
2022-07-26 18:11:04,177 pymodbus.transaction - DEBUG - Changing transaction state from 'WAITING FOR REPLY' to 'PROCESSING REPLY'
2022-07-26 18:11:04,177 pymodbus.transaction - DEBUG - RECV: 0x0 0x44 0x0 0x0 0x0 0x7 0x2 0x3 0x4 0x0 0x0 0x0 0x0
2022-07-26 18:11:04,178 pymodbus.framer.socket_framer - DEBUG - Processing: 0x0 0x44 0x0 0x0 0x0 0x7 0x2 0x3 0x4 0x0 0x0 0x0 0x0
2022-07-26 18:11:04,178 pymodbus.factory - DEBUG - Factory Response[ReadHoldingRegistersResponse: 3]
2022-07-26 18:11:04,178 pymodbus.transaction - DEBUG - Adding transaction 68
2022-07-26 18:11:04,178 pymodbus.transaction - DEBUG - Getting transaction 68
2022-07-26 18:11:04,178 pymodbus.transaction - DEBUG - Changing transaction state from 'PROCESSING REPLY' to 'TRANSACTION_COMPLETE'
2022-07-26 18:11:04,178 pymodbus.transaction - DEBUG - Current transaction state - TRANSACTION_COMPLETE
2022-07-26 18:11:04,178 pymodbus.transaction - DEBUG - Running transaction 69
2022-07-26 18:11:04,178 pymodbus.transaction - DEBUG - SEND: 0x0 0x45 0x0 0x0 0x0 0x6 0x2 0x3 0x0 0x6e 0x0 0x2
2022-07-26 18:11:04,178 pymodbus.client.sync - DEBUG - New Transaction state 'SENDING'
2022-07-26 18:11:04,178 pymodbus.transaction - DEBUG - Changing transaction state from 'SENDING' to 'WAITING FOR REPLY'
2022-07-26 18:11:04,209 pymodbus.transaction - DEBUG - Changing transaction state from 'WAITING FOR REPLY' to 'PROCESSING REPLY'
2022-07-26 18:11:04,209 pymodbus.transaction - DEBUG - RECV: 0x0 0x45 0x0 0x0 0x0 0x7 0x2 0x3 0x4 0x0 0x0 0x0 0x0
2022-07-26 18:11:04,209 pymodbus.framer.socket_framer - DEBUG - Processing: 0x0 0x45 0x0 0x0 0x0 0x7 0x2 0x3 0x4 0x0 0x0 0x0 0x0
2022-07-26 18:11:04,210 pymodbus.factory - DEBUG - Factory Response[ReadHoldingRegistersResponse: 3]
2022-07-26 18:11:04,210 pymodbus.transaction - DEBUG - Adding transaction 69
2022-07-26 18:11:04,210 pymodbus.transaction - DEBUG - Getting transaction 69
2022-07-26 18:11:04,210 pymodbus.transaction - DEBUG - Changing transaction state from 'PROCESSING REPLY' to 'TRANSACTION_COMPLETE'
2022-07-26 18:11:04,210 pymodbus.transaction - DEBUG - Current transaction state - TRANSACTION_COMPLETE
2022-07-26 18:11:04,210 pymodbus.transaction - DEBUG - Running transaction 70
2022-07-26 18:11:04,210 pymodbus.transaction - DEBUG - SEND: 0x0 0x46 0x0 0x0 0x0 0x6 0x2 0x3 0x0 0x70 0x0 0x2
2022-07-26 18:11:04,211 pymodbus.client.sync - DEBUG - New Transaction state 'SENDING'
2022-07-26 18:11:04,211 pymodbus.transaction - DEBUG - Changing transaction state from 'SENDING' to 'WAITING FOR REPLY'
2022-07-26 18:11:04,237 pymodbus.transaction - DEBUG - Changing transaction state from 'WAITING FOR REPLY' to 'PROCESSING REPLY'
2022-07-26 18:11:04,237 pymodbus.transaction - DEBUG - RECV: 0x0 0x46 0x0 0x0 0x0 0x7 0x2 0x3 0x4 0x0 0x0 0x0 0x0
2022-07-26 18:11:04,239 pymodbus.framer.socket_framer - DEBUG - Processing: 0x0 0x46 0x0 0x0 0x0 0x7 0x2 0x3 0x4 0x0 0x0 0x0 0x0
2022-07-26 18:11:04,239 pymodbus.factory - DEBUG - Factory Response[ReadHoldingRegistersResponse: 3]
2022-07-26 18:11:04,239 pymodbus.transaction - DEBUG - Adding transaction 70
2022-07-26 18:11:04,239 pymodbus.transaction - DEBUG - Getting transaction 70
2022-07-26 18:11:04,239 pymodbus.transaction - DEBUG - Changing transaction state from 'PROCESSING REPLY' to 'TRANSACTION_COMPLETE'
2022-07-26 18:11:04,239 log1 - DEBUG - Reading Register Complete
2022-07-26 18:11:04,241 log1 - DEBUG - Posting Data to DB
2022-07-26 18:11:04,245 urllib3.connectionpool - DEBUG - Resetting dropped connection: 192.168.1.36
2022-07-26 18:11:04,265 urllib3.connectionpool - DEBUG - http://192.168.1.36:4000 "POST /data HTTP/1.1" 200 20
2022-07-26 18:11:04,265 root - DEBUG - {"index":0,"code":2}
2022-07-26 18:11:04,265 log1 - DEBUG - POST Complete
2022-07-26 18:11:04,266 log1 - DEBUG - Sending to Local DB
2022-07-26 18:11:04,269 log1 - DEBUG - Local DB document inserted
2022-07-26 18:11:09,278 root - DEBUG - Reading Registers
2022-07-26 18:11:09,278 log1 - DEBUG - Reading Registers
2022-07-26 18:11:09,280 pymodbus.transaction - DEBUG - Current transaction state - TRANSACTION_COMPLETE
2022-07-26 18:11:09,280 pymodbus.transaction - DEBUG - Running transaction 71
2022-07-26 18:11:09,280 pymodbus.transaction - DEBUG - SEND: 0x0 0x47 0x0 0x0 0x0 0x6 0x2 0x3 0x0 0x0 0x0 0x2
2022-07-26 18:11:09,280 pymodbus.client.sync - DEBUG - New Transaction state 'SENDING'
2022-07-26 18:11:09,280 pymodbus.transaction - DEBUG - Changing transaction state from 'SENDING' to 'WAITING FOR REPLY'
2022-07-26 18:11:09,294 pymodbus.transaction - DEBUG - Changing transaction state from 'WAITING FOR REPLY' to 'PROCESSING REPLY'
2022-07-26 18:11:09,294 pymodbus.transaction - DEBUG - RECV: 0x0 0x47 0x0 0x0 0x0 0x7 0x2 0x3 0x4 0x0 0x0 0xff 0xfe
2022-07-26 18:11:09,294 pymodbus.framer.socket_framer - DEBUG - Processing: 0x0 0x47 0x0 0x0 0x0 0x7 0x2 0x3 0x4 0x0 0x0 0xff 0xfe
2022-07-26 18:11:09,294 pymodbus.factory - DEBUG - Factory Response[ReadHoldingRegistersResponse: 3]
2022-07-26 18:11:09,294 pymodbus.transaction - DEBUG - Adding transaction 71
2022-07-26 18:11:09,294 pymodbus.transaction - DEBUG - Getting transaction 71
2022-07-26 18:11:09,296 pymodbus.transaction - DEBUG - Changing transaction state from 'PROCESSING REPLY' to 'TRANSACTION_COMPLETE'
2022-07-26 18:11:09,296 pymodbus.transaction - DEBUG - Current transaction state - TRANSACTION_COMPLETE
2022-07-26 18:11:09,296 pymodbus.transaction - DEBUG - Running transaction 72
2022-07-26 18:11:09,296 pymodbus.transaction - DEBUG - SEND: 0x0 0x48 0x0 0x0 0x0 0x6 0x2 0x3 0x0 0x2 0x0 0x2
2022-07-26 18:11:09,296 pymodbus.client.sync - DEBUG - New Transaction state 'SENDING'
2022-07-26 18:11:09,296 pymodbus.transaction - DEBUG - Changing transaction state from 'SENDING' to 'WAITING FOR REPLY'
2022-07-26 18:11:09,326 pymodbus.transaction - DEBUG - Changing transaction state from 'WAITING FOR REPLY' to 'PROCESSING REPLY'
2022-07-26 18:11:09,326 pymodbus.transaction - DEBUG - RECV: 0x0 0x48 0x0 0x0 0x0 0x7 0x2 0x3 0x4 0x0 0x0 0x0 0x50
2022-07-26 18:11:09,327 pymodbus.framer.socket_framer - DEBUG - Processing: 0x0 0x48 0x0 0x0 0x0 0x7 0x2 0x3 0x4 0x0 0x0 0x0 0x50
2022-07-26 18:11:09,327 pymodbus.factory - DEBUG - Factory Response[ReadHoldingRegistersResponse: 3]
2022-07-26 18:11:09,327 pymodbus.transaction - DEBUG - Adding transaction 72
2022-07-26 18:11:09,327 pymodbus.transaction - DEBUG - Getting transaction 72
2022-07-26 18:11:09,327 pymodbus.transaction - DEBUG - Changing transaction state from 'PROCESSING REPLY' to 'TRANSACTION_COMPLETE'
2022-07-26 18:11:09,327 pymodbus.transaction - DEBUG - Current transaction state - TRANSACTION_COMPLETE
2022-07-26 18:11:09,327 pymodbus.transaction - DEBUG - Running transaction 73
2022-07-26 18:11:09,327 pymodbus.transaction - DEBUG - SEND: 0x0 0x49 0x0 0x0 0x0 0x6 0x2 0x3 0x0 0x4 0x0 0x2
2022-07-26 18:11:09,328 pymodbus.client.sync - DEBUG - New Transaction state 'SENDING'
2022-07-26 18:11:09,328 pymodbus.transaction - DEBUG - Changing transaction state from 'SENDING' to 'WAITING FOR REPLY'
2022-07-26 18:11:09,357 pymodbus.transaction - DEBUG - Changing transaction state from 'WAITING FOR REPLY' to 'PROCESSING REPLY'
2022-07-26 18:11:09,358 pymodbus.transaction - DEBUG - RECV: 0x0 0x49 0x0 0x0 0x0 0x7 0x2 0x3 0x4 0x0 0x0 0x0 0x17
2022-07-26 18:11:09,358 pymodbus.framer.socket_framer - DEBUG - Processing: 0x0 0x49 0x0 0x0 0x0 0x7 0x2 0x3 0x4 0x0 0x0 0x0 0x17
2022-07-26 18:11:09,358 pymodbus.factory - DEBUG - Factory Response[ReadHoldingRegistersResponse: 3]
2022-07-26 18:11:09,358 pymodbus.transaction - DEBUG - Adding transaction 73
2022-07-26 18:11:09,359 pymodbus.transaction - DEBUG - Getting transaction 73
2022-07-26 18:11:09,359 pymodbus.transaction - DEBUG - Changing transaction state from 'PROCESSING REPLY' to 'TRANSACTION_COMPLETE'
2022-07-26 18:11:09,359 pymodbus.transaction - DEBUG - Current transaction state - TRANSACTION_COMPLETE
2022-07-26 18:11:09,359 pymodbus.transaction - DEBUG - Running transaction 74
2022-07-26 18:11:09,359 pymodbus.transaction - DEBUG - SEND: 0x0 0x4a 0x0 0x0 0x0 0x6 0x2 0x3 0x0 0x6 0x0 0x2
2022-07-26 18:11:09,359 pymodbus.client.sync - DEBUG - New Transaction state 'SENDING'
2022-07-26 18:11:09,360 pymodbus.transaction - DEBUG - Changing transaction state from 'SENDING' to 'WAITING FOR REPLY'
2022-07-26 18:11:09,389 pymodbus.transaction - DEBUG - Changing transaction state from 'WAITING FOR REPLY' to 'PROCESSING REPLY'
2022-07-26 18:11:09,389 pymodbus.transaction - DEBUG - RECV: 0x0 0x4a 0x0 0x0 0x0 0x7 0x2 0x3 0x4 0x0 0x0 0x0 0x4
2022-07-26 18:11:09,389 pymodbus.framer.socket_framer - DEBUG - Processing: 0x0 0x4a 0x0 0x0 0x0 0x7 0x2 0x3 0x4 0x0 0x0 0x0 0x4
2022-07-26 18:11:09,389 pymodbus.factory - DEBUG - Factory Response[ReadHoldingRegistersResponse: 3]
2022-07-26 18:11:09,390 pymodbus.transaction - DEBUG - Adding transaction 74
2022-07-26 18:11:09,390 pymodbus.transaction - DEBUG - Getting transaction 74
2022-07-26 18:11:09,390 pymodbus.transaction - DEBUG - Changing transaction state from 'PROCESSING REPLY' to 'TRANSACTION_COMPLETE'
2022-07-26 18:11:09,390 pymodbus.transaction - DEBUG - Current transaction state - TRANSACTION_COMPLETE
2022-07-26 18:11:09,390 pymodbus.transaction - DEBUG - Running transaction 75
2022-07-26 18:11:09,390 pymodbus.transaction - DEBUG - SEND: 0x0 0x4b 0x0 0x0 0x0 0x6 0x2 0x3 0x0 0xc 0x0 0x2
2022-07-26 18:11:09,390 pymodbus.client.sync - DEBUG - New Transaction state 'SENDING'
2022-07-26 18:11:09,391 pymodbus.transaction - DEBUG - Changing transaction state from 'SENDING' to 'WAITING FOR REPLY'
2022-07-26 18:11:09,419 pymodbus.transaction - DEBUG - Changing transaction state from 'WAITING FOR REPLY' to 'PROCESSING REPLY'
2022-07-26 18:11:09,419 pymodbus.transaction - DEBUG - RECV: 0x0 0x4b 0x0 0x0 0x0 0x7 0x2 0x3 0x4 0x0 0x0 0x0 0x0
2022-07-26 18:11:09,419 pymodbus.framer.socket_framer - DEBUG - Processing: 0x0 0x4b 0x0 0x0 0x0 0x7 0x2 0x3 0x4 0x0 0x0 0x0 0x0
2022-07-26 18:11:09,419 pymodbus.factory - DEBUG - Factory Response[ReadHoldingRegistersResponse: 3]
2022-07-26 18:11:09,419 pymodbus.transaction - DEBUG - Adding transaction 75
2022-07-26 18:11:09,419 pymodbus.transaction - DEBUG - Getting transaction 75
2022-07-26 18:11:09,419 pymodbus.transaction - DEBUG - Changing transaction state from 'PROCESSING REPLY' to 'TRANSACTION_COMPLETE'
2022-07-26 18:11:09,419 pymodbus.transaction - DEBUG - Current transaction state - TRANSACTION_COMPLETE
2022-07-26 18:11:09,419 pymodbus.transaction - DEBUG - Running transaction 76
2022-07-26 18:11:09,421 pymodbus.transaction - DEBUG - SEND: 0x0 0x4c 0x0 0x0 0x0 0x6 0x2 0x3 0x0 0xe 0x0 0x2
2022-07-26 18:11:09,421 pymodbus.client.sync - DEBUG - New Transaction state 'SENDING'
2022-07-26 18:11:09,421 pymodbus.transaction - DEBUG - Changing transaction state from 'SENDING' to 'WAITING FOR REPLY'
2022-07-26 18:11:09,452 pymodbus.transaction - DEBUG - Changing transaction state from 'WAITING FOR REPLY' to 'PROCESSING REPLY'
2022-07-26 18:11:09,453 pymodbus.transaction - DEBUG - RECV: 0x0 0x4c 0x0 0x0 0x0 0x7 0x2 0x3 0x4 0x0 0x0 0x0 0x0
2022-07-26 18:11:09,453 pymodbus.framer.socket_framer - DEBUG - Processing: 0x0 0x4c 0x0 0x0 0x0 0x7 0x2 0x3 0x4 0x0 0x0 0x0 0x0
2022-07-26 18:11:09,454 pymodbus.factory - DEBUG - Factory Response[ReadHoldingRegistersResponse: 3]
2022-07-26 18:11:09,454 pymodbus.transaction - DEBUG - Adding transaction 76
2022-07-26 18:11:09,454 pymodbus.transaction - DEBUG - Getting transaction 76
2022-07-26 18:11:09,454 pymodbus.transaction - DEBUG - Changing transaction state from 'PROCESSING REPLY' to 'TRANSACTION_COMPLETE'
2022-07-26 18:11:09,454 pymodbus.transaction - DEBUG - Current transaction state - TRANSACTION_COMPLETE
2022-07-26 18:11:09,454 pymodbus.transaction - DEBUG - Running transaction 77
2022-07-26 18:11:09,455 pymodbus.transaction - DEBUG - SEND: 0x0 0x4d 0x0 0x0 0x0 0x6 0x2 0x3 0x0 0x10 0x0 0x2
2022-07-26 18:11:09,455 pymodbus.client.sync - DEBUG - New Transaction state 'SENDING'
2022-07-26 18:11:09,455 pymodbus.transaction - DEBUG - Changing transaction state from 'SENDING' to 'WAITING FOR REPLY'
2022-07-26 18:11:09,482 pymodbus.transaction - DEBUG - Changing transaction state from 'WAITING FOR REPLY' to 'PROCESSING REPLY'
2022-07-26 18:11:09,482 pymodbus.transaction - DEBUG - RECV: 0x0 0x4d 0x0 0x0 0x0 0x7 0x2 0x3 0x4 0x0 0x0 0x0 0x0
2022-07-26 18:11:09,482 pymodbus.framer.socket_framer - DEBUG - Processing: 0x0 0x4d 0x0 0x0 0x0 0x7 0x2 0x3 0x4 0x0 0x0 0x0 0x0
2022-07-26 18:11:09,482 pymodbus.factory - DEBUG - Factory Response[ReadHoldingRegistersResponse: 3]
2022-07-26 18:11:09,483 pymodbus.transaction - DEBUG - Adding transaction 77
2022-07-26 18:11:09,483 pymodbus.transaction - DEBUG - Getting transaction 77
2022-07-26 18:11:09,483 pymodbus.transaction - DEBUG - Changing transaction state from 'PROCESSING REPLY' to 'TRANSACTION_COMPLETE'
2022-07-26 18:11:09,483 pymodbus.transaction - DEBUG - Current transaction state - TRANSACTION_COMPLETE
2022-07-26 18:11:09,483 pymodbus.transaction - DEBUG - Running transaction 78
2022-07-26 18:11:09,483 pymodbus.transaction - DEBUG - SEND: 0x0 0x4e 0x0 0x0 0x0 0x6 0x2 0x3 0x0 0x12 0x0 0x2
2022-07-26 18:11:09,484 pymodbus.client.sync - DEBUG - New Transaction state 'SENDING'
2022-07-26 18:11:09,484 pymodbus.transaction - DEBUG - Changing transaction state from 'SENDING' to 'WAITING FOR REPLY'
2022-07-26 18:11:09,513 pymodbus.transaction - DEBUG - Changing transaction state from 'WAITING FOR REPLY' to 'PROCESSING REPLY'
2022-07-26 18:11:09,513 pymodbus.transaction - DEBUG - RECV: 0x0 0x4e 0x0 0x0 0x0 0x7 0x2 0x3 0x4 0x0 0x0 0xff 0xfe
2022-07-26 18:11:09,513 pymodbus.framer.socket_framer - DEBUG - Processing: 0x0 0x4e 0x0 0x0 0x0 0x7 0x2 0x3 0x4 0x0 0x0 0xff 0xfe
2022-07-26 18:11:09,513 pymodbus.factory - DEBUG - Factory Response[ReadHoldingRegistersResponse: 3]
2022-07-26 18:11:09,513 pymodbus.transaction - DEBUG - Adding transaction 78
2022-07-26 18:11:09,513 pymodbus.transaction - DEBUG - Getting transaction 78
